!Keysight Technologies,E5080A,MY55100144,A.11.70.03
!Date: Monday, November 13, 2017 17:21:25
!Correction: S11(Full 3 Port(1,2,3)) 
!S12(Full 3 Port(1,2,3)) 
!S13(Full 3 Port(1,2,3)) 
!S21(Full 3 Port(1,2,3)) 
!S22(Full 3 Port(1,2,3)) 
!S23(Full 3 Port(1,2,3)) 
!S31(Full 3 Port(1,2,3)) 
!S32(Full 3 Port(1,2,3)) 
!S33(Full 3 Port(1,2,3)) 
!S3P File: Measurements: <S11,S12,S13>,
!<S21,S22,S23>,
!<S31,S32,S33>:Log Frequency Sweep
# Hz S  RI   R 50
10000 0.99667329 -0.0012369398 -8.2503129e-006 9.449674e-005 -1.2559913e-005 0.00016030042
-1.4190332e-006 0.00011466556 0.99888891 -0.0032828515 -7.5293593e-007 0.00071325578
-7.9775509e-006 0.00016092269 8.6273412e-006 0.00068759959 0.99978048 -0.0024456221
10592.537251773 0.99694908 -0.0014355987 4.1686749e-007 0.00010710012 -1.1967423e-005 0.00017994034
-1.2950459e-005 0.00011511811 0.99888963 -0.0033023283 5.6071367e-006 0.00072759087
8.9526657e-006 0.0001805762 -9.3005383e-008 0.00073352648 0.99990332 -0.0022505003
11220.18454302 0.99692178 -0.0015252815 2.0032216e-005 0.00012035541 7.8628673e-006 0.00019394989
-1.5247452e-005 0.00013107777 0.99895424 -0.003616767 2.2029235e-005 0.00079693669
1.5938786e-005 0.00021718936 1.4197146e-005 0.00080797746 0.99988812 -0.0024397182
11885.02227437 0.99684823 -0.0013801786 2.7235747e-005 0.00012916443 1.3144711e-005 0.0002143905
-3.8100459e-006 0.00013095954 0.99882245 -0.0037012212 1.3345292e-005 0.00082557782
1.1948323e-007 0.00020962462 -5.8658802e-006 0.00083820848 0.99988139 -0.0023617975
12589.254117942 0.99690187 -0.0016413413 2.2753678e-005 0.00012060553 1.173162e-005 0.00024496421
6.5948529e-006 0.0001296628 0.99908608 -0.0038985766 2.7513379e-005 0.00089167542
-4.6340574e-006 0.00022972462 2.2359332e-005 0.00086564216 0.99995947 -0.0024624465
13335.214321633 0.9970507 -0.0015679511 6.6654234e-006 0.00015091305 1.4944237e-005 0.00024153685
-8.5255306e-006 0.00015843018 0.99910134 -0.0041142735 -1.6666992e-005 0.00093301933
-8.1474254e-006 0.00022719013 1.0984663e-005 0.00092947029 0.99995786 -0.0025131172
14125.375446228 0.9970817 -0.0018544248 1.2387751e-005 0.00015088751 -1.3931873e-005 0.00026413728
1.5856889e-005 0.00015015648 0.99893105 -0.0042604343 4.911949e-006 0.00098675385
6.966322e-006 0.00025765138 -6.3153698e-006 0.0009968743 0.99990755 -0.0024146435
14962.356560944 0.996867 -0.0018238485 9.097912e-006 0.00015671029 -2.0602607e-005 0.00025639418
1.1667576e-005 0.00015132839 0.99898326 -0.0043093725 1.5336627e-006 0.0010210207
1.5275078e-005 0.00029137352 2.8966624e-005 0.0010291726 1.0000175 -0.0026655162
15848.931924611 0.99716365 -0.0021527051 1.1636212e-005 0.00019001134 -3.3469814e-006 0.00028665579
-4.3145242e-006 0.00018413643 0.99881375 -0.0044969814 -1.5097363e-006 0.0011070402
1.6693606e-005 0.00028467149 -1.1984999e-006 0.001094284 1.0002092 -0.0025087306
16788.040181226 0.99692518 -0.0022522239 1.1665548e-005 0.00018392074 -1.3031767e-005 0.00028066189
-1.1615383e-005 0.00018578123 0.99895674 -0.0048209662 9.4840461e-006 0.0011677403
7.0136803e-006 0.00030384224 1.3641868e-005 0.0011634601 0.99993575 -0.0027347547
17782.794100389 0.99716985 -0.0021323492 -4.0775267e-006 0.0001798601 1.4859725e-005 0.0003326342
1.8636829e-005 0.00020388165 0.9989422 -0.0050433064 1.8524315e-005 0.0012205754
1.2056248e-005 0.00030144246 6.0539355e-006 0.0012360625 0.99993008 -0.0027806461
18836.490894898 0.99722773 -0.0022469135 -3.4290183e-006 0.00021115087 3.284382e-006 0.00033622081
-2.8356728e-006 0.00020218582 0.99919522 -0.0052778749 1.4399089e-005 0.0012966818
9.9544814e-006 0.00033985917 2.7960437e-005 0.0013232691 0.9998998 -0.0027346367
19952.623149689 0.99709231 -0.0023989445 -6.9765829e-006 0.00023252626 2.3522463e-005 0.00037374519
-4.1815289e-007 0.00023415939 0.99905586 -0.0054922085 2.3002911e-005 0.0014073966
1.610334e-005 0.00035264716 -1.4695468e-005 0.0013798128 0.99992257 -0.0029016705
21134.890398366 0.99706686 -0.0025885687 2.0100308e-006 0.00022984238 6.3205807e-006 0.00036923451
-1.5590444e-005 0.00025038401 0.9990797 -0.0058698175 2.3523415e-005 0.0014699158
-6.1473529e-006 0.00037139127 1.8058219e-005 0.0014751049 0.9998666 -0.0031668812
22387.211385683 0.99699956 -0.0028171253 -1.4065288e-005 0.00024299206 -9.8558203e-006 0.00039213305
5.7100915e-006 0.00024848394 0.99912816 -0.0060147136 1.3116301e-005 0.0015632438
-8.0422806e-006 0.00040615685 9.9222825e-006 0.0015543989 0.99985182 -0.0031619114
23713.737056617 0.9970836 -0.0030600657 -1.0020396e-005 0.00027998077 -2.2644286e-005 0.00043590198
-1.2065964e-005 0.00026175848 0.99915069 -0.0064505762 2.8752809e-005 0.0016625469
4.8582697e-006 0.00043221391 3.2817199e-005 0.0016429455 0.99969149 -0.0030497012
25118.864315096 0.99715173 -0.0031254124 5.6396323e-007 0.00027914092 5.3197878e-006 0.00043757565
-6.9825342e-006 0.00026232729 0.99906808 -0.0067069689 3.236398e-005 0.0017472337
-2.4958345e-006 0.0004651529 7.703763e-006 0.0017560447 0.99996614 -0.0033798348
26607.250597988 0.99703282 -0.0032774643 1.2761944e-005 0.00030741881 1.4111414e-005 0.00048742595
-1.1233219e-005 0.00029703637 0.99906915 -0.0070427046 2.9920107e-005 0.0018464217
9.6307404e-006 0.00048875553 4.4345634e-005 0.0018510724 0.99985635 -0.003557245
28183.829312645 0.99714148 -0.003633942 -2.9237274e-006 0.00030459513 5.1005591e-006 0.00049752067
2.5988797e-006 0.00029400451 0.99934977 -0.0075098667 2.8038516e-005 0.0019761093
-9.1837302e-007 0.0005110245 2.2219976e-005 0.0019637707 0.99996471 -0.0036359443
29853.82618918 0.99727005 -0.0037572484 7.7837039e-006 0.0003226329 1.7173108e-005 0.00052757375
-1.2515643e-006 0.00033213967 0.99911505 -0.0078055547 3.0685536e-005 0.0020765879
7.6587121e-006 0.00054286019 2.0534782e-005 0.0020890876 0.99981332 -0.0037088969
31622.776601684 0.99694008 -0.0039444137 4.5242332e-006 0.00034779758 -4.3249503e-007 0.00054818386
-1.5409612e-005 0.00035939511 0.99905777 -0.0083252173 2.6545496e-005 0.0021901566
1.509174e-005 0.00056949287 2.2748023e-005 0.0022026112 0.99981838 -0.0040646549
33496.543915783 0.99710792 -0.0041780616 -2.2427208e-005 0.0003783053 1.2119147e-005 0.00060788984
1.5893933e-005 0.00039041549 0.99915874 -0.0088803424 4.2197989e-005 0.0023500288
-6.1756755e-006 0.00059669686 3.758692e-005 0.0023328895 0.99983245 -0.0042827222
35481.338923358 0.99698466 -0.0044057532 -1.6992661e-005 0.00040152017 5.5427881e-006 0.00064429751
5.0283547e-006 0.00039079631 0.99917197 -0.0093378136 3.3434677e-005 0.0024585696
2.4039291e-005 0.00066244561 3.9298178e-005 0.0024638854 0.99969023 -0.0041892151
37583.740428844 0.99706626 -0.0046173665 -1.0781598e-005 0.00042584713 6.295309e-006 0.00067853555
1.016851e-005 0.00043437406 0.99930447 -0.009917059 3.144547e-005 0.0026017711
6.5877375e-006 0.00066914933 3.6186149e-005 0.0026236523 0.99959737 -0.0045707854
39810.71705535 0.99706799 -0.0049350029 -1.1383368e-005 0.00045260874 9.6492713e-006 0.00072087056
5.6352387e-006 0.00044932344 0.99921155 -0.010393518 3.8935457e-005 0.0027471969
1.1820754e-005 0.00070474925 4.4525677e-005 0.0027644581 0.99958616 -0.0048094406
42169.650342858 0.99693233 -0.0051720417 1.6263284e-005 0.00047499378 7.6215833e-006 0.00074857066
1.1093922e-005 0.00047063539 0.9991644 -0.010960835 4.4141761e-005 0.0029526129
1.9472432e-006 0.00074250961 4.5404806e-005 0.0029695574 0.99941456 -0.0049452554
44668.359215096 0.99702889 -0.0054959706 -1.3041561e-005 0.00051938975 2.9842358e-005 0.00079861953
-9.7925304e-006 0.00047652243 0.99910945 -0.011775277 4.2782176e-005 0.0031007
1.5917245e-005 0.00078563718 7.1112918e-005 0.0031231183 0.99948764 -0.005171502
47315.125896148 0.99715894 -0.0058134086 1.7136956e-005 0.00052249432 -2.7699421e-006 0.00083369447
8.6777763e-006 0.00052260264 0.99905533 -0.012324486 7.7956523e-005 0.0032873515
1.8658275e-005 0.00084413652 3.9559054e-005 0.0032697099 0.99955463 -0.0053396304
50118.723362727 0.99710214 -0.0060826684 5.8990795e-006 0.00056796084 1.9260455e-005 0.00091015623
-2.5089234e-005 0.00054430106 0.99917185 -0.013076559 5.5802313e-005 0.0034774542
1.5115892e-006 0.00090465951 7.9894555e-005 0.0035019475 0.99940991 -0.0057418779
53088.444423099 0.9971208 -0.0064980434 -1.3152155e-005 0.00059387367 2.7777945e-005 0.00096352794
1.1598122e-005 0.00058098196 0.99896628 -0.013825156 6.8060428e-005 0.0036779752
2.3123786e-005 0.00094571209 7.2217998e-005 0.0036770394 0.9994148 -0.0060399878
56234.132519035 0.99708891 -0.0069322274 3.8358662e-006 0.00063255412 1.8568187e-005 0.0010256404
-3.6304871e-006 0.00063322776 0.99907196 -0.014864828 9.4949835e-005 0.0039219516
2.40676e-005 0.0010017118 0.00010177722 0.0039087464 0.99934202 -0.0063280505
59566.214352901 0.9971056 -0.0073078619 -1.7244798e-006 0.00064190855 3.4254579e-005 0.0010497716
-5.5670985e-006 0.00065484853 0.99901676 -0.015571569 0.00011640961 0.0041348855
1.7205359e-005 0.0010543242 0.00011239864 0.0041354229 0.99922228 -0.0065195658
63095.734448019 0.99686289 -0.0077518695 3.5612045e-006 0.0007169632 1.7779559e-005 0.0011283191
1.0534535e-005 0.00069123111 0.99882996 -0.016481133 9.7246819e-005 0.0043855384
2.5291771e-005 0.0011123677 0.00010966542 0.0044031753 0.99930811 -0.0069899731
66834.391756861 0.99705529 -0.0082192244 1.4482936e-006 0.00073612266 1.5011931e-006 0.0011891433
-1.678047e-005 0.00073996163 0.99883854 -0.017617542 0.0001171238 0.0046299188
3.174122e-005 0.0011971347 0.00012320117 0.0046433765 0.99934477 -0.0072517595
70794.578438414 0.99688816 -0.0086980369 2.1907417e-006 0.00079180195 2.320749e-006 0.0012749487
-4.6563887e-006 0.00079268124 0.99868071 -0.018481385 0.00013522804 0.0049310178
1.5703603e-005 0.0012652895 0.00012934192 0.0049235839 0.99907881 -0.0076888036
74989.420933246 0.99685293 -0.0091952793 2.9416224e-006 0.00084307045 9.3580929e-006 0.0013365366
5.9803192e-006 0.00081285497 0.99884629 -0.019489806 0.00015140919 0.0052163163
2.1329675e-005 0.0013370703 0.00013065791 0.0052124164 0.99912274 -0.0080336872
79432.823472428 0.99690729 -0.0095776375 3.535906e-006 0.00087599101 3.1221611e-005 0.0014304176
2.160399e-005 0.0008770951 0.99886185 -0.02046201 0.00015784189 0.0055200523
5.3505406e-005 0.0014176469 0.00015461385 0.0055166059 0.99891675 -0.008450048
84139.514164519 0.99686837 -0.010135474 3.4469194e-005 0.0009290626 4.5819212e-005 0.0015180964
6.0597567e-006 0.00093251967 0.9986819 -0.021649061 0.00017934895 0.0058127753
5.6710251e-005 0.0014911665 0.00018638614 0.0058368207 0.99888998 -0.008740291
89125.093813375 0.99683785 -0.010759137 3.6882184e-006 0.00098960032 2.2054097e-005 0.0015846186
-3.8326361e-006 0.0010057967 0.99870974 -0.023049124 0.00021347032 0.0061953533
2.8169266e-005 0.0015906687 0.00019391532 0.0061843102 0.99902093 -0.0093269628
94406.087628592 0.99690574 -0.011273871 1.3362047e-005 0.0010545448 2.6167385e-005 0.001688909
5.9444014e-006 0.0010507426 0.99863797 -0.024193631 0.00021891674 0.0065445243
3.3972163e-005 0.0016674178 0.00022494535 0.0065544117 0.99904573 -0.0098525332
100000 0.99702364 -0.011884265 5.9766044e-006 0.0011145564 5.3839944e-005 0.0017653855
-2.963928e-006 0.0011132699 0.99845803 -0.025809553 0.00023783938 0.0069386517
6.0121289e-005 0.0017882065 0.00023679411 0.0069219596 0.99905783 -0.010345697
105925.37251773 0.99691176 -0.012701215 -9.9078088e-006 0.0011896712 5.5812263e-005 0.0018944034
1.1125187e-005 0.0011769466 0.99854612 -0.02736905 0.00027200356 0.0073515279
6.1632069e-005 0.0018551799 0.00027227568 0.0073374952 0.99886948 -0.010783846
112201.8454302 0.99688941 -0.013437266 -5.8916899e-006 0.0012476583 8.6196233e-005 0.0019824463
-1.0214367e-006 0.0012522278 0.99849492 -0.028789604 0.00030001914 0.0077741295
7.9131241e-005 0.0019992492 0.00029626151 0.007779263 0.99907684 -0.011537921
118850.2227437 0.99695981 -0.014302886 -1.0214678e-006 0.0013185651 7.7550678e-005 0.002102047
-9.3411181e-006 0.001320222 0.99857342 -0.030484047 0.00032881627 0.0082166465
7.1206938e-005 0.0021139656 0.00033181201 0.0082310587 0.99907804 -0.012134127
125892.54117942 0.99696344 -0.01514879 -5.2409173e-006 0.0014031079 5.2622428e-005 0.0022240542
-3.6051242e-006 0.0013977238 0.99854404 -0.03241067 0.0003827168 0.0087078055
8.4034895e-005 0.0022073402 0.00037435433 0.0087116491 0.99922043 -0.01293941
133352.14321633 0.99712509 -0.016043345 1.0487624e-005 0.0015124305 8.5765023e-005 0.0023560128
-2.1593967e-005 0.001483465 0.99831212 -0.034208357 0.00041788712 0.0092356782
5.7627949e-005 0.0023794435 0.00041477763 0.0092004677 0.99894416 -0.013456319
141253.75446228 0.9970246 -0.017067581 3.8206572e-006 0.0015624245 7.9804886e-005 0.0024956556
2.7953109e-005 0.0015877594 0.99817097 -0.036318768 0.0004591413 0.0097579379
8.2230123e-005 0.0024923219 0.00047884407 0.0097543662 0.99909401 -0.014332578
149623.56560944 0.99684292 -0.017997555 9.5618752e-006 0.001696312 9.3887342e-005 0.0026520381
-4.8661832e-006 0.0016637305 0.99817032 -0.038521752 0.00052176305 0.010315139
9.7142009e-005 0.0026558118 0.00051493297 0.010329477 0.99891114 -0.015178753
158489.31924611 0.99683881 -0.019062499 3.9762772e-006 0.0017702257 0.00010697991 0.0027917668
-1.4147828e-005 0.0017889037 0.99812126 -0.040560745 0.00057451468 0.010911285
0.0001086819 0.0028274741 0.00057392096 0.010900931 0.99890959 -0.015881987
167880.40181226 0.99690467 -0.020308997 1.6754648e-005 0.001889694 0.00013114219 0.0029642165
8.5600059e-006 0.0018825798 0.9976781 -0.043176677 0.0006332224 0.011529247
0.00011076032 0.0029681206 0.0006267578 0.011551824 0.99880034 -0.016923571
177827.94100389 0.99672943 -0.021456711 1.3684728e-005 0.0020036749 0.00013670389 0.0031274068
5.5529936e-006 0.0019811203 0.9978261 -0.045652904 0.00069502054 0.012225093
0.00013361884 0.0031466428 0.00071307179 0.012206463 0.99871659 -0.017896321
188364.90894898 0.99660444 -0.022579269 3.3704055e-005 0.0020907761 0.00016808209 0.0033162846
2.7546648e-005 0.0021065839 0.99757153 -0.04848111 0.00079881452 0.012939117
0.0001529091 0.0033245475 0.00079503504 0.012937929 0.99865478 -0.01896367
199526.23149689 0.99651861 -0.023916088 3.7039725e-005 0.0022215205 0.00016451209 0.0035040104
-1.3418445e-005 0.0022433137 0.99751431 -0.051184531 0.00086947647 0.013663608
0.00015100061 0.0035177658 0.00085257814 0.013661386 0.99850649 -0.020048669
211348.90398366 0.99665236 -0.025400054 -2.8924521e-006 0.0023533355 0.00018619606 0.0037243564
3.793934e-006 0.0023779024 0.99713832 -0.054306708 0.00096599164 0.014435718
0.00017545733 0.0036919019 0.00094743102 0.01445384 0.99834561 -0.02116376
223872.11385683 0.99658585 -0.026876895 9.9347944e-006 0.002535414 0.0001956076 0.0039140256
2.7818869e-006 0.0025141314 0.9968043 -0.057511587 0.0010576732 0.015292713
0.00020879021 0.0039210357 0.0010704702 0.015307862 0.99840897 -0.022383625
237137.37056617 0.9967038 -0.028400434 1.8843019e-005 0.0026660026 0.0002457645 0.0041741477
1.9324951e-005 0.0026751542 0.99661124 -0.060838513 0.0011999757 0.016161993
0.0002363753 0.0041480055 0.0011870138 0.01613857 0.99822766 -0.023515286
251188.64315096 0.99660367 -0.030065667 1.1891176e-005 0.0028667911 0.00023389641 0.0044234474
1.7824537e-005 0.0028394484 0.99649483 -0.064484291 0.0013150071 0.017091481
0.00026666262 0.0043787337 0.0013217945 0.017104603 0.99821585 -0.025089286
266072.50597988 0.99649632 -0.031894404 2.5085976e-005 0.003010391 0.00025345193 0.0046235695
2.5993613e-005 0.0030275688 0.99606466 -0.068248115 0.0014508682 0.018069113
0.00026126145 0.0046293382 0.0014361049 0.01809225 0.99802065 -0.026237449
281838.29312645 0.99636799 -0.033819914 2.7346594e-005 0.0032117877 0.00029333797 0.0049049775
1.1189831e-005 0.0031856932 0.99571174 -0.072008066 0.0016033944 0.019093955
0.00030659774 0.0049237479 0.0015910013 0.019108428 0.99794745 -0.0279817
298538.2618918 0.99623126 -0.035863988 2.5557503e-005 0.0033805482 0.00032494051 0.0051658098
5.8151651e-005 0.0033900391 0.99545616 -0.076354176 0.0017437086 0.020174121
0.00035462508 0.0052027563 0.001751583 0.020193866 0.99787182 -0.029504791
316227.76601684 0.99608439 -0.037988905 6.3660867e-005 0.0036044326 0.00035876379 0.0054827849
2.2746692e-005 0.0035841183 0.99509627 -0.080991223 0.0019692718 0.021335714
0.0003472252 0.0054928791 0.0019285288 0.02133411 0.99759883 -0.031100614
334965.43915783 0.99597239 -0.040379092 7.4764648e-005 0.0038421541 0.00038031628 0.0057923892
5.8750553e-005 0.0037950014 0.99461788 -0.085617609 0.0021472718 0.022542393
0.00037989675 0.0057958537 0.0021493267 0.022548104 0.99742723 -0.032736812
354813.38923358 0.99586982 -0.042513102 7.2409835e-005 0.0040466087 0.00039270488 0.0061118221
7.2886527e-005 0.0040538493 0.99409449 -0.090586804 0.0023297102 0.02381099
0.00041808173 0.0061231158 0.0023376704 0.023826264 0.99731797 -0.034802645
375837.40428844 0.99574202 -0.044928882 9.271942e-005 0.0043166596 0.00044790033 0.0064389734
8.420652e-005 0.004296727 0.9933759 -0.095908694 0.0025843575 0.025174225
0.00044730262 0.0064609791 0.0025869687 0.025181705 0.99714482 -0.036765918
398107.1705535 0.99571621 -0.04780823 8.3157545e-005 0.0045599109 0.00050529424 0.0068456051
0.00012204458 0.0045312936 0.99277008 -0.10148217 0.0028303559 0.026590388
0.0004962213 0.0068400549 0.0028341636 0.026589844 0.99690181 -0.038745578
421696.50342858 0.9955765 -0.050487284 0.00011584519 0.00485007 0.00053199689 0.0072245118
0.00013476293 0.0048540225 0.99193555 -0.10747527 0.0030900342 0.02808653
0.00054695312 0.0072171325 0.0030805138 0.02808441 0.99664384 -0.041014776
446683.59215096 0.99534607 -0.053622384 0.00014662178 0.0051319622 0.00059052563 0.0076595712
0.00013244845 0.0051231412 0.99116784 -0.11382043 0.0034213378 0.029649071
0.00059852027 0.0076345382 0.00341045 0.029637156 0.99627823 -0.043325603
473151.25896148 0.99526638 -0.056671403 0.00017218852 0.0054503432 0.00062638958 0.0080419797
0.00016208284 0.0054408987 0.9903726 -0.12027964 0.0037616501 0.031314377
0.00063586136 0.0080998251 0.003745507 0.031332918 0.99627185 -0.04565955
501187.23362727 0.99483806 -0.060177617 0.00021159406 0.005787069 0.00070470659 0.0085328985
0.00020535306 0.0057639494 0.98942298 -0.12739135 0.0041090799 0.033106439
0.00066768151 0.0085550584 0.0041039758 0.033097658 0.99593478 -0.048120968
530884.44423099 0.99431694 -0.063576408 0.00026021994 0.0061099832 0.00077194447 0.0090221642
0.00027615001 0.0061117113 0.98835862 -0.13461785 0.0044954629 0.034956392
0.00073911884 0.0090360399 0.0045324848 0.03493958 0.99585742 -0.050973307
562341.32519035 0.99416095 -0.06732551 0.00029641745 0.006506145 0.00081213581 0.0095109567
0.00031882088 0.0065127383 0.98706192 -0.14256041 0.0049468111 0.036917988
0.00081221707 0.0095476909 0.0049822968 0.036918066 0.99544239 -0.053954463
595662.14352901 0.99406618 -0.071013317 0.0003671328 0.0068860948 0.00089605578 0.010061495
0.00037573653 0.0069036759 0.98567432 -0.15085469 0.0054556984 0.038977657
0.00088832731 0.010069485 0.0054580886 0.038965154 0.99520862 -0.057131279
630957.34448019 0.99377519 -0.075224437 0.00043299689 0.007298809 0.0009523828 0.010639557
0.00042458577 0.0073103346 0.9841668 -0.15955715 0.0059901951 0.041140601
0.00095565815 0.010642387 0.0059699393 0.041175645 0.99471927 -0.060365751
668343.91756861 0.99335861 -0.079739667 0.00049601553 0.007751768 0.001038273 0.011266056
0.00049204903 0.007743245 0.98251516 -0.168808 0.006578865 0.043444306
0.0010368138 0.011266289 0.0065679587 0.043458804 0.99427241 -0.063750722
707945.78438414 0.99303335 -0.084393531 0.00059909822 0.008203866 0.0011301544 0.01190587
0.00060525897 0.0082012126 0.98021865 -0.17879483 0.0072254799 0.045885194
0.0011400551 0.011905836 0.0072638821 0.045898061 0.99383098 -0.067313746
749894.20933246 0.99247241 -0.089608029 0.0006834722 0.0087017799 0.0012261153 0.012585689
0.00070975343 0.0086830109 0.97788519 -0.18874238 0.0079376148 0.048397437
0.0012295969 0.012592269 0.0079779681 0.048449244 0.99318659 -0.071109094
794328.23472428 0.9918505 -0.094893709 0.00079140521 0.0092220092 0.0013458442 0.013279881
0.00078351988 0.0092085032 0.97630316 -0.19906339 0.008713779 0.051144365
