!Keysight Technologies,E5080A,MY55100144,A.11.70.03
!Date: Monday, November 13, 2017 17:24:41
!Correction: S11(Full 3 Port(1,2,3)) 
!S12(Full 3 Port(1,2,3)) 
!S13(Full 3 Port(1,2,3)) 
!S21(Full 3 Port(1,2,3)) 
!S22(Full 3 Port(1,2,3)) 
!S23(Full 3 Port(1,2,3)) 
!S31(Full 3 Port(1,2,3)) 
!S32(Full 3 Port(1,2,3)) 
!S33(Full 3 Port(1,2,3)) 
!S3P File: Measurements: <S11,S12,S13>,
!<S21,S22,S23>,
!<S31,S32,S33>:Log Frequency Sweep
# Hz S  RI   R 50
10000 0.99690843 -0.005872089 6.8253298e-006 1.0505929e-005 2.7362344e-006 0.00013022643
-1.1935459e-005 -2.1326264e-006 0.47075635 -0.87522715 -2.2805055e-007 1.4442814e-005
-2.651024e-006 0.00014238147 2.0416312e-005 -1.6650394e-005 0.99973112 -0.0025301662
10592.537251773 0.99683166 -0.0064631286 1.2799277e-006 -1.794558e-005 -1.6249807e-005 0.00013506244
4.5171114e-006 3.8084718e-007 0.4256334 -0.89786959 -7.6069414e-006 2.1087985e-006
-3.4629559e-006 0.00013230791 -9.5321741e-007 -1.3215349e-005 0.99991667 -0.0023337915
11220.18454302 0.99695677 -0.0066434066 -3.2899911e-006 -2.7687106e-006 1.1597042e-005 0.00015179592
8.2261613e-006 1.260821e-005 0.37747195 -0.91871709 -1.7504632e-005 -1.1442404e-005
-4.0902481e-007 0.0001463041 -1.2177559e-005 2.8539575e-006 0.99996883 -0.0023661014
11885.02227437 0.99693733 -0.0068474314 -5.8032242e-006 6.0063476e-006 4.1161234e-006 0.00015482855
3.0886204e-006 -1.961678e-005 0.32774344 -0.93725604 1.384594e-005 -4.0304308e-006
-7.6894485e-006 0.00014758369 1.9769555e-005 5.389571e-006 0.99999005 -0.0023597162
12589.254117942 0.99706608 -0.007498452 5.9223216e-006 1.2797389e-005 -2.0613264e-005 0.00016874624
-6.9371154e-006 5.200533e-006 0.27622133 -0.95343751 7.396e-006 9.3642248e-006
1.4492972e-005 0.00016466214 -1.271877e-005 5.961057e-006 0.99997181 -0.0025211412
13335.214321633 0.99701935 -0.0079924483 3.427404e-006 -1.3629075e-006 -5.7691841e-006 0.00018724546
-8.2069084e-007 1.0609542e-005 0.22298788 -0.96739978 6.7369033e-006 2.5147615e-006
-8.7667113e-006 0.00015209541 -1.1605192e-005 -2.3647926e-006 0.99996179 -0.0025854323
14125.375446228 0.99707127 -0.0084243575 9.5477135e-006 -9.4598472e-006 -1.0582427e-005 0.00018134588
-3.9019692e-006 1.5259136e-005 0.16841365 -0.97774071 -1.5240868e-005 5.2455821e-006
-1.0843667e-005 0.0001881518 -3.835079e-006 -8.3180748e-007 0.99986792 -0.0024791968
14962.356560944 0.9970516 -0.0087289624 1.5343583e-005 1.6403939e-006 1.9690689e-005 0.0002016121
-6.7158026e-006 1.2921888e-005 0.11270823 -0.98586255 1.0677357e-005 -2.0076761e-006
-1.1196818e-009 0.00016364362 3.2843234e-006 1.8873793e-006 1.0000951 -0.0026180202
15848.931924611 0.99716443 -0.0094635729 -2.73095e-006 5.4040561e-007 -7.2219964e-006 0.00018976933
1.6149828e-006 2.5688307e-006 0.056158237 -0.99032271 -5.1106786e-006 -8.8596317e-007
-2.1435408e-006 0.00019900502 -1.5251847e-005 8.2244933e-006 0.99996603 -0.0024226855
16788.040181226 0.99715436 -0.010120128 1.1805859e-006 5.6177623e-006 -1.4017218e-005 0.00021651997
-3.8536296e-006 2.6873429e-006 -0.00052399363 -0.99168169 -2.6320342e-007 2.0288362e-006
8.4266685e-006 0.00019328136 1.1814649e-006 9.6961139e-006 0.99991393 -0.0026820477
17782.794100389 0.99706036 -0.010335861 -1.8502025e-005 9.468461e-006 9.6077474e-006 0.00022468217
8.0607306e-006 2.6301759e-006 -0.057306387 -0.98963112 4.074539e-006 -8.6514128e-006
1.370987e-005 0.00022241993 -1.6116475e-005 -3.1658441e-005 0.99992949 -0.0027506789
18836.490894898 0.99712247 -0.0109489 1.1653033e-005 9.9938859e-007 -6.151698e-006 0.0002319379
-9.6969131e-007 -8.6105729e-006 -0.11382786 -0.9847033 -7.7845689e-006 2.1028436e-006
6.7225487e-006 0.0002389853 4.0415493e-006 2.2091303e-006 0.99978763 -0.0027191623
19952.623149689 0.99687403 -0.011917827 -9.5958313e-008 -2.4422188e-006 9.9203453e-007 0.00026907009
-1.6620514e-005 7.8651965e-006 -0.16915771 -0.97678655 -6.9064631e-006 -2.3939549e-006
4.9261603e-006 0.00024750136 7.8473786e-006 -2.9091218e-006 0.99978697 -0.0028965126
21134.890398366 0.99703956 -0.012602908 -2.1106745e-005 -3.9543083e-006 5.2152659e-006 0.00027644011
-8.4543799e-006 -1.2166265e-005 -0.22374074 -0.96563703 1.5743217e-005 1.2118579e-005
1.7931174e-007 0.00026377162 -2.1676498e-005 2.1918509e-006 0.99983293 -0.003066059
22387.211385683 0.99689579 -0.013169208 7.7890854e-006 1.1859341e-006 -4.3575769e-006 0.00027864263
2.4321646e-006 5.51425e-006 -0.27678496 -0.95171279 -1.2433195e-005 4.7220901e-006
-9.1911979e-006 0.00028671132 -3.5989915e-006 -1.3829351e-006 0.99978894 -0.0031821148
23713.737056617 0.99693447 -0.014018093 -1.0075199e-005 7.4930954e-006 2.6481573e-006 0.00029505714
7.5735511e-006 1.006359e-005 -0.32842669 -0.93488967 -8.7102708e-006 -1.081045e-005
7.4865725e-006 0.00031503983 -1.1272259e-005 1.7730221e-005 0.9995299 -0.0031533935
25118.864315096 0.99702495 -0.014835682 -2.4508452e-005 1.2117372e-005 -4.3955652e-006 0.0003113382
-4.4789253e-006 1.2643532e-005 -0.37779373 -0.91616607 4.308833e-006 -7.6065612e-006
-9.000172e-007 0.00032363797 1.6653155e-006 5.0419535e-006 0.99967235 -0.0034298131
26607.250597988 0.99695528 -0.015662076 1.4259405e-005 -2.103885e-006 3.5060457e-006 0.00033829143
3.1910051e-006 6.3667158e-006 -0.42536572 -0.89529932 -9.3994386e-006 1.4281918e-005
2.5083596e-005 0.0003378641 7.5468915e-006 9.0578797e-006 0.99979573 -0.003569552
28183.829312645 0.99693525 -0.016615896 -2.3518647e-005 8.5236597e-006 7.5140197e-006 0.00034222245
-6.3188131e-006 -2.362759e-006 -0.47073153 -0.87219352 1.7899881e-006 1.7188568e-006
-9.8367027e-006 0.00034543313 2.7184283e-006 -1.1571628e-005 0.99993163 -0.0036032596
29853.82618918 0.99706107 -0.017464941 -3.2360474e-006 1.2890163e-005 7.3157657e-006 0.0003648744
-2.1865899e-005 9.2771381e-007 -0.51341856 -0.84769601 -1.8345483e-005 2.6083669e-006
9.443721e-006 0.00038579767 9.155624e-006 1.3805926e-005 0.99973375 -0.0037404876
31622.776601684 0.99684137 -0.018657217 -2.4799397e-006 1.2360292e-005 3.4150675e-005 0.00041068831
-4.1189314e-006 1.7259242e-006 -0.55355865 -0.82205415 3.9513798e-006 -2.4051401e-006
-1.9331101e-006 0.00038416786 -1.3637817e-005 -4.753002e-006 0.99971652 -0.00406681
33496.543915783 0.99697936 -0.019667707 -2.0398384e-005 1.0706951e-005 2.5690917e-006 0.00041904539
-1.6297276e-005 1.4334132e-005 -0.59161246 -0.79531002 1.01743e-005 -1.0671062e-005
1.4337693e-005 0.00041595977 -1.1722451e-005 -1.2536261e-005 0.99973726 -0.0041701011
35481.338923358 0.99670392 -0.020844048 -1.7498378e-005 5.8543028e-006 -5.5586634e-006 0.00044648285
-9.4615953e-006 2.8125596e-006 -0.62702495 -0.76767075 -1.1021495e-005 6.2707518e-006
1.2364912e-005 0.00045451708 -1.3927389e-005 3.1996773e-005 0.99961722 -0.0042116083
37583.740428844 0.99671125 -0.022152172 -1.9357463e-005 8.7333683e-006 1.6549814e-006 0.00048697475
-1.4361647e-006 2.1543816e-005 -0.6598435 -0.73974651 4.1444164e-006 -1.5144377e-006
5.0221361e-006 0.00047102137 6.1804308e-006 1.494996e-005 0.99958199 -0.0046145124
39810.71705535 0.99683899 -0.0233237 -1.270512e-005 7.9205865e-006 5.4841939e-006 0.00049665372
4.2801407e-006 2.2039949e-005 -0.69046348 -0.71148312 1.2675873e-005 5.206733e-006
7.3056522e-006 0.00050474377 -3.8265531e-005 1.2530322e-005 0.99958074 -0.0047603366
42169.650342858 0.9966597 -0.024718149 1.7964073e-006 4.5817324e-006 -2.4569829e-006 0.0005365886
-9.689621e-006 1.0392386e-005 -0.71861166 -0.68322474 -7.1293766e-006 3.3442168e-006
2.7531672e-005 0.00054984662 -1.1507307e-005 1.0442015e-005 0.99945807 -0.0050685098
44668.359215096 0.99670935 -0.026303589 -1.0469035e-005 1.6525857e-005 2.5119467e-005 0.00057647465
-1.4165609e-005 6.0749653e-006 -0.74458098 -0.65498054 3.9728284e-006 1.0404632e-005
1.3168723e-005 0.00055389712 8.992597e-006 1.0700022e-005 0.9994505 -0.0052101193
47315.125896148 0.99693805 -0.027792232 -9.6203748e-006 -1.4751882e-005 2.9831221e-005 0.00058886874
-5.0564599e-006 8.9459199e-006 -0.76843989 -0.62701076 -3.3788447e-006 6.4578353e-006
2.2692442e-005 0.00059165043 7.8993281e-007 2.0554877e-005 0.99959731 -0.0054330355
50118.723362727 0.99676406 -0.029374711 -1.4579032e-005 1.7493809e-006 2.0262883e-005 0.00063077622
-1.4315436e-005 2.4454774e-005 -0.79030108 -0.59938979 -8.2385468e-006 9.5613359e-006
8.8151301e-006 0.00063763477 -1.4528299e-008 -2.3718609e-005 0.99943024 -0.0056531723
53088.444423099 0.99651366 -0.031124907 -1.4217373e-005 -7.9823021e-006 5.2248339e-005 0.00065638503
-1.0713698e-005 2.1944657e-005 -0.81033152 -0.5723123 -3.201721e-006 3.4398554e-006
1.1978188e-005 0.00066573394 -7.2237222e-006 7.8457851e-006 0.9995358 -0.0059570647
56234.132519035 0.99649864 -0.033087354 6.2823674e-006 2.327119e-005 1.079827e-005 0.00071090425
-6.7308874e-006 1.3939263e-005 -0.82837981 -0.54596937 -2.7606113e-006 -3.9067072e-007
2.3856352e-005 0.00072755234 -1.9290523e-005 1.8240711e-005 0.99938935 -0.006245133
59566.214352901 0.99655539 -0.034947615 -6.2785875e-006 2.1631888e-005 2.5494361e-005 0.00074947573
-4.00305e-006 8.866492e-006 -0.84487444 -0.52018297 -5.6677986e-006 1.5041086e-005
3.1390777e-005 0.00076388801 2.0143862e-005 2.8433318e-005 0.99913639 -0.0065776883
63095.734448019 0.99631959 -0.036988974 8.4956429e-007 6.6334555e-006 1.2311514e-005 0.0007822297
-2.7874021e-006 3.4972577e-006 -0.85996318 -0.49526063 5.3987005e-006 2.469537e-005
2.9221403e-005 0.00078780443 -1.964826e-005 1.0566062e-006 0.99933577 -0.0069351243
66834.391756861 0.99625188 -0.039136868 1.1404044e-006 2.061643e-005 4.1159328e-005 0.00084492168
-2.0359093e-006 2.0886755e-005 -0.87348294 -0.47098717 -1.6515513e-006 6.935476e-006
1.1584769e-005 0.00084750092 2.7790425e-006 1.7413298e-005 0.99935412 -0.007404896
70794.578438414 0.99612206 -0.04151132 7.9697293e-006 1.6110505e-005 2.2109452e-005 0.00087296352
-1.0488742e-005 1.3893692e-005 -0.88584214 -0.44784191 -2.372052e-006 1.8161234e-005
3.4627843e-005 0.00089230802 -1.0137674e-005 -1.0652204e-005 0.99911839 -0.0077490252
74989.420933246 0.99596101 -0.043961104 2.6771664e-005 1.4866082e-005 4.0330524e-005 0.00094858534
-6.8415175e-006 2.0388894e-005 -0.89699352 -0.42535841 8.2287752e-006 5.7178154e-006
4.012297e-005 0.00095467531 4.8737238e-006 -5.6995518e-006 0.99909055 -0.008146855
79432.823472428 0.99595767 -0.046424594 -3.7073837e-006 -8.7974769e-007 2.3725936e-005 0.0010042435
-8.3554123e-006 1.4707825e-005 -0.90705884 -0.40369859 4.2457239e-007 7.1747218e-006
5.0032024e-005 0.00099152117 -6.6375369e-006 1.233044e-005 0.99912584 -0.0084967874
84139.514164519 0.99572623 -0.049100403 -2.3750126e-005 -6.982028e-006 6.5732893e-005 0.0010550128
-7.6835131e-006 2.0364618e-005 -0.91604233 -0.38304633 4.4636436e-006 8.1735971e-006
5.26041e-005 0.0010510233 9.1303818e-006 -5.2338532e-006 0.99895221 -0.0088726841
89125.093813375 0.99559742 -0.05200972 6.0401499e-007 2.9923747e-005 7.4071701e-005 0.0011264012
6.525247e-006 2.2916589e-005 -0.92427063 -0.36316285 -5.7817042e-006 -4.0391292e-006
4.7801092e-005 0.0011331536 4.8292686e-006 1.646664e-005 0.99896902 -0.0093946168
94406.087628592 0.99542558 -0.055171199 3.4354207e-006 3.4878954e-005 7.0296184e-005 0.0011846236
-1.2039013e-005 9.7665497e-006 -0.93155712 -0.34424165 7.4615386e-006 1.1794168e-005
5.2157906e-005 0.0011785518 -4.70744e-006 -1.2521523e-005 0.99907207 -0.0097541856
100000 0.99526238 -0.058366522 -6.4230726e-006 2.4432282e-005 6.8644091e-005 0.0012454939
-2.994633e-005 2.7057657e-005 -0.93809819 -0.32610008 -2.1656257e-005 1.2465101e-005
5.1021303e-005 0.0012613164 1.2092271e-005 3.0080953e-005 0.99890542 -0.010350516
105925.37251773 0.99515331 -0.061902326 -2.2142023e-005 4.2055912e-005 6.6300003e-005 0.0013341086
-6.6494008e-006 2.7970169e-005 -0.94409698 -0.30892602 -1.5447902e-005 1.3264496e-005
8.4533691e-005 0.0013354756 1.2439526e-005 1.7366834e-005 0.99885809 -0.010916027
112201.8454302 0.99497741 -0.065474913 -2.9124561e-005 1.1614412e-005 7.954082e-005 0.0014068846
-1.2494244e-005 3.6462417e-005 -0.94948572 -0.29240432 -8.1828048e-006 4.6408891e-007
6.9793583e-005 0.0014054334 7.5375201e-006 8.5468986e-007 0.99912584 -0.011483978
118850.2227437 0.99472302 -0.069394857 -9.8991122e-006 -5.2216947e-006 8.6629909e-005 0.001475593
-1.1654114e-005 4.0080962e-005 -0.95419961 -0.27673012 1.2251151e-006 1.1259713e-005
8.7466258e-005 0.0015008202 -4.8024353e-006 5.0944054e-005 0.99892372 -0.012133213
125892.54117942 0.99442405 -0.073478535 -1.8179759e-005 -6.4755745e-006 9.5258525e-005 0.0015735045
-2.6280945e-006 3.3087563e-005 -0.95854628 -0.26185617 -1.8815198e-006 2.1046426e-005
9.6979682e-005 0.0015596339 1.9767447e-005 4.2425378e-005 0.99906701 -0.01297712
133352.14321633 0.99402386 -0.077740327 -8.5379797e-006 2.3536717e-005 9.8887984e-005 0.0016749135
-1.1536706e-005 4.0669765e-005 -0.96235764 -0.24766615 -1.9590955e-006 1.9888821e-005
0.00010120516 0.0016681696 3.2352267e-007 2.8888182e-005 0.99905002 -0.013457809
141253.75446228 0.99374247 -0.082475938 -1.639756e-005 4.1292558e-005 0.00011849155 0.0017741071
-5.993315e-006 3.9163326e-005 -0.96578646 -0.23416552 8.1295566e-006 2.599206e-005
0.0001214605 0.0017687094 -1.2683399e-005 2.8570221e-005 0.99900615 -0.014459624
149623.56560944 0.99321961 -0.087290347 2.6902937e-006 5.4836957e-005 0.00015287596 0.0018549772
-4.2354645e-006 4.4611439e-005 -0.96890867 -0.22144863 1.1938865e-005 2.373309e-005
0.00014726192 0.0018690417 1.5552009e-006 1.4842302e-005 0.99896085 -0.015249435
158489.31924611 0.992845 -0.092393905 -1.4489992e-005 4.1585463e-005 0.00014797568 0.0019712506
-7.9946867e-006 4.3582655e-005 -0.97167188 -0.209242 -9.0927133e-006 1.2576842e-005
0.0001349801 0.0019776074 -2.0198579e-005 2.1711205e-005 0.99888396 -0.015939651
167880.40181226 0.99217087 -0.097925097 -1.8079543e-005 4.7061752e-005 0.00018102421 0.0020930436
-1.4258121e-005 4.1227904e-005 -0.9741199 -0.19759625 5.4339562e-006 1.1166775e-005
0.00015750671 0.0020820287 8.0980008e-006 2.6957729e-005 0.99894518 -0.017074658
177827.94100389 0.99152106 -0.10357092 -1.4457712e-005 5.753462e-005 0.00019870832 0.0021884821
-7.326295e-006 4.7443718e-005 -0.97577423 -0.18561617 6.2848389e-006 1.9910136e-005
0.00019071026 0.0022097516 2.3683505e-007 2.923596e-005 0.99883878 -0.017963421
188364.90894898 0.99087483 -0.10965468 -2.6180067e-005 3.9930954e-005 0.00022084604 0.0023218943
-1.6132761e-005 3.6649737e-005 -0.97820616 -0.17690226 -2.0408983e-005 2.2902974e-005
0.00021128022 0.0023352483 1.4138313e-005 2.6623616e-006 0.99858475 -0.018966833
199526.23149689 0.99007434 -0.11610803 -3.1164473e-005 5.4160024e-005 0.00025325699 0.0024664123
-1.127114e-005 6.0576684e-005 -0.98003179 -0.16688558 -3.9455463e-006 1.8038556e-005
0.00024004487 0.0024700256 -1.2822763e-005 3.0454781e-005 0.99844712 -0.020218829
211348.90398366 0.98922026 -0.1230309 -7.2745315e-006 5.7447443e-005 0.00029149526 0.0026074846
-6.5990635e-006 6.3688982e-005 -0.98167878 -0.15760894 -1.5889964e-006 1.9905588e-005
0.00024617848 0.0026117058 7.2212665e-006 3.072964e-005 0.99845397 -0.021188542
223872.11385683 0.98837698 -0.13023089 -1.5788124e-005 6.6724948e-005 0.00029167594 0.0027415722
-1.4733577e-005 6.7261753e-005 -0.98314333 -0.14877552 -1.6959229e-005 3.0762527e-005
0.00029918522 0.0027476465 -1.3561823e-005 -2.7665849e-006 0.99856037 -0.022371663
237137.37056617 0.98732078 -0.13783258 -3.5215919e-005 5.1416293e-005 0.00032375779 0.0028958756
-2.8980186e-005 6.6247143e-005 -0.98430866 -0.1404075 -5.2109867e-006 3.7288719e-005
0.00032462936 0.0028980384 -2.3653704e-006 3.5157809e-005 0.9984225 -0.023642058
251188.64315096 0.98629957 -0.14598888 -2.4712106e-005 9.8367607e-005 0.00037341064 0.0030597828
-1.7577575e-005 6.5732529e-005 -0.98555255 -0.13249084 -1.7745211e-005 3.4227261e-005
0.00035592407 0.003072697 8.2278884e-006 2.0531519e-005 0.99837673 -0.025095211
266072.50597988 0.98490477 -0.15464671 -3.1334934e-005 7.5397773e-005 0.00041497045 0.0032508436
-2.4932471e-005 7.7727069e-005 -0.98648536 -0.12501712 -2.2999154e-006 3.2930799e-005
0.00039712313 0.0032571212 -4.8817446e-006 2.8101729e-005 0.99811518 -0.026497038
281838.29312645 0.98323923 -0.16373014 -5.142378e-005 8.6823158e-005 0.00044838493 0.0034184717
-1.2419661e-005 7.7647412e-005 -0.98741925 -0.11798854 -7.3402766e-006 4.1729432e-005
0.00044828499 0.0034272168 -9.8568235e-006 2.8585921e-005 0.99817127 -0.027897013
298538.2618918 0.98149413 -0.17317377 -3.2303033e-005 7.3732699e-005 0.00050026161 0.0036074999
-2.426892e-005 8.2819111e-005 -0.98821157 -0.11116145 -7.6912575e-006 4.4189968e-005
0.00049508881 0.0036265047 1.1899691e-005 -3.3081261e-007 0.99794984 -0.029591069
316227.76601684 0.97979558 -0.18309082 -2.9323319e-005 0.0001102041 0.00054305053 0.0038182705
-2.7625543e-005 8.1768747e-005 -0.98887551 -0.10492136 4.4162443e-006 3.2009735e-005
0.00054840633 0.0038376127 1.4789852e-006 3.3395001e-005 0.99785125 -0.03114575
334965.43915783 0.97753495 -0.19388291 -4.3677301e-005 0.00011352851 0.00060436816 0.0040439595
-2.7479977e-005 9.5620133e-005 -0.98968714 -0.099090658 -6.7927217e-006 3.2776839e-005
0.00061718409 0.0040436992 9.9049503e-006 3.9424885e-005 0.99770105 -0.032960985
354813.38923358 0.97534835 -0.20494987 -2.1124695e-005 9.1538823e-005 0.0006918686 0.0042432128
-3.464464e-005 0.00010112125 -0.99024081 -0.093276262 -1.8137187e-005 4.0289022e-005
0.00069611048 0.0042546941 -2.2128967e-005 3.8028302e-005 0.99769908 -0.034822013
375837.40428844 0.97270596 -0.21679129 -4.1650466e-005 9.5279232e-005 0.00072825013 0.0044722985
-4.6797471e-005 0.0001086043 -0.9906587 -0.087780625 -3.6870852e-006 6.6804976e-005
0.00073383586 0.0044962768 -1.7107757e-005 5.6693483e-005 0.99749231 -0.036845285
398107.1705535 0.9698866 -0.22938068 -4.115967e-005 0.00012571577 0.00083439285 0.004745442
-3.9082071e-005 0.00010883497 -0.99122262 -0.082525343 -7.8268357e-007 4.8308037e-005
0.00083123118 0.0047534085 -1.5956986e-005 5.2352028e-005 0.99716389 -0.038908843
421696.50342858 0.96643096 -0.24258308 -4.2270916e-005 9.950142e-005 0.00090425502 0.0049878871
-4.0588948e-005 0.00012576103 -0.99139446 -0.077377729 7.0227425e-006 4.6990932e-005
0.0009176379 0.0050082989 -2.507434e-005 4.7407448e-005 0.99703676 -0.041140337
446683.59215096 0.96295029 -0.25646025 -6.5875261e-005 0.00011713028 0.00099398836 0.0052450695
-5.3917196e-005 0.00013020482 -0.99145031 -0.073674679 1.0297548e-005 5.6614721e-005
0.0010104211 0.0052682552 3.6843005e-005 3.9680537e-005 0.9967286 -0.043478608
473151.25896148 0.95872247 -0.2710855 -6.7666995e-005 0.00013098553 0.0011235896 0.0055383416
-5.1994884e-005 0.00012961864 -0.99216831 -0.069403082 -1.4334225e-005 6.2062354e-005
0.0011139583 0.005575764 6.4208707e-006 6.0820512e-005 0.99659687 -0.046044126
501187.23362727 0.95410687 -0.28637913 -4.9722174e-005 0.00014569104 0.0012373815 0.0058277817
-6.2190324e-005 0.000138444 -0.99256933 -0.065172665 -8.9083669e-006 6.1758808e-005
0.0012396884 0.0058693085 -1.6299597e-005 3.8086167e-005 0.99656814 -0.048448224
530884.44423099 0.94894707 -0.30271357 -5.6376051e-005 0.00015715713 0.0013778514 0.0061669848
-6.8773661e-005 0.00016207818 -0.99284029 -0.061250009 -7.7707027e-006 6.3161402e-005
0.0013783069 0.0061746086 -8.0751079e-006 5.5796838e-005 0.99631661 -0.051109228
562341.32519035 0.94346458 -0.31959274 -6.5504057e-005 0.00017139342 0.0014780735 0.0065142284
-6.7600813e-005 0.00017304678 -0.99318838 -0.057503935 -8.0903746e-006 6.5953478e-005
0.0014831675 0.0064998805 -2.9138455e-005 8.330922e-005 0.99606669 -0.054169122
595662.14352901 0.93741733 -0.3371613 -7.0413713e-005 0.0001837504 0.0016758696 0.0068145469
-9.6614225e-005 0.00019828239 -0.99336642 -0.053937722 -1.7798531e-005 5.4174096e-005
0.0016501258 0.0068480284 -9.1501015e-006 8.2412225e-005 0.99584126 -0.057331856
630957.34448019 0.93041629 -0.35597837 -0.00010402615 0.00015699181 0.0018085524 0.0071794959
-8.0505248e-005 0.00019922528 -0.9935565 -0.050586045 -1.5984009e-005 7.1590919e-005
0.0018338227 0.0071921232 -2.2420481e-005 8.3537801e-005 0.99551767 -0.060561139
668343.91756861 0.92247003 -0.37538683 -9.7874683e-005 0.00019639533 0.0020122146 0.0075412337
