!Keysight Technologies,E5080A,MY55100144,A.11.70.03
!Date: Monday, November 13, 2017 17:25:15
!Correction: S11(Full 3 Port(1,2,3)) 
!S12(Full 3 Port(1,2,3)) 
!S13(Full 3 Port(1,2,3)) 
!S21(Full 3 Port(1,2,3)) 
!S22(Full 3 Port(1,2,3)) 
!S23(Full 3 Port(1,2,3)) 
!S31(Full 3 Port(1,2,3)) 
!S32(Full 3 Port(1,2,3)) 
!S33(Full 3 Port(1,2,3)) 
!S3P File: Measurements: <S11,S12,S13>,
!<S21,S22,S23>,
!<S31,S32,S33>:Log Frequency Sweep
# Hz S  RI   R 50
10000 0.99646831 -0.005754095 3.0520612e-006 -1.6092421e-005 -1.1235326e-005 0.00012295865
7.8172989e-006 -2.5432112e-007 0.47085178 -0.87578762 -4.123277e-006 1.0313408e-005
3.9429538e-006 0.00012911539 -6.1002997e-006 -7.8731291e-006 0.99970657 -0.0024496545
10592.537251773 0.99673992 -0.0060783518 3.820358e-006 1.3296578e-005 1.1182864e-005 0.0001392612
4.6183468e-006 2.1175534e-005 0.42572802 -0.89825994 -1.2055301e-005 3.0651629e-006
-9.6015419e-006 0.00014741732 1.5062953e-005 4.9578957e-006 0.99997205 -0.0022534572
11220.18454302 0.99692971 -0.0066291667 -7.7439763e-006 1.3756672e-005 1.1098781e-005 0.00013335611
2.2031136e-006 -6.488548e-006 0.37749019 -0.91922855 8.1370972e-006 2.8085778e-005
8.0958007e-006 0.00013313124 -3.6432737e-006 1.8104378e-005 1.0000535 -0.0023338562
11885.02227437 0.99656826 -0.0068289544 3.5492001e-006 2.6287246e-006 -7.0282936e-006 0.00013502913
-1.2946003e-006 -2.7464107e-006 0.32797861 -0.93791997 2.5780664e-006 -3.7637849e-006
-1.1016566e-005 0.00013699093 1.3786469e-005 1.1862371e-005 0.99989265 -0.0024942751
12589.254117942 0.99687892 -0.0072686612 9.2023112e-007 1.9789748e-005 2.7925214e-005 0.00016288478
-1.0570812e-006 -1.8311483e-005 0.27636403 -0.95409942 -7.7996365e-006 6.4889236e-006
-1.7922854e-005 0.00014827521 7.3434717e-006 7.7450284e-007 1.0001061 -0.0025055825
13335.214321633 0.99687916 -0.0076674875 1.9517012e-005 1.7170385e-005 -1.2050781e-005 0.00014938235
3.0112751e-006 4.1567178e-006 0.22307429 -0.96781272 1.0713815e-005 1.8286546e-005
6.995785e-006 0.00016491725 -2.8364591e-006 -1.6364787e-006 1.0000341 -0.0023783902
14125.375446228 0.99671441 -0.0081272582 2.727609e-005 -2.0093671e-006 -1.978028e-005 0.00017449845
-2.3611696e-007 -5.7484099e-006 0.1683356 -0.97826517 -1.427149e-006 -9.9004583e-006
-3.1320103e-006 0.00017698394 1.0372062e-005 1.9505243e-005 0.99993259 -0.0022947763
14962.356560944 0.9967562 -0.008431673 2.15931e-005 -2.5194897e-006 -2.0153928e-005 0.00018225735
-1.8513789e-006 -9.2151286e-006 0.11271552 -0.98672086 5.3523336e-006 -1.3985573e-005
8.2320594e-006 0.00017726763 -2.3209277e-006 1.2867366e-006 0.9999094 -0.0027775769
15848.931924611 0.99687237 -0.0091407988 -2.1112853e-006 -1.7781931e-005 -6.145141e-006 0.00020181542
1.0620583e-005 -1.2646782e-005 0.05599897 -0.99096453 -1.0625682e-006 -8.359807e-006
-1.7860555e-005 0.00020387792 9.1856566e-007 6.5344893e-006 1.0000354 -0.0025619513
16788.040181226 0.99678832 -0.0097464882 -7.8049279e-006 8.0787067e-006 1.008481e-005 0.0002061533
-2.4844019e-006 -6.1043265e-006 -0.00063139392 -0.99240583 -9.3365543e-006 8.8873526e-007
8.6203409e-006 0.00020694306 -7.4354614e-007 7.0286601e-006 0.9999336 -0.0028738428
17782.794100389 0.99700344 -0.010196756 -1.2385664e-005 -4.8179663e-006 -8.96457e-006 0.00021276686
-9.9655681e-006 -9.0382946e-006 -0.057515938 -0.99046016 2.5291097e-006 -2.666701e-006
-1.0787797e-005 0.00022990959 3.8439193e-006 -2.4838208e-005 0.99977314 -0.0027356993
18836.490894898 0.99680883 -0.010752263 1.3250085e-005 1.4762755e-005 1.0062238e-005 0.00022550537
-3.3763663e-006 8.715383e-006 -0.1140012 -0.98554718 5.3469621e-006 1.5982559e-006
1.2664256e-005 0.00021594863 2.4140731e-005 9.012364e-006 0.99982077 -0.0027680313
19952.623149689 0.99684805 -0.011531453 6.877357e-006 -7.7224167e-006 1.4142577e-005 0.00024913222
2.0019243e-005 -6.1371529e-006 -0.16932698 -0.97766113 8.2455635e-006 1.4021493e-006
4.5693523e-006 0.0002461182 9.975987e-007 -5.9334661e-006 0.99993831 -0.0029271073
21134.890398366 0.99682283 -0.012183289 1.1437292e-005 1.4552274e-006 7.8872836e-006 0.00026227851
8.9241903e-006 -4.0355253e-006 -0.22412373 -0.96647894 -9.1854299e-006 3.4241339e-006
6.3948264e-006 0.00025853535 -2.2481508e-005 -2.5019854e-005 0.99968994 -0.0030481026
22387.211385683 0.99671453 -0.012871977 -1.2063019e-005 -2.033941e-006 -5.1578345e-006 0.00027668156
-8.409761e-006 7.0526582e-008 -0.27724808 -0.95253897 -1.0947926e-005 1.96937e-006
-1.9615658e-005 0.0002687785 -1.3960173e-006 -4.0254663e-006 0.99978888 -0.0031214063
23713.737056617 0.99675483 -0.013731111 4.526784e-005 -1.1142474e-005 -8.0734017e-006 0.00031169853
2.6676928e-006 9.7935799e-007 -0.328693 -0.93600518 2.5594977e-007 -3.7748646e-006
3.0643936e-005 0.00030617003 6.0835569e-006 2.5724667e-005 0.99957651 -0.0032032228
25118.864315096 0.99692464 -0.014398582 1.0721569e-005 1.8559682e-005 1.0290947e-005 0.00032777156
-3.9588531e-006 -8.2638098e-006 -0.37838981 -0.91721964 -8.3570876e-006 -4.6526693e-006
9.7942302e-006 0.00031037867 -5.4108746e-006 -2.8205964e-006 0.99975413 -0.0033881736
26607.250597988 0.99677664 -0.015136069 4.7578892e-006 7.5592143e-006 3.5580172e-006 0.00033365132
-1.0410668e-005 2.3030282e-006 -0.42592824 -0.89620423 1.3966238e-006 -4.1865633e-006
8.8562929e-006 0.00032901423 3.5089624e-007 8.023163e-006 0.99989194 -0.0035290106
28183.829312645 0.9967621 -0.016243095 -4.1261246e-006 5.1175225e-006 -6.7293872e-006 0.00034880414
-6.233829e-006 6.8569825e-006 -0.47139043 -0.87318969 4.0810214e-006 -1.7255472e-005
8.7640046e-006 0.00036089198 2.0336882e-005 2.1886032e-007 0.99982727 -0.0036039283
29853.82618918 0.99672568 -0.017271891 -1.2063886e-005 -2.9094874e-006 6.5743175e-006 0.00036782271
-1.7346888e-006 9.4137795e-006 -0.51406169 -0.84870136 5.3243599e-007 -1.5468584e-005
-6.3645784e-006 0.0003607102 1.5897216e-005 8.24984e-006 0.99966925 -0.003690084
31622.776601684 0.99660188 -0.01816025 -2.9111385e-005 -1.0198603e-005 3.2291951e-005 0.00037818978
8.3867633e-007 -5.0303183e-006 -0.55443412 -0.82312113 8.838877e-006 -2.4944252e-006
-9.5633538e-007 0.00037475771 -2.8959826e-006 1.0733026e-005 0.99973011 -0.0041176681
33496.543915783 0.99667364 -0.019185513 2.1813662e-008 1.6913698e-005 5.2900305e-006 0.00042422398
-1.2839346e-005 -7.8148851e-006 -0.59239084 -0.79619771 -8.006672e-006 2.503624e-006
2.0771301e-006 0.00040269527 3.636397e-006 -1.5190923e-005 0.99978572 -0.0041880524
35481.338923358 0.99657607 -0.020363094 1.451466e-006 -7.0820734e-006 1.0509607e-005 0.00043437636
-1.1052041e-005 -4.0941773e-006 -0.62782502 -0.76858431 -3.6521098e-007 8.2698853e-006
7.3838678e-006 0.0004372613 -1.1579251e-005 -6.6723624e-006 0.9997825 -0.0043051462
37583.740428844 0.99666673 -0.021613443 -8.6531481e-006 -1.3140836e-005 6.2108165e-006 0.00047358623
-6.0386346e-006 -1.0208689e-006 -0.66075629 -0.74065346 3.9358697e-006 5.6060867e-007
2.8083981e-005 0.00047148013 -8.502062e-006 5.9019617e-006 0.99955314 -0.0046103685
39810.71705535 0.99656409 -0.022775814 1.5354713e-005 1.7029475e-005 4.7838444e-006 0.00049335515
-1.0643207e-005 -3.8764974e-006 -0.69136125 -0.71238267 4.3007699e-006 7.4996947e-008
4.1138469e-006 0.00050408748 -6.4266983e-006 -2.8214135e-005 0.99949026 -0.0047935839
42169.650342858 0.9965058 -0.024228809 -1.4887386e-005 1.571174e-006 1.0954548e-005 0.00052564993
-2.8291709e-006 1.137151e-005 -0.71969664 -0.6840657 -9.5566993e-006 2.9344574e-006
4.282128e-006 0.00050884864 -1.0278583e-005 1.6296193e-005 0.99943835 -0.0050236899
44668.359215096 0.996692 -0.025607642 3.0606702e-006 -5.2016444e-006 1.2914211e-005 0.00056125381
-4.5679722e-006 1.2947019e-005 -0.74565971 -0.65577424 1.9574979e-006 -4.0580558e-006
4.915923e-006 0.00055485388 1.1382648e-006 3.0457099e-007 0.99944705 -0.0052386415
47315.125896148 0.99660969 -0.027127361 1.8817096e-006 -2.3212178e-006 3.7906342e-005 0.00055925845
-4.7215185e-006 4.2915817e-006 -0.76955754 -0.62778187 -8.3812956e-006 2.0940788e-006
1.8359338e-005 0.00058173836 3.2379901e-006 -1.2346871e-005 0.99942899 -0.0054876213
50118.723362727 0.99642837 -0.028656444 1.4510091e-006 -1.2999494e-005 3.6954614e-006 0.00061694899
-1.3491325e-005 -3.2573771e-006 -0.79140753 -0.60011601 -1.0166512e-005 6.2775632e-007
3.2961347e-005 0.00063103932 7.4920558e-006 -4.3792566e-006 0.99932462 -0.0056405924
53088.444423099 0.99647552 -0.030353608 -9.6452059e-006 -3.6737536e-005 -6.6703151e-008 0.0006613158
-1.7914673e-006 -1.4914521e-005 -0.81147671 -0.57302558 -7.8690796e-008 2.1385686e-006
3.2339627e-005 0.00064890762 1.5113325e-006 -1.1980332e-005 0.9994213 -0.0060665519
56234.132519035 0.99630338 -0.032253407 -8.4611447e-006 1.0594693e-005 1.967247e-005 0.0006836151
-6.7037786e-006 1.5014844e-005 -0.82961994 -0.54669255 -8.1560165e-006 3.4154857e-006
1.65322e-005 0.000698858 1.158281e-005 -9.7294833e-006 0.99930692 -0.0062238546
59566.214352901 0.99621207 -0.034097448 1.600951e-005 2.0672866e-005 1.8465442e-005 0.00072027103
-8.0242553e-006 8.2158567e-006 -0.84622157 -0.52086657 1.6572669e-006 2.9003995e-006
2.9016563e-005 0.00074004685 1.5902928e-006 2.7950671e-005 0.99920666 -0.0066918684
63095.734448019 0.99607497 -0.036167547 -2.2340488e-005 1.6050526e-005 3.5159417e-005 0.00079033163
3.972918e-006 1.3834755e-005 -0.8612082 -0.49589726 -2.6545624e-006 1.3270114e-006
2.5988447e-005 0.00077320548 2.6097662e-006 8.3917312e-006 0.99936634 -0.0069477903
66834.391756861 0.99597299 -0.038225539 -9.2387154e-007 9.3713879e-006 4.6649529e-006 0.00084350375
-5.1897823e-006 1.402173e-005 -0.87479323 -0.47166756 3.2145301e-006 -1.255767e-005
2.7441529e-005 0.00081678532 1.1806061e-005 -8.2516153e-006 0.99939793 -0.0072714575
70794.578438414 0.99597406 -0.040430177 1.4268286e-007 9.6386179e-007 4.5809829e-005 0.00088008295
-3.7712234e-006 4.2326651e-006 -0.88711268 -0.44843653 -4.2550155e-006 7.32629e-006
3.6795493e-005 0.00086566556 -1.6876504e-005 2.7666894e-005 0.99920452 -0.0077678189
74989.420933246 0.99589473 -0.04290786 -7.6147639e-006 -2.3436364e-006 5.3006421e-005 0.0009391288
-6.6304328e-006 5.1728813e-007 -0.8983326 -0.42584112 -5.1303223e-006 -6.4943742e-007
3.8476879e-005 0.0009331989 1.8352054e-006 8.7281323e-006 0.99915272 -0.0079880552
79432.823472428 0.99565959 -0.045199286 -7.837878e-006 1.141916e-005 4.2365311e-005 0.0009874712
4.7313156e-006 1.2549178e-005 -0.90841049 -0.40418091 -4.4936678e-006 1.4424755e-005
4.1310745e-005 0.0010115679 -1.4528039e-005 1.8709175e-005 0.99900216 -0.0085322224
84139.514164519 0.99559397 -0.047898348 1.241741e-005 -6.9661987e-006 3.7124195e-005 0.0010209052
-1.013547e-006 2.5388445e-006 -0.91745734 -0.38357094 5.8216051e-006 1.4075724e-006
4.6939731e-005 0.0010420205 -3.8272306e-006 -1.7365748e-005 0.99894196 -0.0087558012
89125.093813375 0.99539882 -0.050736815 -3.709962e-005 -2.903799e-006 3.641639e-005 0.0011041148
3.2143126e-007 -2.0484588e-006 -0.92566818 -0.36365888 -2.3894941e-006 2.3317868e-006
6.6029505e-005 0.0011028214 -5.7773541e-006 -6.8787934e-008 0.99902511 -0.0093827955
94406.087628592 0.99532968 -0.053772699 -1.6234229e-005 4.0949112e-006 5.7675694e-005 0.0011792579
-5.6540239e-006 8.4845824e-006 -0.93302476 -0.34473756 1.5549954e-007 2.2168959e-005
5.7700847e-005 0.0011476496 -1.7627617e-006 -3.4746418e-007 0.9991616 -0.0097749876
100000 0.99521643 -0.056824178 -7.4366994e-006 1.0662615e-005 8.7031272e-005 0.0012175149
6.270845e-006 1.6167021e-005 -0.93960118 -0.32655922 -3.2273008e-006 4.4065259e-006
7.2438241e-005 0.0012298343 8.1320832e-006 4.7120166e-006 0.99889731 -0.010392304
105925.37251773 0.99494416 -0.060371075 1.681438e-005 2.8070151e-006 9.2379531e-005 0.0012807549
-9.8228629e-006 1.2501768e-005 -0.94554472 -0.3093411 -3.613982e-006 1.0736208e-005
6.5211396e-005 0.0012960295 2.0544296e-005 2.0797906e-005 0.99893093 -0.010771868
112201.8454302 0.99479485 -0.06375701 -6.2943282e-006 2.24418e-005 7.6147095e-005 0.0013827002
-1.142844e-006 9.5692139e-006 -0.95089865 -0.29278541 -4.8742027e-006 1.0189534e-005
7.527267e-005 0.0013812172 -3.3118183e-006 3.8692106e-005 0.99904424 -0.011456297
118850.2227437 0.99456054 -0.067518234 -5.7684206e-006 2.5326071e-006 8.5889209e-005 0.0014733751
-2.2977904e-006 1.3791786e-005 -0.95561916 -0.27710539 -4.0582281e-006 7.9985803e-006
6.3827836e-005 0.0014573603 -3.108595e-005 -3.661364e-006 0.99908465 -0.01216435
125892.54117942 0.99432731 -0.071572721 -1.2199247e-005 -1.0081581e-005 9.5391195e-005 0.0015538791
1.3269502e-006 3.0284755e-005 -0.95998728 -0.26224726 1.2000076e-005 -1.087776e-008
0.00010257758 0.0015490989 7.207364e-006 1.0216228e-005 0.99899334 -0.012859668
133352.14321633 0.99410844 -0.075756669 -1.8459466e-005 -6.057654e-006 0.00011081565 0.0016313548
2.1200817e-006 1.5243566e-005 -0.96384239 -0.2479919 -9.617127e-006 7.533306e-006
0.00012451415 0.0016130393 -1.1201126e-005 1.6592568e-005 0.99904847 -0.013516712
141253.75446228 0.99371243 -0.080446787 9.4194172e-007 3.6088913e-005 0.00011963138 0.0017348247
-5.5272444e-006 9.1733318e-006 -0.9672451 -0.23456708 -1.4437112e-005 2.3781477e-006
0.00013811447 0.0017309181 -1.2936124e-005 2.7570873e-006 0.99898994 -0.014319315
149623.56560944 0.99319601 -0.084973805 -1.4021707e-005 2.011829e-005 0.00011226667 0.0018294356
-1.5392861e-005 7.9077981e-006 -0.97037423 -0.22174063 -4.8789657e-006 1.0564783e-005
0.00014567445 0.0018402464 -1.3483558e-005 2.0972155e-005 0.99889916 -0.015287468
158489.31924611 0.99277133 -0.090037033 -2.3347622e-005 -8.7097606e-006 0.00013315727 0.0019363184
-1.5920577e-005 1.5935417e-005 -0.97310138 -0.20944676 -1.3502494e-006 1.1090309e-005
0.00013849634 0.0019071171 3.8030448e-006 3.7749469e-005 0.99896616 -0.0159973
167880.40181226 0.99212307 -0.095363624 -2.1919786e-005 8.3687401e-006 0.00016031288 0.0020516093
-3.9920446e-006 6.1060105e-006 -0.97564727 -0.1978776 -5.100675e-006 1.1719379e-005
0.00015580052 0.0020553523 -1.1564542e-005 3.1387586e-005 0.99889684 -0.017091343
177827.94100389 0.99167275 -0.10093152 -5.102072e-006 3.0531221e-005 0.00018719002 0.0021522343
-6.8678974e-006 1.599471e-005 -0.97721779 -0.18589637 1.0228426e-005 1.7105482e-005
0.00016521839 0.0021720056 -7.5955842e-007 3.8079124e-005 0.99873823 -0.017973643
188364.90894898 0.990933 -0.10682343 -1.0634473e-005 1.3513364e-005 0.00020412239 0.0022880863
-9.0355288e-006 1.7158556e-005 -0.97967356 -0.17709087 1.4868409e-005 2.1169559e-005
0.00021564428 0.0023053372 3.7265008e-006 2.351048e-005 0.99874133 -0.018969875
199526.23149689 0.99023008 -0.11327289 -8.5091533e-006 1.797269e-005 0.00023829838 0.002412424
-1.3418827e-005 1.8253937e-005 -0.98151052 -0.16716446 3.4613806e-006 9.3572871e-006
0.00022484556 0.002419427 1.357156e-006 2.2738721e-005 0.99858993 -0.020126877
211348.90398366 0.98939013 -0.11979046 -2.4969209e-005 1.2742882e-005 0.00026469879 0.0025841116
-1.4955354e-005 1.8933973e-005 -0.98317361 -0.15778978 -8.1497328e-006 2.8813862e-005
0.00027031417 0.0025676677 1.5374306e-005 1.8905766e-005 0.99839056 -0.021196712
223872.11385683 0.98850101 -0.12690243 -6.982732e-006 2.9567382e-005 0.00030538798 0.0027140144
-1.9526706e-005 2.6978892e-005 -0.98460603 -0.14898019 -1.337506e-005 1.9815967e-005
0.00028686938 0.0027005158 -5.8362204e-008 2.5040217e-005 0.99840355 -0.022449486
237137.37056617 0.98759681 -0.13424429 -2.5203781e-006 9.2461369e-006 0.00032452302 0.0028649326
-1.8449349e-005 1.5239819e-005 -0.98582578 -0.14057781 -8.7492517e-006 1.6878386e-005
0.00028464053 0.0028549943 -2.9386053e-006 7.2063849e-006 0.99842662 -0.023601821
251188.64315096 0.98648828 -0.14222531 -9.2689952e-006 1.936122e-005 0.00034521893 0.0030283935
-1.9760821e-005 2.9104978e-005 -0.98702639 -0.1326741 1.144295e-005 2.3341965e-005
0.00034008746 0.0030081389 -1.8407361e-005 2.9047776e-005 0.99840856 -0.025031853
266072.50597988 0.98515373 -0.1504284 -3.4662909e-005 1.933997e-005 0.00038796439 0.0031895244
-1.2406883e-005 1.7775121e-005 -0.98799706 -0.12519082 -6.6429284e-006 2.2168984e-005
0.00037615033 0.0032096957 -1.6227637e-005 1.098263e-005 0.99823874 -0.026393974
281838.29312645 0.98366141 -0.15935224 -3.033796e-005 2.5197358e-005 0.00043280475 0.0033713588
-2.7145063e-005 1.8311348e-005 -0.98889518 -0.11811023 -7.2711014e-006 1.630612e-005
0.00044150022 0.0033816795 -1.9644674e-006 1.2747466e-005 0.99809873 -0.028006626
298538.2618918 0.98219341 -0.16866302 -3.2895307e-005 3.7062131e-005 0.00046999127 0.0035442794
-4.3626118e-005 3.9299633e-005 -0.98970944 -0.11137071 -1.3843179e-006 2.5408779e-005
0.00049357786 0.0035641079 -1.2618036e-005 2.1218459e-005 0.99786901 -0.029537873
316227.76601684 0.98029774 -0.17845167 -3.640362e-005 2.3342565e-005 0.00053238461 0.0037857788
-4.0253366e-005 3.9722632e-005 -0.9903813 -0.1050183 -6.0077646e-006 1.9636265e-005
0.00054949726 0.0037502144 -3.1966338e-005 1.1194848e-005 0.99794388 -0.031176962
334965.43915783 0.97832954 -0.18881571 -2.2202354e-005 5.0708295e-005 0.00059983722 0.0039867014
-1.736947e-005 4.585633e-005 -0.99117994 -0.099172361 -1.1327093e-005 2.7311047e-005
0.00059671991 0.0039707897 -2.0562387e-005 1.5774418e-005 0.99765784 -0.033080213
354813.38923358 0.9761731 -0.19960611 -3.6041787e-005 3.3156259e-005 0.00063915137 0.0041820197
-2.9510666e-005 2.5400101e-005 -0.99176741 -0.093392342 -1.2317645e-005 2.1301599e-005
0.00065116736 0.0041906731 4.3469267e-006 3.2823889e-005 0.9976936 -0.034781341
375837.40428844 0.97387987 -0.21124752 -4.0963499e-005 2.8772156e-005 0.00071785296 0.0044140629
-3.0875271e-005 3.7485865e-005 -0.99216831 -0.087933585 -2.3041748e-005 1.6258071e-005
0.00073335122 0.0044427919 -1.9384734e-006 4.6504418e-005 0.99744201 -0.036751039
398107.1705535 0.9709602 -0.2234208 -4.3397515e-005 5.6633191e-005 0.00079346896 0.004668429
-2.9418903e-005 3.1112668e-005 -0.99270558 -0.082608603 2.9968844e-006 2.7294705e-005
0.00077259267 0.0046760482 -4.268609e-005 2.8463826e-005 0.99733049 -0.038915906
421696.50342858 0.96792203 -0.23629026 -4.9963666e-005 3.8833845e-005 0.00089697627 0.0049060378
-3.8716527e-005 3.551941e-005 -0.99289352 -0.077476569 -1.7367967e-006 3.2021599e-005
0.00089344231 0.0049139075 4.0965597e-006 5.263033e-006 0.9970991 -0.041172776
446683.59215096 0.96438169 -0.24993898 -4.2084037e-005 3.461877e-005 0.0009934894 0.0051890695
-6.4674379e-005 5.0228082e-005 -0.99300492 -0.073803291 3.2937614e-006 1.4626436e-005
0.00099064491 0.005190854 4.2725969e-006 9.1486208e-006 0.99693692 -0.043498728
473151.25896148 0.96052116 -0.2640776 -3.9595932e-005 4.1037227e-005 0.0010769466 0.0054656104
-4.3792919e-005 4.0114348e-005 -0.99366689 -0.06954664 -3.334439e-006 1.3145339e-005
0.001086119 0.0054715606 -2.5468644e-005 3.737057e-005 0.99675339 -0.045942843
501187.23362727 0.95596123 -0.27916893 -5.712884e-005 4.0168299e-005 0.0011724441 0.0057889298
-6.8245194e-005 5.4870397e-005 -0.99408823 -0.065335311 -1.6114171e-005 2.3670425e-005
0.0011876019 0.0057616243 6.2454683e-006 2.7118145e-005 0.99646664 -0.048362836
530884.44423099 0.95121962 -0.29488644 -6.8632951e-005 4.4263255e-005 0.0013004609 0.0060863714
-7.7399811e-005 5.5709406e-005 -0.99435174 -0.061281417 -1.8699753e-005 3.4600955e-005
0.0013049814 0.0060817343 -9.9582076e-006 3.2328771e-005 0.99630612 -0.051182486
562341.32519035 0.94599164 -0.31151101 -7.5988457e-005 8.491167e-005 0.0014443664 0.0063782493
-7.9599471e-005 6.4055159e-005 -0.99471533 -0.057540387 -9.409805e-006 2.7265032e-005
0.001427605 0.006386355 -6.5279542e-006 3.0357138e-005 0.99605006 -0.054319423
595662.14352901 0.94009775 -0.32878482 -7.6178338e-005 4.9681425e-005 0.0015981331 0.006734889
-0.00010223601 6.7675879e-005 -0.99489462 -0.053995658 -2.3652759e-005 2.8675515e-005
0.0015924014 0.0067410646 -1.0274703e-005 1.7030192e-005 0.99578273 -0.057372365
630957.34448019 0.93363911 -0.34701648 -0.00011418429 8.9617984e-005 0.0017728539 0.0070857797
-0.00010289223 7.8398574e-005 -0.99505395 -0.050661836 -1.9729396e-005 3.987797e-005
0.0017670565 0.0070936559 3.3589163e-006 3.0044705e-005 0.99545991 -0.060666803
668343.91756861 0.92602026 -0.36617652 -0.0001047551 8.4177263e-005 0.001929346 0.0074615534
