!Keysight Technologies,E5080A,MY55100144,A.11.70.03
!Date: Monday, November 13, 2017 17:22:29
!Correction: S11(Full 3 Port(1,2,3)) 
!S12(Full 3 Port(1,2,3)) 
!S13(Full 3 Port(1,2,3)) 
!S21(Full 3 Port(1,2,3)) 
!S22(Full 3 Port(1,2,3)) 
!S23(Full 3 Port(1,2,3)) 
!S31(Full 3 Port(1,2,3)) 
!S32(Full 3 Port(1,2,3)) 
!S33(Full 3 Port(1,2,3)) 
!S3P File: Measurements: <S11,S12,S13>,
!<S21,S22,S23>,
!<S31,S32,S33>:Log Frequency Sweep
# Hz S  RI   R 50
10000 0.99671739 -0.0014151004 1.3866294e-005 0.00022732695 3.9544088e-006 0.00018790751
2.105404e-005 0.00021948255 0.99888146 -0.0035372449 -1.09374e-006 0.00069297507
-2.0671625e-006 0.00014876392 -1.3920906e-005 0.00069196476 0.99976122 -0.0025408021
10592.537251773 0.99691367 -0.0016102535 1.3777661e-005 0.00024029966 -1.3595231e-005 0.00018236156
-5.3447588e-006 0.00023307244 0.99868631 -0.0037141922 -1.779376e-005 0.00076705031
1.2634991e-005 0.00016804822 -1.5813181e-005 0.00075369683 1.0000291 -0.0021507065
11220.18454302 0.9970507 -0.0015289533 8.469864e-006 0.00024511525 -2.3040236e-006 0.00018753194
-2.0000061e-006 0.00026057273 0.99878681 -0.0037487352 2.5329289e-005 0.00080985029
-6.082023e-006 0.00019953362 1.0603165e-005 0.00079624332 1.0000081 -0.0022862628
11885.02227437 0.99687928 -0.001677929 1.4044315e-005 0.00028757498 4.0268194e-005 0.00019850775
-8.4318151e-007 0.00028012198 0.99880242 -0.0038709722 3.0425704e-006 0.00083991128
9.4484276e-006 0.00019159696 6.541085e-006 0.00081519654 1.0000241 -0.0023476372
12589.254117942 0.99712288 -0.0017065003 1.0422703e-005 0.00025873663 4.2856423e-006 0.00022537772
6.1609953e-006 0.00029699743 0.9989866 -0.0039325026 -1.4500991e-005 0.00088674622
-3.5567389e-006 0.00018403977 9.1616394e-006 0.0009146576 1.0000408 -0.002637401
13335.214321633 0.99708164 -0.0019016818 8.7983144e-006 0.00030525509 -1.0316508e-005 0.00019842682
-1.6585707e-005 0.00030842071 0.99892074 -0.0042919144 8.6446954e-007 0.00097048702
5.2679748e-006 0.00021584846 7.6347487e-006 0.00095512083 0.99997681 -0.0024281829
14125.375446228 0.9970237 -0.0020656823 1.9281915e-006 0.00030603752 -1.2896938e-007 0.00023933664
1.52076e-005 0.0003213154 0.99888653 -0.0044865957 1.1893605e-005 0.00098662172
1.2791765e-005 0.00023446062 7.1914069e-006 0.0010006686 1.0000069 -0.0023033165
14962.356560944 0.99694234 -0.002172929 4.6808991e-006 0.00034996966 -8.207292e-006 0.00024032363
5.1999964e-006 0.00034865664 0.99910927 -0.0045850216 2.2393893e-005 0.0010635933
7.1295244e-006 0.0002646287 1.0273368e-005 0.0010529433 0.99995965 -0.0026004084
15848.931924611 0.99705243 -0.0023144882 -2.2573129e-005 0.00035264122 -7.0601113e-006 0.0002669091
9.1772963e-006 0.00034182222 0.99902534 -0.0048021278 1.2642188e-005 0.0011307342
1.0657606e-005 0.00025052883 1.6494461e-005 0.0011260906 1.0001354 -0.0025816681
16788.040181226 0.99696195 -0.0024732794 2.0785357e-005 0.00038841026 1.5565494e-005 0.0002717078
5.9023009e-006 0.00039432227 0.9990688 -0.0050698696 2.1487872e-006 0.0011905584
1.421608e-005 0.00027842505 2.4411585e-005 0.0012009225 0.99999809 -0.0027825723
17782.794100389 0.99708438 -0.0024947578 -5.5807805e-006 0.00041327189 -1.8118404e-005 0.0002825358
2.3449446e-005 0.00040592835 0.9990797 -0.0054810094 1.6291389e-005 0.0012713838
-1.9636077e-006 0.0002998873 3.1606211e-005 0.0012629293 1.0001088 -0.0028089872
18836.490894898 0.99703121 -0.0025753248 6.7705168e-006 0.00042597426 2.415463e-005 0.00029320084
-7.969e-007 0.00043961048 0.99904692 -0.0057060509 1.2120333e-005 0.0013254299
1.1025439e-005 0.00032720546 2.7055517e-005 0.0013195174 0.99981862 -0.0028391737
19952.623149689 0.99709737 -0.0027846245 1.8911058e-005 0.00044941236 9.5867663e-006 0.00034104221
-1.1716717e-006 0.00044898098 0.9991715 -0.005933994 1.635845e-005 0.0014090245
-1.5824586e-005 0.00033688842 1.9813539e-005 0.001425897 0.99983174 -0.0029556989
21134.890398366 0.99704832 -0.0030472509 1.7618308e-005 0.00046677911 -4.8757393e-006 0.00033059355
-1.8305487e-006 0.00047269138 0.99901581 -0.0061023049 2.8328343e-005 0.0015117286
1.4632905e-005 0.00037822957 2.6476127e-005 0.0015053224 0.99975264 -0.0031060178
22387.211385683 0.99706101 -0.0031488833 5.8994565e-006 0.00050997653 1.9796837e-005 0.00036949752
-1.5023652e-005 0.00050346024 0.99912363 -0.0065681594 8.4822259e-006 0.0015860209
-1.1596964e-006 0.00040246311 -1.4189062e-007 0.0015957272 0.99991089 -0.003146366
23713.737056617 0.99690831 -0.0034671221 -8.1627404e-006 0.00052886514 -1.4884635e-005 0.00039483779
1.3562939e-005 0.00052303867 0.99929321 -0.0068217502 8.1844255e-006 0.0016878572
-1.4512025e-005 0.00039831913 1.3061433e-005 0.0016877193 0.99983525 -0.0031337864
25118.864315096 0.99691212 -0.0036247636 2.616865e-006 0.0005518081 1.197842e-005 0.00041297442
-6.8972909e-006 0.0005726724 0.99913257 -0.0071650054 2.7934768e-005 0.001772715
9.1620986e-006 0.00040043163 -1.4051644e-006 0.001779875 0.99982977 -0.0033918752
26607.250597988 0.9971121 -0.0037077414 -7.3944402e-006 0.00061431277 4.6311397e-006 0.00045419781
-8.2649749e-006 0.00060276099 0.99913925 -0.0077422233 4.1095238e-005 0.0018623419
-7.5754747e-006 0.00045267644 1.7571239e-005 0.0018805563 0.99980074 -0.0034478896
28183.829312645 0.9971593 -0.0041009579 1.287265e-005 0.0006432315 1.2013135e-006 0.00046739046
-1.469047e-005 0.00061868533 0.99918926 -0.0079060737 2.0466156e-005 0.0019739002
-5.6081576e-006 0.00047436226 1.0085072e-005 0.0019960098 0.99985623 -0.0036795666
29853.82618918 0.99716997 -0.0041993153 2.1640797e-005 0.00066016085 -5.9124704e-006 0.00049555482
1.451832e-005 0.00067336881 0.99922919 -0.0084204143 3.4152574e-005 0.0021347231
1.0196383e-005 0.00050136645 2.2352042e-005 0.0020957766 0.99987608 -0.0037231352
31622.776601684 0.99700248 -0.0046638697 2.8000668e-005 0.00071708969 -7.0476272e-006 0.00051568117
1.5568026e-005 0.00072039117 0.99905121 -0.0087094288 2.9606177e-005 0.0022340529
3.723798e-006 0.00052926986 2.8557994e-005 0.0022358932 0.99987489 -0.0040937401
33496.543915783 0.99710035 -0.0048198258 4.0566388e-006 0.00076084887 2.7035489e-006 0.00055930525
-6.8879726e-006 0.00077933696 0.99907953 -0.0094592394 3.7695718e-005 0.0023619407
1.5627034e-005 0.00057350198 4.1325991e-005 0.0023786325 0.99980932 -0.0040638642
35481.338923358 0.9971472 -0.0049606911 1.6949853e-005 0.00081128272 1.563437e-005 0.00061049528
4.6102696e-006 0.00077993848 0.9991411 -0.01011911 3.3075805e-005 0.0025111956
1.1433037e-005 0.00061382446 3.4726945e-005 0.0025036312 0.9998107 -0.0041738073
37583.740428844 0.99700189 -0.0053823604 -3.4153938e-005 0.00083988305 1.381072e-006 0.00063337956
1.4062818e-005 0.0008486911 0.99927425 -0.010434772 4.7733563e-005 0.0026529173
-1.5482687e-005 0.00060912652 3.9845199e-005 0.0026538929 0.99960464 -0.0044949953
39810.71705535 0.99699801 -0.0055184923 6.9242237e-006 0.00090067182 1.3497342e-006 0.00067149935
1.0196078e-005 0.00090009795 0.99914485 -0.011206484 3.8907536e-005 0.0028225288
9.7660177e-006 0.0006715334 5.4481272e-005 0.0028041198 0.9997313 -0.0046779844
42169.650342858 0.9970324 -0.0060174996 4.4231615e-006 0.00094251515 1.815822e-005 0.00069748814
6.2534132e-006 0.00095670565 0.99910498 -0.011797519 6.841938e-005 0.0029930335
2.0154308e-005 0.00071870029 3.1944051e-005 0.0029848318 0.99971658 -0.0051556635
44668.359215096 0.99711537 -0.0063921185 2.3590383e-005 0.0010011541 1.6160193e-005 0.00074820541
-1.6338607e-005 0.0010190788 0.99907881 -0.012550151 4.3102304e-005 0.0031576832
1.0185818e-005 0.00073400274 5.9979226e-005 0.0031500091 0.99956423 -0.0052659325
47315.125896148 0.99711221 -0.0065788534 1.3572046e-005 0.0010594497 -9.4988463e-006 0.00075253588
8.7239937e-007 0.0010742256 0.99917346 -0.013190593 5.2371721e-005 0.0033410052
1.5627002e-005 0.0007735868 6.9626556e-005 0.0033620785 0.99950105 -0.0054001012
50118.723362727 0.99709833 -0.0069738883 1.8663561e-005 0.0011430095 2.4428402e-005 0.00083204557
4.0948416e-005 0.0011330094 0.99897242 -0.013930919 6.6161934e-005 0.0035519029
3.0917668e-005 0.00079825456 8.1109094e-005 0.0035267095 0.99952239 -0.0056355288
53088.444423099 0.9970572 -0.0075532077 1.6422397e-005 0.0011794518 1.6485513e-006 0.00084868434
7.3001802e-006 0.0011709649 0.99897617 -0.014833841 7.9257225e-005 0.0037447123
1.9366526e-005 0.00087617751 8.2004401e-005 0.0037568852 0.99959511 -0.0060422248
56234.132519035 0.99701267 -0.0078697829 5.1885972e-006 0.0012596542 2.0345147e-005 0.00092482986
9.3740528e-006 0.00126574 0.99892819 -0.015824091 7.0196271e-005 0.0039844029
1.7866705e-005 0.00092799118 8.9171357e-005 0.0039760019 0.99946982 -0.0063020471
59566.214352901 0.99692643 -0.0084204385 1.9202524e-005 0.0013306331 3.2583153e-005 0.0010211818
2.5658642e-006 0.0013506573 0.99888593 -0.016790718 0.00011603086 0.0042107888
2.0601261e-005 0.00099835556 9.2111164e-005 0.0041860109 0.99919081 -0.0065381122
63095.734448019 0.99692655 -0.008946456 2.5088695e-005 0.0014110256 2.7734921e-005 0.0010431972
8.4834528e-006 0.0014334453 0.99879295 -0.017691335 0.00010266738 0.0044519738
-1.7049641e-006 0.0010424817 0.00010382218 0.0044537499 0.99947363 -0.0069884225
66834.391756861 0.99686742 -0.0093127778 2.1058519e-005 0.001482783 1.4506304e-005 0.0011151981
4.8796173e-006 0.001501258 0.99879688 -0.018756418 0.00012630541 0.0047136792
1.5843441e-005 0.0011374552 0.0001284492 0.0047099506 0.99964684 -0.0072575174
70794.578438414 0.99691004 -0.0099581564 1.1108185e-005 0.0015437655 3.5273566e-005 0.0011779933
1.6645061e-005 0.0015945425 0.99861336 -0.019890033 0.00013666709 0.0049693258
2.5990608e-005 0.0011505769 0.00011560823 0.004976931 0.99919993 -0.0078626228
74989.420933246 0.9968428 -0.010424223 2.3865565e-005 0.0016845454 3.7431106e-005 0.0012412062
6.4765113e-006 0.0016612591 0.99886489 -0.020898374 0.00013119369 0.0052888081
9.000305e-006 0.0012538467 0.00018682865 0.0052973512 0.99925464 -0.0080668563
79432.823472428 0.99689919 -0.011151692 3.0264309e-005 0.0017961295 3.4322962e-005 0.0013052248
8.225652e-006 0.0017868065 0.99861264 -0.021987069 0.00015736066 0.0055828439
1.8692623e-005 0.0013141485 0.00016290032 0.0055922745 0.99894822 -0.0084108394
84139.514164519 0.99684376 -0.011589356 1.7858604e-006 0.0018856303 2.3819803e-005 0.0013925801
-3.1863917e-007 0.0019158171 0.9984948 -0.023178164 0.0001953821 0.0059178066
1.1412432e-005 0.0013982224 0.0001824486 0.005934081 0.99904048 -0.0088527063
89125.093813375 0.99695265 -0.012322709 3.3286553e-005 0.0020065918 2.2868955e-005 0.0014672825
1.8774235e-005 0.0019968967 0.99859118 -0.024621395 0.00019656078 0.0062823188
2.8140861e-005 0.0014740927 0.00020853343 0.0062801852 0.99911314 -0.0093165897
94406.087628592 0.99689859 -0.013039603 3.4442211e-005 0.0021262721 1.3265036e-005 0.0015632141
1.6315258e-005 0.0021167244 0.99852109 -0.025934514 0.00023256456 0.0066500888
5.2274961e-005 0.0015670769 0.00021213238 0.0066338223 0.99907732 -0.0097574405
100000 0.99702138 -0.013835723 3.3753768e-005 0.0022509617 5.0957071e-005 0.0016624453
4.8207021e-005 0.0022589371 0.99840587 -0.027555631 0.00024989195 0.0070402632
2.3070705e-005 0.0016664887 0.00026283471 0.0070373965 0.99899149 -0.010441476
105925.37251773 0.9971022 -0.014616944 3.8435282e-005 0.0023771808 5.3799999e-005 0.0017338179
3.650241e-005 0.0023710828 0.99852318 -0.029098047 0.00029045434 0.0074441596
5.1359832e-005 0.0017664849 0.00027051763 0.0074520353 0.99902558 -0.010877513
112201.8454302 0.99702829 -0.015465466 2.2234759e-005 0.0025093176 2.7426458e-005 0.001843309
2.7019189e-005 0.002520568 0.99827141 -0.030955372 0.00029722165 0.0078745661
3.6731723e-005 0.0018693955 0.00031607403 0.0078789676 0.99907231 -0.011473213
118850.2227437 0.99698204 -0.016432887 1.0236833e-005 0.0026741528 4.6434048e-005 0.0019424574
3.5583824e-005 0.0026689512 0.99827021 -0.032657456 0.00035091219 0.0083267214
4.9140403e-005 0.0019626226 0.00033901012 0.0083253384 0.999044 -0.011933844
125892.54117942 0.9970029 -0.017245809 5.1902793e-005 0.0028505833 4.7797905e-005 0.0020698979
2.8401793e-005 0.0028373364 0.99827021 -0.034524444 0.00039946707 0.0088245841
6.7925794e-005 0.0020828438 0.00040241223 0.0088335397 0.99913299 -0.01281422
133352.14321633 0.99695987 -0.018370707 3.7023485e-005 0.0030141408 6.9601308e-005 0.002183082
4.756009e-005 0.0029982408 0.99821556 -0.036576059 0.00043968851 0.0093489541
4.7714009e-005 0.0021948412 0.00043858489 0.0093442164 0.99898034 -0.013609914
141253.75446228 0.99700701 -0.019459451 4.165943e-005 0.0031727373 8.3619445e-005 0.0023477843
6.5827968e-005 0.0031988686 0.9980666 -0.038782544 0.00048450803 0.0098932106
0.00010808153 0.0023191159 0.00046920383 0.0099037224 0.99916518 -0.014356511
149623.56560944 0.99683565 -0.020603593 7.6262717e-005 0.0033732608 9.0462898e-005 0.0024584804
5.1464587e-005 0.0033522132 0.99803668 -0.040887889 0.00054523139 0.010483383
8.9691093e-005 0.0024721117 0.0005441847 0.010451821 0.99884182 -0.01519655
158489.31924611 0.99695122 -0.021887388 7.4772441e-005 0.0035865777 9.1429174e-005 0.0025984915
8.2378028e-005 0.0035671801 0.99783915 -0.043502051 0.00059953146 0.011068998
0.00010077495 0.0026009476 0.00059308077 0.011049906 0.99894029 -0.015963631
167880.40181226 0.99663228 -0.023141963 8.374521e-005 0.0037646529 0.00010275222 0.0027698379
6.1711849e-005 0.0037752916 0.99757016 -0.046060741 0.00066884048 0.011728977
0.00010528881 0.0027398039 0.00065012707 0.011723924 0.99879557 -0.016984047
177827.94100389 0.996683 -0.024446532 8.727469e-005 0.0040188651 0.00010333795 0.0029262153
7.9398902e-005 0.004015259 0.99742585 -0.048837926 0.00074126117 0.012403296
9.8362027e-005 0.0029042664 0.00074080075 0.012418617 0.99876785 -0.018003268
188364.90894898 0.99645585 -0.025972571 9.5042982e-005 0.0042530717 0.00012193222 0.0030990192
0.00010654184 0.0042453688 0.99717754 -0.051759083 0.00081398379 0.013116529
0.00013045705 0.0030797897 0.00083107769 0.013120552 0.99865609 -0.018975295
199526.23149689 0.99642819 -0.027531745 0.00011235716 0.0044895457 0.00013309385 0.003280059
0.00010404329 0.0045300042 0.99716461 -0.054698076 0.00090754847 0.013854579
0.00015113686 0.0032754724 0.00089264882 0.013888916 0.99856061 -0.020138722
211348.90398366 0.99662083 -0.029202191 0.00010916295 0.0047771847 0.00017542575 0.0034473417
0.00013155014 0.0047514685 0.99699295 -0.05793 0.00099935208 0.01465744
0.00011955973 0.0034597302 0.0010215293 0.01467851 0.99848771 -0.021153254
223872.11385683 0.99652016 -0.030887494 0.00013821982 0.005043698 0.00017998277 0.0036658281
0.00013221636 0.0050543426 0.99648356 -0.061503593 0.0011289273 0.0154922
0.0001579947 0.0036569035 0.0011090714 0.015529131 0.99846917 -0.022286551
237137.37056617 0.99639958 -0.032812022 0.00015862286 0.0053610718 0.00018587809 0.0038594857
0.00016737453 0.0053805537 0.99622881 -0.065065943 0.0012425956 0.016431328
0.00019547144 0.0038737238 0.001236284 0.016394591 0.99829566 -0.023649693
251188.64315096 0.99640405 -0.034607068 0.00021466971 0.0056750816 0.00018848342 0.0041046222
0.00018975238 0.0056952303 0.99624896 -0.068913996 0.0013621757 0.017345211
0.0001936428 0.0040874206 0.0013795836 0.017352007 0.99825829 -0.02512392
266072.50597988 0.99629015 -0.03663335 0.00017568606 0.0060083088 0.00022524961 0.0043386095
0.00022041456 0.0060383105 0.99571097 -0.072934635 0.001477293 0.01834604
0.00022663301 0.0043400228 0.0015119248 0.018347127 0.99797213 -0.026350234
281838.29312645 0.99607211 -0.038992777 0.00023693808 0.0063850358 0.00023375278 0.0045556091
0.00022907298 0.0063718497 0.99539506 -0.077039279 0.0016900896 0.019369783
0.00025201606 0.0045584701 0.0016708511 0.019367222 0.99797684 -0.02795263
298538.2618918 0.99615115 -0.041174144 0.0002819823 0.0067642061 0.00030566484 0.0048317248
0.00026051194 0.0067668059 0.99504972 -0.081645004 0.0018416966 0.020457888
0.00026792684 0.0048342068 0.001835659 0.020462314 0.99777138 -0.029513406
316227.76601684 0.99600273 -0.043640237 0.00030708002 0.0071674841 0.00027188167 0.0051047704
0.0003132165 0.0071518193 0.99451226 -0.086440347 0.0020232659 0.021631032
0.00026034765 0.0050997105 0.0020322143 0.021640027 0.99755484 -0.031071046
334965.43915783 0.99572659 -0.046255644 0.00036950811 0.0075910101 0.00033203274 0.005402077
0.00034782651 0.0075894655 0.99383348 -0.091344394 0.0021950935 0.022884985
0.000323024 0.0054063722 0.0022293648 0.022873873 0.9975425 -0.032924417
354813.38923358 0.99564886 -0.04885342 0.00037655764 0.0080593098 0.00033322169 0.005691438
0.00040615405 0.0080518089 0.99341375 -0.096803814 0.0024425825 0.024157653
0.00035478789 0.0057158666 0.0024790976 0.024146849 0.99737096 -0.034804683
375837.40428844 0.99551421 -0.051592834 0.00043620134 0.0085402029 0.00037337624 0.0060239579
0.00046066349 0.0085406564 0.99263734 -0.10263501 0.0026754553 0.025545591
0.00041282066 0.0060491087 0.0027091112 0.025522945 0.99716902 -0.036739498
398107.1705535 0.99536681 -0.054814801 0.00051320664 0.0090367561 0.00039346312 0.0063835476
0.00051749544 0.0090178736 0.99188024 -0.10850766 0.0029508104 0.026950203
0.00042013775 0.0063918191 0.0029403467 0.026965613 0.99694079 -0.0389162
421696.50342858 0.9950611 -0.058015034 0.00056571275 0.0095796678 0.00044766904 0.0067479271
0.00059670501 0.0095981816 0.99106103 -0.1147932 0.0032570937 0.028483547
0.00047588581 0.0067428667 0.0032423711 0.028486034 0.99670804 -0.041117977
446683.59215096 0.99508297 -0.061591148 0.00067365367 0.010143026 0.00049555657 0.0071113491
0.00064953481 0.010160788 0.99003762 -0.12146229 0.003566843 0.030058686
0.00050550519 0.0071224724 0.0035583081 0.030073216 0.99643081 -0.043255784
473151.25896148 0.99457932 -0.065206267 0.00078068144 0.010768949 0.00052257505 0.0075394283
0.00076168467 0.01075696 0.9892723 -0.12861106 0.0039227409 0.031780824
0.00050177594 0.0075508016 0.0039073825 0.031767447 0.99619889 -0.0458382
501187.23362727 0.99417776 -0.068956822 0.00087744737 0.011437618 0.00058855506 0.0079785017
0.00085851864 0.011406559 0.98826152 -0.13594081 0.0043204022 0.033545475
0.00057281315 0.0079838336 0.0043048598 0.0335619 0.99587375 -0.048277508
530884.44423099 0.99384117 -0.072997801 0.00099525659 0.012076967 0.00060056668 0.0084035723
0.00098134018 0.012094885 0.98702085 -0.14381739 0.0047038724 0.035425227
0.00061678205 0.008429083 0.0047377497 0.03544677 0.9958759 -0.050898496
562341.32519035 0.99352306 -0.077229306 0.0011123326 0.012798409 0.00066714949 0.0088950675
0.0011348458 0.012797718 0.98547006 -0.15231332 0.0051890458 0.037398756
0.00067251996 0.0088878814 0.0052382397 0.03742674 0.99532557 -0.054029997
595662.14352901 0.99332356 -0.081582308 0.0012906641 0.013572437 0.00072617683 0.0094166184
0.0012933871 0.013551269 0.98397225 -0.16115557 0.0057239761 0.039507639
0.00072320789 0.0094234152 0.0057145613 0.03951418 0.99507695 -0.057095602
630957.34448019 0.99294305 -0.086521238 0.0014445586 0.014334269 0.00079121871 0.0099456813
0.0014649334 0.014347342 0.9821316 -0.17041323 0.0062706396 0.041709259
0.00079819956 0.0099448245 0.0062755365 0.041717943 0.99472076 -0.060505264
668343.91756861 0.99240124 -0.091595665 0.0016551988 0.015171945 0.00082920474 0.010519652
0.0016445641 0.015185866 0.9802134 -0.18037271 0.0069027753 0.044038914
0.00084490306 0.010521223 0.0068809409 0.044036467 0.99428678 -0.06363041
707945.78438414 0.99195015 -0.09701433 0.0018558294 0.016068997 0.00092134567 0.01111056
0.0018838056 0.016079856 0.97773182 -0.19077511 0.0075971456 0.046501577
0.00091014907 0.011133468 0.0075990479 0.046492789 0.99383599 -0.067380823
749894.20933246 0.99133492 -0.10281962 0.0021093441 0.017019417 0.00098980311 0.011746609
0.002121367 0.017020328 0.97507924 -0.20144957 0.0083190491 0.049047377
0.00098328386 0.011753612 0.0083646029 0.049088929 0.9931379 -0.071167476
794328.23472428 0.99024075 -0.10897499 0.00238263 0.017989961 0.0010763345 0.012433317
0.002394926 0.017996648 0.97306246 -0.21247624 0.0091655869 0.051779881
0.0010898673 0.012440674 0.0091842087 0.05179755 0.9927696 -0.0752979
841395.14164519 0.98966879 -0.11498371 0.0027225593 0.019034985 0.0011541671 0.013169251
