!Keysight Technologies,E5080A,MY55100144,A.11.70.03
!Date: Monday, November 13, 2017 17:25:23
!Correction: S11(Full 3 Port(1,2,3)) 
!S12(Full 3 Port(1,2,3)) 
!S13(Full 3 Port(1,2,3)) 
!S21(Full 3 Port(1,2,3)) 
!S22(Full 3 Port(1,2,3)) 
!S23(Full 3 Port(1,2,3)) 
!S31(Full 3 Port(1,2,3)) 
!S32(Full 3 Port(1,2,3)) 
!S33(Full 3 Port(1,2,3)) 
!S3P File: Measurements: <S11,S12,S13>,
!<S21,S22,S23>,
!<S31,S32,S33>:Log Frequency Sweep
# Hz S  RI   R 50
10000 0.99639893 -0.0057409313 6.7311271e-006 -7.0632166e-007 1.3018867e-005 0.00012983936
-9.4679172e-006 2.8859035e-006 0.47088361 -0.87571847 3.9299966e-006 -1.1264678e-005
-1.9880287e-007 0.00014181518 1.3430872e-005 -3.9689235e-006 0.99964637 -0.0023733021
10592.537251773 0.996521 -0.0059704431 8.5033787e-007 -1.5826896e-005 -6.6947946e-006 0.00012388467
-1.3951691e-005 -6.0320758e-007 0.42574215 -0.89843619 5.325586e-007 -2.9893361e-006
-1.8948293e-006 0.00014313325 1.9993226e-005 4.5768247e-006 0.99987459 -0.0022706324
11220.18454302 0.99657369 -0.0064153639 5.8490295e-006 1.0017965e-006 7.3902456e-006 0.0001427097
-2.5460295e-007 1.0335937e-005 0.37755057 -0.91922081 8.0363561e-006 1.0126097e-005
-4.650768e-006 0.00013774201 -1.4066346e-007 -3.8875046e-006 1.0001045 -0.002353467
11885.02227437 0.99641287 -0.0065576788 2.4808839e-006 2.7011802e-005 2.6989461e-005 0.0001229003
-3.8542282e-007 -8.4049325e-006 0.32786939 -0.93795162 1.057897e-005 8.228907e-008
3.13279e-006 0.00017598405 1.0211884e-006 2.7459525e-006 1.0000196 -0.0023433389
12589.254117942 0.99654227 -0.0071374304 -9.0659132e-006 2.3384944e-006 -2.2871478e-005 0.00016353821
6.7838619e-007 -1.2903165e-005 0.27630088 -0.954162 9.6402373e-006 2.3356738e-006
-8.7670114e-006 0.00015795977 2.4861331e-006 8.3202885e-006 1.000183 -0.0024502869
13335.214321633 0.99668074 -0.0073348512 -7.7015202e-006 2.1770929e-006 -3.5069238e-006 0.0001640313
8.056104e-006 -8.0297286e-006 0.22304861 -0.96803367 7.7365794e-006 -6.3577913e-006
6.2424665e-006 0.00016597522 -4.9807313e-006 2.0205653e-005 0.99991137 -0.0024028926
14125.375446228 0.99661046 -0.0080666011 -1.7208829e-005 2.3104139e-005 -1.4128924e-005 0.00018394559
1.2542941e-005 4.1534581e-006 0.16825125 -0.97842276 -1.8858866e-005 -1.3470645e-005
2.8875518e-006 0.00017033188 -2.2723254e-005 5.8659948e-006 1.0000535 -0.0025281289
14962.356560944 0.99664664 -0.0084242672 -4.9512064e-006 -6.5661015e-006 1.7045557e-005 0.0001840941
-6.1645978e-006 3.1170739e-006 0.1127379 -0.9868446 -2.2026343e-006 -3.4803679e-006
-1.5020421e-006 0.00019395915 1.0380453e-005 -4.1193989e-006 1.0000172 -0.0027068006
15848.931924611 0.99668616 -0.0090034977 -5.1552124e-006 -1.0659603e-005 1.5440031e-005 0.00019552177
4.9768478e-006 -1.2814997e-006 0.056066424 -0.99109453 3.8851304e-006 7.6900769e-006
-8.8840204e-007 0.00018735421 -5.8109658e-006 -2.0232535e-005 1.000235 -0.0025010072
16788.040181226 0.9964782 -0.0096822679 -1.2616836e-005 -1.1651522e-006 -8.8614634e-006 0.00022123809
-3.8685125e-006 1.1429703e-006 -0.00070028234 -0.99248624 -1.3482945e-005 1.0116779e-005
1.6600086e-005 0.00020254687 6.8480335e-007 2.1500769e-005 1.0000453 -0.0028166166
17782.794100389 0.99660385 -0.0099439817 -3.8192249e-007 1.6404721e-005 1.5877142e-005 0.00018801716
1.5662969e-005 1.0037443e-005 -0.057550859 -0.99052536 8.3558161e-006 5.6483277e-006
2.3012539e-005 0.00024228875 -3.8971148e-006 8.5531074e-006 0.9998399 -0.0027208265
18836.490894898 0.99656034 -0.01055791 -5.8829669e-006 9.7862664e-007 -3.8839544e-006 0.00023096323
-5.3874842e-006 -4.7906574e-006 -0.11397033 -0.98560715 5.0941626e-006 2.4333715e-006
1.6819457e-005 0.00024044543 3.990112e-006 -4.7886783e-006 0.99983191 -0.0027205327
19952.623149689 0.99676037 -0.011258003 2.4611511e-006 9.6965487e-006 -3.5299568e-006 0.00024226829
1.9075549e-006 -3.1643156e-006 -0.16946176 -0.97776473 -2.5317659e-005 7.296677e-007
-3.528291e-006 0.00023889498 -1.7513232e-005 -1.4004121e-006 0.99994737 -0.0029966685
21134.890398366 0.99661785 -0.011911129 -3.0437673e-006 1.8885275e-005 3.0163876e-006 0.00027319425
-1.2359741e-005 -1.4225066e-006 -0.22415493 -0.96659333 -7.6359265e-006 2.5348925e-006
1.3436893e-005 0.00027321716 -2.5670877e-006 -1.8272982e-005 0.99982435 -0.0030909602
22387.211385683 0.9965595 -0.012792039 -9.401092e-006 1.225643e-005 6.269408e-006 0.00029088437
-4.9607975e-006 -1.0575723e-006 -0.27721834 -0.95272332 2.1288961e-006 5.1303814e-006
4.4576445e-006 0.00027830579 2.9330447e-006 -1.5047555e-005 0.99980801 -0.0032326241
23713.737056617 0.99631417 -0.013487068 -2.6811562e-005 -1.6652077e-005 -8.16592e-006 0.00028820493
4.7875192e-006 1.000913e-005 -0.32895762 -0.93601424 1.5430487e-005 1.2790874e-006
-1.0292504e-006 0.0002849717 9.708162e-006 1.2858776e-005 0.99971509 -0.0032682491
25118.864315096 0.99661857 -0.014238984 9.0661561e-006 1.6429605e-005 -1.829185e-005 0.00031718993
6.6490438e-006 3.3043586e-006 -0.37833118 -0.91730988 4.7740609e-006 -6.7931983e-006
5.7713428e-006 0.00030172477 -4.2922908e-005 8.9644445e-006 0.99971902 -0.0033344862
26607.250597988 0.99659163 -0.014903263 5.2311821e-006 1.333318e-005 1.1196999e-005 0.00034820879
-8.607487e-006 -1.0929052e-005 -0.4260596 -0.89619023 -2.2632698e-006 1.3057175e-006
-1.6382664e-005 0.0003235823 6.5238946e-006 1.5390449e-005 0.99990135 -0.0036081027
28183.829312645 0.99658966 -0.016072368 1.2723523e-005 1.0433055e-005 -6.8366335e-006 0.00034907268
1.0661121e-005 1.0157872e-005 -0.47140658 -0.87327731 1.1384069e-006 -6.9091066e-006
3.1925297e-006 0.00033161257 5.2003077e-007 -1.3014834e-005 0.99977148 -0.0036490702
29853.82618918 0.99656105 -0.016909076 5.7381058e-006 -1.3844544e-005 -5.3721633e-006 0.00036815295
-6.4534829e-006 -4.2425163e-006 -0.51421797 -0.84870917 4.3110604e-006 3.857062e-006
-1.7194594e-006 0.00038105933 -9.1478441e-006 1.9514902e-005 0.9998337 -0.0036471325
31622.776601684 0.99650604 -0.017983455 3.1752234e-006 -2.6486189e-006 1.705771e-005 0.00040291928
3.08276e-006 1.2893564e-005 -0.55448508 -0.82308716 5.0281216e-007 -9.2961369e-007
-3.0800634e-006 0.00038084746 -8.7623748e-006 -1.3541694e-005 0.99992406 -0.0040254104
33496.543915783 0.99648672 -0.018910665 7.1810523e-006 -1.2788872e-005 -4.2700785e-006 0.00040958714
1.0854786e-005 -7.1681329e-006 -0.59243983 -0.79623049 -6.4067115e-007 1.2341631e-006
-1.8290618e-006 0.00041392888 -1.0421735e-005 1.8928811e-005 0.99979812 -0.0041750846
35481.338923358 0.99627042 -0.020009464 -1.689746e-005 1.1357952e-005 1.5264215e-005 0.00043672722
7.0209971e-006 6.8888758e-006 -0.62789214 -0.76861048 2.8320628e-007 4.1941694e-006
9.1696065e-006 0.00044028263 1.1941771e-006 -6.3846173e-006 0.99972177 -0.0042925104
37583.740428844 0.99634606 -0.021224467 -1.8060371e-006 5.1297598e-006 -1.0913302e-006 0.00047690066
1.6416723e-006 3.4404713e-006 -0.66091985 -0.74059868 1.0022802e-006 1.0767088e-005
1.2879675e-005 0.00044969312 -1.1683002e-005 -9.1158263e-006 0.99974936 -0.0046155774
39810.71705535 0.99648064 -0.022424106 5.2885985e-006 -1.0661982e-005 1.549288e-006 0.00049197063
7.4846577e-007 5.6283711e-006 -0.6914379 -0.71236521 -1.7865169e-006 5.9775398e-006
1.5290099e-005 0.00049748179 9.6287913e-006 8.0730524e-006 0.99953902 -0.0048637954
42169.650342858 0.99630672 -0.02375414 -8.6886439e-006 -2.2232873e-006 3.5008092e-005 0.00052930589
8.9089344e-006 4.5213874e-006 -0.71971941 -0.68405223 -6.2829281e-006 -3.9924066e-006
2.575315e-006 0.00051630731 -2.0491343e-006 -1.1884059e-005 0.99956846 -0.0049155983
44668.359215096 0.99647611 -0.02522994 -1.3699399e-005 1.6260119e-005 1.0842865e-005 0.00055078493
-7.0764131e-006 -2.7806511e-006 -0.74568695 -0.65579128 -9.1657375e-006 8.370821e-006
1.0681023e-005 0.00056331919 9.426949e-006 -2.8927343e-006 0.99948812 -0.0052310773
47315.125896148 0.99639314 -0.026684565 -5.8690484e-006 2.4373328e-005 1.7459179e-005 0.00057533837
-2.184363e-006 3.030181e-006 -0.76963902 -0.62776393 1.3557114e-005 1.5756006e-005
1.1221973e-005 0.00057057245 -6.6463858e-006 5.0044887e-006 0.99957526 -0.0053836545
50118.723362727 0.99621606 -0.028233979 3.1909653e-006 -1.601541e-005 4.5214307e-005 0.00063579879
-2.7209394e-006 9.593934e-006 -0.79145938 -0.60012382 -9.0304666e-006 9.6666063e-006
3.8052207e-005 0.00062373368 1.1921604e-005 -1.3810229e-005 0.99937749 -0.0055211373
53088.444423099 0.99610895 -0.030009821 7.201962e-006 -2.4451791e-007 -5.7522129e-006 0.00065618922
1.9034754e-006 3.8093831e-006 -0.81158292 -0.5730232 -2.0063342e-005 9.0784442e-006
1.8588349e-005 0.00064392365 -1.028402e-005 -4.8509723e-006 0.99952149 -0.0059914528
56234.132519035 0.99618071 -0.031757701 1.0504429e-005 -1.4234125e-005 -2.1899459e-006 0.00069451827
-7.8944104e-006 4.172764e-006 -0.82966661 -0.54661733 -3.2161004e-006 1.6349579e-005
1.3257513e-005 0.00068792433 -2.9739778e-005 -5.2893865e-006 0.99929172 -0.006298603
59566.214352901 0.9960525 -0.033599682 8.7801379e-007 -2.1243033e-005 3.8400925e-005 0.00072573527
-4.7302656e-006 5.7409975e-006 -0.84626913 -0.52084839 2.4511598e-006 -1.4365658e-006
1.646435e-005 0.00073276437 2.3601597e-005 -5.1898328e-006 0.99909449 -0.0065821945
63095.734448019 0.99588716 -0.035489276 1.0662284e-005 1.5552338e-005 2.4121815e-005 0.00078490435
-8.7786138e-006 2.3925309e-006 -0.86124766 -0.49589726 -2.1673266e-006 -4.2206526e-007
1.4827204e-005 0.0007903286 -5.6007848e-006 -8.5720567e-006 0.99939275 -0.0070472825
66834.391756861 0.99584663 -0.037594289 -8.4130943e-006 5.9955573e-006 1.8531522e-005 0.00082298834
-2.7618628e-006 2.6538328e-006 -0.87488258 -0.47166559 5.1522302e-006 -2.396645e-006
5.2273294e-006 0.0008260028 4.6292475e-006 -6.9300131e-006 0.99940616 -0.0073301978
70794.578438414 0.99585599 -0.03976367 -1.0595354e-005 1.2198757e-005 2.3371897e-005 0.00086549908
9.9010904e-006 1.0959998e-005 -0.88717759 -0.44850957 4.256126e-007 1.1342475e-005
3.1773889e-005 0.00088128523 -1.4410301e-006 -4.3230102e-006 0.99911761 -0.0077067702
74989.420933246 0.99568611 -0.042189565 -1.1203425e-005 1.4489352e-006 4.3018608e-005 0.00092253136
-4.8940035e-007 2.0004577e-006 -0.89836597 -0.42592722 2.0924197e-006 1.3473367e-005
2.9147466e-005 0.00092958246 -6.8688729e-007 1.3948475e-005 0.9991681 -0.0079977568
79432.823472428 0.99548495 -0.044670545 -2.8207183e-005 2.7395916e-005 5.612888e-005 0.00096783286
3.0548961e-006 8.9180576e-006 -0.90840667 -0.40422511 2.2223167e-006 -1.0088107e-005
3.1889103e-005 0.00096229813 5.7451721e-006 7.9653964e-006 0.9989599 -0.0083709089
84139.514164519 0.99545681 -0.047174346 -3.9053452e-006 -9.6223539e-006 5.9987018e-005 0.0010300695
-9.2782284e-006 -4.42594e-006 -0.91745329 -0.38354522 1.2757662e-005 8.8258412e-006
3.3003875e-005 0.0010399326 -1.2718972e-005 2.0519099e-005 0.99906391 -0.0087235244
89125.093813375 0.99535334 -0.049939428 -1.0254309e-005 3.6396318e-006 6.5104192e-005 0.0010919925
-6.6913535e-006 1.0468799e-005 -0.92567813 -0.36363426 1.9667e-006 5.9801514e-006
3.9179864e-005 0.0011040438 7.9027604e-006 1.9800431e-005 0.99897307 -0.0093311919
94406.087628592 0.99512064 -0.052892067 5.1526608e-006 2.2160577e-006 7.5647702e-005 0.0011434174
-8.4201029e-006 -7.8849718e-007 -0.93306106 -0.34477037 1.1075086e-006 1.4263657e-005
3.9951501e-005 0.001165804 -6.526303e-006 -2.323719e-007 0.99912965 -0.0096428394
100000 0.99491459 -0.055997886 -2.7169233e-005 1.7567196e-005 6.9761969e-005 0.0012287957
-1.355209e-005 9.2923447e-006 -0.93959731 -0.3265748 7.3160709e-006 1.1851902e-005
4.8391579e-005 0.0012409186 -4.4371841e-006 5.026287e-006 0.99899489 -0.010363599
105925.37251773 0.99483335 -0.05922078 -2.1363236e-005 3.8210565e-005 5.376913e-005 0.0013114089
-1.2705521e-005 7.0563938e-006 -0.94561589 -0.30933011 -8.2729066e-006 8.1858134e-006
6.2678198e-005 0.0012989241 -8.0824134e-007 1.5212307e-005 0.99894577 -0.01072254
112201.8454302 0.99469626 -0.062869109 -1.4494789e-006 -5.9795884e-006 7.7494304e-005 0.0013754349
-2.4957965e-006 1.4445804e-006 -0.9509443 -0.29285434 -3.104286e-006 5.3932426e-006
7.0844566e-005 0.0013852729 -6.5966615e-006 2.2606911e-005 0.9990235 -0.011397764
118850.2227437 0.99432868 -0.066487163 1.2931004e-006 -2.7364246e-007 8.5400054e-005 0.0014521315
-7.4936793e-006 9.7048678e-006 -0.9557547 -0.2770952 -4.9651098e-006 1.2990447e-005
8.012286e-005 0.001480119 -1.7315375e-005 1.4251164e-005 0.9991104 -0.012190517
125892.54117942 0.9941591 -0.070445016 -1.4848141e-005 2.8248167e-005 0.00011251531 0.0015345616
-5.2423989e-006 5.30328e-006 -0.96006179 -0.2621927 8.6375195e-007 -5.4583802e-006
9.4680152e-005 0.0015447035 1.3866801e-005 -1.3627113e-005 0.999111 -0.012759569
133352.14321633 0.99403924 -0.074650139 -8.4768481e-006 2.2374154e-005 0.00011058107 0.0016353676
-3.7474731e-006 8.7073913e-006 -0.9638837 -0.24797091 2.4649717e-006 1.0524182e-005
0.00010972083 0.0016291795 1.274037e-005 -6.3104671e-006 0.99904424 -0.013516269
141253.75446228 0.99341512 -0.079179361 1.0586433e-006 2.6614832e-006 8.3563144e-005 0.0017190087
-1.1361574e-005 9.2657956e-006 -0.96728718 -0.23456763 6.8442523e-006 6.8453846e-006
0.00010732808 0.0017182877 1.5689832e-006 -1.0768637e-005 0.99918211 -0.014414451
149623.56560944 0.99301457 -0.08371532 1.4574356e-005 -1.1736407e-005 0.00012348006 0.0018144194
-2.496618e-006 2.1855169e-005 -0.97044182 -0.22167708 4.4945878e-006 1.7057104e-005
0.00012855144 0.001827943 1.6331433e-006 2.013964e-005 0.998842 -0.015243925
158489.31924611 0.99270278 -0.088695414 1.6084607e-005 1.5949974e-005 0.00016046703 0.00193592
-3.4387865e-006 2.0535803e-005 -0.97320837 -0.20952985 -6.2319468e-006 7.2820885e-006
0.00013345745 0.0019204523 -1.2262555e-005 2.3786966e-005 0.99888068 -0.016072847
167880.40181226 0.99206311 -0.094004042 -1.244571e-005 1.354007e-005 0.00016847823 0.0020563714
-1.2223222e-005 1.5968169e-005 -0.97572792 -0.1978606 2.4562719e-006 1.0506298e-005
0.00015002249 0.0020463613 -1.3811589e-006 9.2525543e-006 0.99901557 -0.017001368
177827.94100389 0.9914813 -0.099450089 -4.0459377e-006 -1.0817063e-005 0.00018284906 0.0021799
-2.0170573e-005 3.4900925e-006 -0.97730666 -0.18587978 -4.5099282e-006 7.5689222e-006
0.00019354108 0.0021705327 -1.1344897e-005 2.6246633e-005 0.99879843 -0.017976368
188364.90894898 0.99079698 -0.1053028 -9.3844001e-006 6.3246057e-006 0.00021662671 0.0022843932
-1.7308073e-005 2.2843169e-005 -0.97977459 -0.17711598 -2.0067038e-005 1.0418466e-005
0.00021591736 0.0022933425 -7.6157489e-006 4.3746472e-006 0.99863207 -0.019035956
199526.23149689 0.99013668 -0.11148423 7.0866022e-006 2.1728261e-005 0.00021502376 0.0024306783
-1.0293134e-005 1.6987458e-005 -0.98158872 -0.16715361 5.3076878e-006 8.3182285e-006
0.0002349656 0.0024205477 2.7893186e-006 -1.1677281e-005 0.99856943 -0.020070611
211348.90398366 0.9894951 -0.11814635 7.5131925e-006 2.0733249e-005 0.00028146134 0.0025505868
-1.3336569e-005 3.2892167e-005 -0.98324168 -0.15784781 -4.4217322e-006 1.3946163e-005
0.00024209243 0.0025446643 -1.2050463e-005 1.9282517e-005 0.99847692 -0.021257862
223872.11385683 0.98868436 -0.12486702 -5.7404659e-006 1.1009567e-005 0.00027257539 0.002699625
-1.747474e-005 2.4199891e-005 -0.98465377 -0.14895578 7.365516e-006 1.6881899e-005
0.00028475892 0.0027040704 -3.5991154e-006 -8.6171794e-006 0.99845308 -0.022313759
237137.37056617 0.98749447 -0.13229078 -2.4766616e-005 1.431445e-005 0.00031146061 0.0028479181
-1.4543808e-005 2.1786269e-005 -0.98590648 -0.14058754 3.2288094e-006 1.921747e-005
0.00031262633 0.0028603699 -2.6523285e-006 2.1391354e-005 0.99848926 -0.023477133
251188.64315096 0.98656291 -0.14010967 -3.2714783e-005 1.7693797e-005 0.00037129183 0.0030200446
-1.6083524e-005 1.9101308e-005 -0.98707646 -0.13267758 -6.7324363e-006 8.3306222e-006
0.00034539783 0.0030202912 -6.7827347e-007 7.79322e-006 0.99844575 -0.025041919
266072.50597988 0.9851011 -0.14819337 -1.8504159e-005 2.1715233e-007 0.00038740435 0.0031893575
-6.82572e-006 2.6617499e-005 -0.98807317 -0.12521473 -5.2650825e-007 2.6255515e-005
0.00038179886 0.0032150156 -2.6598815e-007 1.7983923e-005 0.99825978 -0.026349282
281838.29312645 0.98380923 -0.15707523 -2.5855621e-005 -2.8037966e-006 0.00043195675 0.0033671258
-1.7766724e-005 1.8147994e-005 -0.98900807 -0.11819374 -8.3055511e-006 2.1737655e-005
0.00043896554 0.0033600209 6.7997562e-006 3.6105597e-005 0.9982363 -0.028013449
298538.2618918 0.9823674 -0.1661375 -3.9287101e-005 3.4802721e-005 0.00049671135 0.0035571717
-2.1025118e-005 1.4552452e-005 -0.98983014 -0.11135995 1.0481681e-005 1.0376416e-005
0.00047625595 0.0035488517 -5.8303835e-006 3.6764883e-005 0.99795997 -0.029598754
316227.76601684 0.98066318 -0.17578636 -4.1552299e-005 2.8538672e-005 0.00050353142 0.0037647816
-1.5828449e-005 1.8328057e-005 -0.99049878 -0.10509272 -5.8730579e-006 9.1580578e-006
0.00053025479 0.0037714844 -8.6769478e-006 1.9805937e-005 0.99789369 -0.031232409
334965.43915783 0.9785791 -0.18598026 -4.4908666e-005 4.1545623e-005 0.0005523772 0.003950791
-1.5378782e-005 2.300314e-005 -0.99123555 -0.099204123 -6.4444107e-006 2.4485986e-005
0.00056587241 0.003973363 9.2774592e-008 1.6795359e-005 0.99764931 -0.032964546
354813.38923358 0.97663015 -0.19662924 -3.300469e-005 3.5374713e-005 0.00065039954 0.0041871895
-2.9400338e-005 2.8622584e-005 -0.99178636 -0.093397133 -5.0069588e-007 3.5555498e-005
0.0006428702 0.0041889977 -2.6086256e-005 8.3078503e-006 0.99773198 -0.03497133
375837.40428844 0.97427303 -0.20810154 -6.3890489e-005 2.8778561e-005 0.00070509472 0.0044168653
-2.8681896e-005 2.8711567e-005 -0.99225569 -0.087907895 -1.0639332e-005 8.6006958e-006
0.00072438782 0.0044293138 -1.8756306e-006 2.5553387e-005 0.99751031 -0.036867596
398107.1705535 0.9714787 -0.22031567 -4.2068565e-005 1.6181788e-005 0.00080101023 0.0046677417
-5.1333751e-005 1.9844147e-005 -0.99279881 -0.082672074 -7.9260763e-006 2.7681606e-005
0.00077979296 0.004640351 -8.8981769e-006 2.6179596e-005 0.99728215 -0.038996104
421696.50342858 0.968512 -0.23286165 -2.6970474e-005 2.9241699e-005 0.00085110206 0.0049406295
-3.6627491e-005 2.9940345e-005 -0.9929722 -0.077449054 4.0052983e-006 3.8003942e-005
0.00086074945 0.0049426928 -3.0215275e-005 4.7532052e-005 0.99710888 -0.041153271
446683.59215096 0.96507144 -0.24624418 -6.852331e-005 3.7269496e-005 0.00094987615 0.0051979832
-5.2062569e-005 3.4643159e-005 -0.99303102 -0.073754735 2.3603714e-006 2.5639078e-005
0.00096376601 0.0051794611 4.4857379e-006 1.9180701e-005 0.99672407 -0.043419957
473151.25896148 0.96129072 -0.26021838 -6.738786e-005 4.9989856e-005 0.0010675241 0.0054444531
-6.2735453e-005 4.3527023e-005 -0.99374336 -0.069563136 -1.8771623e-005 3.4796874e-005
0.0010662313 0.0054978873 -8.0516911e-006 2.2909835e-005 0.99653381 -0.045877364
501187.23362727 0.95705086 -0.27520546 -5.3889769e-005 5.0738665e-005 0.0011922182 0.0057643582
-7.2813527e-005 4.4588254e-005 -0.99412501 -0.065329835 7.4402801e-006 2.0243462e-005
0.0011825274 0.0057768621 -5.0164621e-005 2.4257133e-005 0.99639064 -0.0484838
530884.44423099 0.95231849 -0.2906754 -6.3383151e-005 5.8878861e-005 0.0012914183 0.0060783941
-7.3978117e-005 5.2809326e-005 -0.99441016 -0.061297443 -8.0866757e-006 3.051304e-005
0.0012982918 0.0060626906 -2.0803207e-005 3.9182672e-005 0.99646521 -0.051132008
562341.32519035 0.94712853 -0.30697876 -8.8151217e-005 6.1817547e-005 0.0014236746 0.0063952133
-9.0372239e-005 6.1588682e-005 -0.9947691 -0.057611652 -1.6127811e-005 3.3725275e-005
0.0014349459 0.006396675 -5.5571359e-006 7.9913971e-006 0.99608076 -0.054161604
595662.14352901 0.94151747 -0.32394084 -9.5952062e-005 5.4577351e-005 0.0015834196 0.0067626331
-8.5048778e-005 6.8052956e-005 -0.99493468 -0.054001939 -1.8768862e-005 4.410146e-005
0.0015873516 0.0067238621 -1.3204665e-005 2.9073348e-005 0.99580783 -0.057391796
630957.34448019 0.93512201 -0.34212133 -8.7069529e-005 6.8572401e-005 0.0017302777 0.007100028
-9.7333388e-005 7.7516714e-005 -0.99511367 -0.050640572 -2.322163e-005 4.7705114e-005
0.0017343204 0.0070969379 -1.5942232e-005 2.5416935e-005 0.99548948 -0.060618993
668343.91756861 0.92773831 -0.36114058 -0.00010782994 7.8036101e-005 0.001917737 0.0074742096
