!Keysight Technologies,E5080A,MY55100144,A.11.70.03
!Date: Monday, November 13, 2017 17:24:54
!Correction: S11(Full 3 Port(1,2,3)) 
!S12(Full 3 Port(1,2,3)) 
!S13(Full 3 Port(1,2,3)) 
!S21(Full 3 Port(1,2,3)) 
!S22(Full 3 Port(1,2,3)) 
!S23(Full 3 Port(1,2,3)) 
!S31(Full 3 Port(1,2,3)) 
!S32(Full 3 Port(1,2,3)) 
!S33(Full 3 Port(1,2,3)) 
!S3P File: Measurements: <S11,S12,S13>,
!<S21,S22,S23>,
!<S31,S32,S33>:Log Frequency Sweep
# Hz S  RI   R 50
10000 0.99682379 -0.0060470165 -1.0883615e-006 2.0088657e-005 2.7985034e-006 0.00012804086
-2.9997691e-005 2.7920571e-006 0.47087163 -0.87568945 6.1038377e-006 -4.2273286e-006
1.074084e-005 0.00012546773 -5.1513107e-006 9.8566015e-006 0.99979937 -0.0024369748
10592.537251773 0.99694562 -0.0063401158 4.9600158e-006 1.6202421e-005 5.6221838e-006 0.00013233031
1.1742423e-005 -1.5403839e-006 0.42581555 -0.89826959 -6.254023e-006 -6.1951737e-006
3.0861029e-006 0.0001196072 5.4760485e-006 4.8567699e-006 0.9999941 -0.0021883508
11220.18454302 0.99690497 -0.0067632827 -1.2591053e-005 -7.8716612e-006 1.3729004e-005 0.0001331659
5.9460663e-006 -7.5855178e-006 0.37756702 -0.91900229 8.9996229e-006 1.233151e-005
8.93999e-006 0.00013251105 4.7347498e-006 3.7658758e-006 1.0000285 -0.0024208082
11885.02227437 0.99684334 -0.0072314823 1.5359858e-005 2.4485045e-005 -6.6788107e-006 0.00015833491
7.5463295e-006 4.1851763e-006 0.32787326 -0.93769562 -8.5995106e-007 3.4322813e-006
1.2007471e-005 0.00013564531 -2.1683005e-005 8.6151786e-006 1.0000697 -0.0023840948
12589.254117942 0.99709022 -0.0076568183 9.3639583e-006 3.8184439e-007 9.1792572e-006 0.00015020989
-7.2454791e-006 -5.1435268e-006 0.27637586 -0.95395231 -2.1176165e-006 -6.7916812e-006
-3.4663597e-007 0.00014323373 -6.3590728e-006 3.6390206e-006 0.99998814 -0.002546787
13335.214321633 0.99694198 -0.0079029966 -1.2282414e-005 -3.526812e-006 -5.4237667e-006 0.00016388057
6.9202395e-007 4.5058014e-006 0.22307682 -0.96783864 4.099169e-006 -7.127514e-006
1.0721659e-005 0.00017606227 3.5687706e-006 -1.751557e-006 0.99981934 -0.002470444
14125.375446228 0.99684215 -0.0085030468 -8.8400102e-006 4.3759069e-006 4.4163799e-006 0.00015602753
-3.9479651e-006 1.1531841e-005 0.16847414 -0.97823846 1.8975752e-005 1.1540824e-005
7.6176807e-006 0.00017915266 -2.4927524e-005 -1.6517077e-005 1.0001504 -0.0024285577
14962.356560944 0.99685699 -0.0087375622 -1.5315001e-005 6.8043614e-006 -6.2456947e-006 0.00018014578
-2.5411473e-006 -4.0455639e-006 0.11285052 -0.98643696 4.948336e-006 2.6053624e-006
1.1367846e-005 0.00019962799 -1.3119791e-005 8.7298058e-006 0.99997044 -0.0026777987
15848.931924611 0.99704003 -0.0095982924 -1.7725642e-005 -5.7229431e-006 2.1110201e-005 0.00019518622
-9.0306057e-006 1.3018292e-005 0.056051929 -0.99084383 -5.2381063e-007 9.0895028e-006
-1.0991325e-006 0.00017668158 9.2947261e-007 -1.1623235e-006 1.0000916 -0.0025648142
16788.040181226 0.9969728 -0.010111214 -9.8887049e-006 -1.3502867e-006 9.7734583e-006 0.000227938
1.8886183e-005 -1.5940215e-005 -0.0006928434 -0.99234492 -9.0730673e-006 -2.6001194e-006
1.9458134e-006 0.00021792622 -1.467427e-005 -5.5795601e-007 1.0000067 -0.0027875507
17782.794100389 0.99702233 -0.010681855 2.272664e-006 6.8442534e-007 5.1525976e-006 0.00021351072
-3.1102006e-006 -8.2449833e-006 -0.057397474 -0.99033356 -7.6256169e-006 1.5161411e-005
3.9656052e-006 0.00023670055 2.3741388e-005 -9.4133302e-006 0.9998253 -0.0028769404
18836.490894898 0.9969638 -0.01111286 7.4978666e-006 4.8235224e-006 -4.7129988e-006 0.00024564643
1.3784743e-006 1.3299416e-005 -0.11382929 -0.98550874 -2.303374e-006 1.0033896e-006
-7.1741515e-006 0.00023795376 1.0616966e-005 -3.3099509e-006 0.99979639 -0.0027882271
19952.623149689 0.99688745 -0.01196419 -7.2940848e-006 7.3520278e-006 -6.1382379e-006 0.0002510843
-4.8090178e-006 2.0752736e-006 -0.1693193 -0.9775849 3.610189e-006 2.0604273e-005
2.0991072e-005 0.00024636334 -3.8569865e-006 -1.7331928e-005 0.99988461 -0.0028664486
21134.890398366 0.99702585 -0.012647758 4.6645146e-006 1.1496184e-005 -1.0781394e-005 0.00027240854
5.4105712e-006 -5.4769289e-006 -0.22405088 -0.96646869 -1.6098331e-006 2.9193936e-006
3.6021424e-006 0.00025264767 -1.6915648e-005 1.4586019e-005 0.99976563 -0.0030423282
22387.211385683 0.99692178 -0.013316705 -2.878395e-005 -2.5357931e-006 -1.1850209e-005 0.00029295377
-7.1696054e-006 -1.086499e-006 -0.27703002 -0.95233667 -1.2583174e-005 -2.643495e-008
1.0322137e-005 0.00027088882 -1.388663e-005 -1.1694723e-005 0.99976277 -0.0032134547
23713.737056617 0.99700534 -0.014242964 -4.6533446e-006 -3.4839759e-006 5.2294913e-006 0.00030577736
7.3262513e-006 8.3498244e-006 -0.32872346 -0.93581516 -4.127692e-007 2.2311015e-006
8.0489044e-006 0.00030030817 7.0870392e-006 -4.0628529e-006 0.99964941 -0.0031459332
25118.864315096 0.99699491 -0.014990187 1.2901736e-006 2.226896e-005 -1.9141244e-006 0.00032261983
-4.7364197e-006 3.063908e-006 -0.37812677 -0.91699177 -5.8040843e-007 -8.5370757e-006
-1.5010016e-005 0.00031076034 1.6317948e-006 -5.7570701e-006 0.9997232 -0.0032908155
26607.250597988 0.99708068 -0.015732845 -3.8095238e-006 -9.7042757e-006 1.6059805e-006 0.00032030354
-2.8443833e-007 7.1216814e-006 -0.42582151 -0.89599937 3.6903159e-006 9.9836079e-006
3.1293916e-006 0.0003421786 -5.6722047e-006 8.2217593e-006 0.9998216 -0.0035518603
28183.829312645 0.99695772 -0.017024824 2.8549281e-005 -4.2300612e-006 -3.1138154e-006 0.00034536005
-8.6007494e-006 1.103762e-005 -0.47113442 -0.873016 1.0101736e-005 -2.1791707e-006
1.9387915e-005 0.00033031614 -6.4694059e-006 -1.1314397e-005 0.99979621 -0.0035961589
29853.82618918 0.99707252 -0.017810037 -1.4813833e-005 1.0464371e-005 2.3466286e-005 0.00039250491
-6.672979e-006 7.3222242e-007 -0.51386994 -0.84848636 4.2590091e-006 -3.853886e-006
4.8288935e-006 0.00039161541 -7.3527253e-006 1.4063314e-005 0.99979061 -0.0036729311
31622.776601684 0.99686629 -0.01899978 -7.7170789e-006 1.3520686e-005 3.7104157e-005 0.00039136622
-4.834937e-006 2.7769154e-006 -0.55418491 -0.82285869 -3.8577791e-006 -4.0787763e-006
1.1437883e-005 0.00038584403 1.0998257e-005 6.8707504e-006 0.99987113 -0.0040513119
33496.543915783 0.99682581 -0.019950554 -3.3435551e-006 3.597338e-006 5.587216e-006 0.00039727314
2.264034e-006 4.5122788e-006 -0.59214973 -0.79608148 8.2056449e-006 1.7575842e-006
3.4952334e-006 0.00041953157 -2.5239447e-006 1.4161478e-005 0.99961478 -0.0042036762
35481.338923358 0.99659908 -0.021116417 8.0260215e-006 6.6392449e-006 9.5951409e-006 0.00043267471
-1.068261e-006 1.4658391e-006 -0.62753642 -0.76842982 -1.3221373e-005 1.827912e-006
-2.0207369e-006 0.00045980926 9.6645435e-006 4.6418531e-006 0.99966013 -0.0042444533
37583.740428844 0.99680138 -0.022432212 -2.4916881e-006 -2.9564895e-005 7.1956902e-006 0.00045623403
5.8754417e-006 -4.7208378e-006 -0.66053796 -0.74043941 3.8867074e-006 -9.5514383e-007
8.1827147e-006 0.00046980535 -7.3825722e-006 3.1766205e-005 0.99959904 -0.0044349888
39810.71705535 0.99660397 -0.023679396 1.1821156e-006 1.9994523e-005 1.6944372e-005 0.00050921837
-5.1855992e-008 2.4243425e-005 -0.69114077 -0.71217841 2.3083769e-006 -1.407966e-005
2.5553269e-005 0.00049533858 1.4407406e-005 -4.838821e-006 0.99956506 -0.0048196591
42169.650342858 0.99666923 -0.025149103 -3.2022913e-006 -4.0346445e-006 1.5998457e-005 0.00051956269
5.941461e-006 1.1081908e-006 -0.71936995 -0.68398917 -1.3599042e-005 1.1762671e-006
-3.4733609e-006 0.00053274911 2.8786087e-006 -3.9475481e-006 0.999439 -0.0048765372
44668.359215096 0.99676609 -0.02658575 1.2639316e-006 -1.8212681e-005 2.5220726e-005 0.0005611839
4.5888461e-007 7.9609354e-006 -0.74537128 -0.65552837 -2.5322427e-006 4.3970604e-006
3.6960726e-005 0.00056166638 8.1485759e-006 3.2348427e-005 0.99935347 -0.0052326308
47315.125896148 0.99679708 -0.028176583 -8.7902408e-006 4.6476514e-005 4.4261355e-006 0.00059072016
-2.7036742e-006 1.0935289e-005 -0.76924509 -0.62760133 -5.0945337e-006 2.8965047e-007
2.6666241e-005 0.00057979685 -2.0163022e-006 -9.1487564e-006 0.99954164 -0.0054446622
50118.723362727 0.99652427 -0.029858112 -1.1934056e-005 1.4436705e-005 7.6877404e-006 0.00061464944
7.5299545e-006 -2.0116481e-006 -0.7911641 -0.59993607 6.743594e-006 1.0630107e-005
9.7277725e-006 0.00061922631 1.7353712e-005 -2.6645091e-006 0.99932367 -0.0056407079
53088.444423099 0.99654675 -0.031544577 2.7684187e-006 7.8481571e-006 1.9495435e-005 0.00066349405
4.1992498e-006 7.079188e-006 -0.81116068 -0.572945 1.0788269e-005 3.5772457e-006
2.9571462e-005 0.00065162685 3.2533223e-006 -3.1355876e-006 0.99949956 -0.0059716925
56234.132519035 0.99633998 -0.033553638 -6.1056594e-006 1.0520112e-005 1.3144891e-005 0.00070729654
6.0608545e-006 1.0230354e-005 -0.82923669 -0.5464676 -5.472391e-006 1.1980866e-005
2.3692572e-005 0.00068744336 -1.5281477e-005 4.0097602e-006 0.99934435 -0.0062652868
59566.214352901 0.99635088 -0.035407718 1.2415373e-005 -8.8092048e-007 3.3467706e-005 0.00074379478
-1.2875679e-005 5.9288168e-006 -0.84584409 -0.52076769 -2.2541496e-006 1.845632e-005
3.8475162e-005 0.00074536056 -7.8756857e-006 -1.1475306e-006 0.99918014 -0.0066227564
63095.734448019 0.9962585 -0.037544742 -2.1994865e-005 -1.0319461e-005 1.5608677e-005 0.00079335662
-7.6816523e-006 4.7541139e-006 -0.86086214 -0.49569237 7.0255619e-006 5.0552563e-007
1.9796105e-005 0.00076906849 1.2695577e-005 7.2846801e-006 0.99938726 -0.0068793409
66834.391756861 0.99610448 -0.039623644 -1.5894921e-005 -8.2917159e-006 1.7878439e-005 0.00084471022
-6.9551725e-006 1.0451355e-005 -0.87443018 -0.47152013 -4.7144285e-006 9.7918301e-006
4.3237524e-005 0.00082631508 -1.5229404e-006 3.1347507e-005 0.9994213 -0.0071774176
70794.578438414 0.99609536 -0.042058129 -2.7567634e-005 -2.3342714e-005 3.1201485e-005 0.00088278967
6.0928805e-006 -2.8710813e-006 -0.88680154 -0.44835967 1.160433e-006 9.5722307e-006
3.573524e-005 0.00088586693 -1.4052017e-005 2.5632902e-005 0.99915284 -0.0077960505
74989.420933246 0.99594337 -0.0445287 2.0200616e-006 1.6194053e-005 2.6504062e-005 0.00092576153
2.5222221e-006 5.1531074e-006 -0.89799863 -0.42581853 -8.9724408e-006 1.3249516e-005
5.4473927e-005 0.00091414968 1.8107397e-005 -7.3348633e-006 0.99940664 -0.0080410158
79432.823472428 0.99590057 -0.046959545 -1.3627849e-005 1.0177595e-005 5.6412693e-005 0.0010008576
7.7013317e-007 1.8440285e-005 -0.90807307 -0.40408692 4.5180286e-006 6.5322465e-006
4.5100001e-005 0.00097856612 -4.478848e-006 1.9795289e-005 0.99905908 -0.0084598036
84139.514164519 0.99566257 -0.049874898 2.7325584e-006 3.2009898e-006 4.2680469e-005 0.0010431737
1.1672199e-007 1.0267133e-005 -0.9171133 -0.38345727 1.5444341e-005 -2.3394414e-006
3.5779743e-005 0.0010493182 -3.4023717e-005 -4.9927316e-006 0.99897397 -0.0089407954
89125.093813375 0.9955678 -0.052727267 1.4563548e-006 1.8487891e-006 4.471586e-005 0.0011051469
-1.1777597e-006 2.0243087e-005 -0.92529237 -0.36357421 6.9401381e-006 1.5061031e-005
5.148954e-005 0.0011245975 2.069983e-005 7.1979953e-006 0.99904358 -0.0093949866
94406.087628592 0.99546623 -0.055864036 -3.7079846e-007 -1.4182994e-005 5.4730517e-005 0.0011758566
-6.7915407e-006 1.3547105e-005 -0.93265969 -0.34469971 2.0628327e-006 -7.6253104e-006
5.0377093e-005 0.00115061 -1.0243429e-006 4.1509084e-006 0.9991383 -0.00976153
100000 0.99524915 -0.059017926 -1.2253329e-005 1.6217185e-005 8.1033009e-005 0.0012421825
9.0071148e-007 9.5225369e-006 -0.93918478 -0.32643068 5.6300755e-006 7.314241e-006
6.225879e-005 0.0012332001 -5.5783194e-006 -1.3991714e-005 0.9989596 -0.010395587
105925.37251773 0.99504244 -0.062623397 5.7194052e-006 2.2911516e-005 8.3911087e-005 0.001308792
-1.6593769e-006 2.0679441e-005 -0.94526476 -0.30923092 -1.2897523e-005 7.3392112e-006
7.203524e-005 0.0013008986 1.8936154e-006 9.9339168e-006 0.99903619 -0.010924894
112201.8454302 0.99487096 -0.066379741 -1.4993303e-007 2.4543117e-005 7.5870899e-005 0.0013891736
-1.1874256e-006 -2.5231692e-009 -0.95055002 -0.2927047 1.1714289e-005 5.8624146e-006
8.5397376e-005 0.0013951316 -2.008606e-005 1.0433339e-005 0.99914849 -0.01153128
118850.2227437 0.99455494 -0.070254326 5.9276126e-006 3.0878928e-005 0.00010106619 0.0014657147
-1.2567696e-005 1.5401107e-005 -0.95536786 -0.27710047 -1.7291584e-006 1.295047e-005
8.5635504e-005 0.0014577144 -2.7033328e-005 3.9114536e-007 0.99908775 -0.012116503
125892.54117942 0.994416 -0.074435256 -4.1553659e-007 2.6500313e-005 0.0001009453 0.0015371266
-4.7068002e-006 2.7011632e-005 -0.9596318 -0.26213044 -2.3391558e-006 1.5087556e-005
0.00011346623 0.0015505916 -8.2541046e-006 8.7059561e-006 0.99901086 -0.012860679
133352.14321633 0.99406219 -0.078721493 -3.083582e-006 2.1731959e-005 0.00011931733 0.0016376951
-8.5254242e-006 1.208218e-005 -0.96353406 -0.24789588 -7.2078374e-006 1.0918738e-005
0.00011851769 0.0016105018 6.9010898e-006 1.3435299e-005 0.99889106 -0.013468498
141253.75446228 0.99363387 -0.083427526 -7.341971e-006 7.6507176e-006 0.00013118422 0.0017533615
-1.3761025e-005 3.3512864e-005 -0.966878 -0.23441653 -1.1387388e-005 2.7609032e-005
0.0001290486 0.0017293922 -2.6496071e-005 2.1934185e-005 0.99912483 -0.014304537
149623.56560944 0.99312419 -0.088368222 7.238968e-006 3.8901417e-005 0.00012645336 0.0018212397
-1.2362838e-005 1.9699677e-005 -0.96999055 -0.22167966 2.4990711e-006 1.3746061e-005
0.0001406329 0.001842092 8.649401e-006 9.7558177e-006 0.99891156 -0.015129238
158489.31924611 0.99256712 -0.093473166 -2.5769161e-005 3.9797455e-005 0.00014631444 0.001927811
-5.5187434e-007 2.3507591e-005 -0.97283131 -0.20947666 7.2242115e-006 5.3327267e-006
0.0001586631 0.0019343246 -3.8896846e-006 9.0185249e-006 0.99896586 -0.016073942
167880.40181226 0.99186099 -0.099189714 -2.7106444e-005 4.6475275e-006 0.00017146792 0.0020584033
-9.2027012e-006 2.4782121e-005 -0.97528309 -0.19783551 -2.4924925e-006 6.7758392e-006
0.00017357532 0.0020568415 -9.3240769e-006 5.2450997e-007 0.99901527 -0.01683916
177827.94100389 0.99133188 -0.10490176 1.4601768e-006 -1.4605493e-005 0.00016013766 0.0021769318
-5.862154e-006 2.0978969e-005 -0.97681367 -0.18588057 -1.3187959e-007 1.2824204e-005
0.00020088672 0.0021861978 4.8925529e-007 2.1597256e-005 0.99884808 -0.017931988
188364.90894898 0.99068367 -0.1111509 -2.3538123e-005 2.9912128e-005 0.00021184413 0.0023030099
-8.2302122e-006 2.3585384e-005 -0.97941571 -0.17705826 -4.3898358e-006 1.0763621e-005
0.00021125308 0.002299611 1.8541205e-005 1.0294482e-005 0.99857086 -0.019047415
199526.23149689 0.98985112 -0.11755466 -5.6672166e-006 2.8282166e-005 0.00021823069 0.0024181786
-1.3294968e-005 1.148301e-005 -0.98120892 -0.16713664 3.8951057e-006 1.5887701e-005
0.00024391408 0.0024364002 2.9547475e-006 1.6226366e-005 0.99859446 -0.020008281
211348.90398366 0.98914039 -0.12458425 -2.9623096e-005 1.6986127e-005 0.00027806076 0.0025473172
-9.4846946e-006 1.9235751e-005 -0.98282737 -0.15778427 -7.6625265e-006 1.5627233e-005
0.00025534461 0.0025856607 -3.2707103e-005 3.1285992e-005 0.99856675 -0.02123772
223872.11385683 0.98813969 -0.13183565 3.0172628e-006 4.9892419e-006 0.00031234135 0.0027175779
-1.1818259e-005 5.0072482e-005 -0.98427647 -0.14894372 -1.7550612e-005 2.865967e-005
0.00029720389 0.0026986932 6.423149e-006 1.0363752e-005 0.99848497 -0.022297526
237137.37056617 0.98702681 -0.13963497 -6.2473687e-006 2.2960228e-005 0.0003398385 0.0028743353
-1.4724928e-005 1.9084973e-005 -0.98551649 -0.1405755 2.187723e-007 2.3571984e-005
0.00032634655 0.0028506033 -3.4301449e-006 1.9586621e-005 0.99844044 -0.023574565
251188.64315096 0.98586774 -0.14775409 -2.3249246e-005 2.3265971e-005 0.00033360356 0.002997838
-6.6358161e-006 5.1617935e-005 -0.98669201 -0.13268572 6.9999746e-006 2.1205014e-005
0.00034769383 0.0030160001 5.9200711e-006 1.2491364e-005 0.9983083 -0.025183551
266072.50597988 0.98445362 -0.15640166 8.9873802e-006 5.0393937e-005 0.00041391625 0.0032003634
-2.1506125e-005 4.4269556e-005 -0.98765534 -0.12519893 1.4698137e-005 2.5752572e-005
0.00038261135 0.0031892105 1.0489247e-005 1.6096592e-005 0.99828207 -0.026406381
281838.29312645 0.98296934 -0.16570669 -4.892895e-006 3.0781754e-005 0.00045653345 0.00337971
-3.0600448e-005 3.6904916e-005 -0.98856801 -0.11813147 -3.5227933e-006 2.5208654e-005
0.0004337508 0.0033917618 1.5539086e-005 2.7115668e-005 0.99820989 -0.027964002
298538.2618918 0.98115396 -0.17522086 -3.5503497e-005 5.1950818e-005 0.00050362822 0.003578004
-2.0624688e-005 4.3835458e-005 -0.98936629 -0.11130813 -6.1797505e-006 4.0199597e-005
0.00052837317 0.003587635 -1.0103734e-005 -2.4610056e-006 0.99792939 -0.029511295
316227.76601684 0.97927308 -0.18545991 -1.3803549e-005 3.0001102e-005 0.00053692423 0.0037630312
-2.7992342e-005 3.7851889e-005 -0.99009126 -0.10503662 -9.2343507e-006 2.3103512e-005
0.00055074721 0.003770465 -7.0519068e-006 4.0004699e-005 0.99779898 -0.0310771
334965.43915783 0.97699535 -0.19619741 -1.9009125e-005 5.1199164e-005 0.00060639932 0.0039525079
-2.7583632e-005 5.1135619e-005 -0.9908424 -0.099147782 5.9270146e-006 1.8536712e-005
0.0006115507 0.0039771977 5.0059884e-006 1.4449343e-005 0.99765891 -0.032989025
354813.38923358 0.97473961 -0.2075395 -3.1309661e-005 6.1638195e-005 0.00066656253 0.0042100516
-2.9535566e-005 4.6740402e-005 -0.9914248 -0.093376279 -5.9409185e-006 3.3759439e-005
0.00067304244 0.0042102602 -1.4639776e-006 9.2299279e-006 0.9976697 -0.034751326
375837.40428844 0.97211218 -0.21934395 -1.5521347e-005 5.0055707e-005 0.00074801472 0.004417574
-4.1950163e-005 4.5980894e-005 -0.99181008 -0.087882876 -5.0935496e-006 3.958098e-005
0.00074043422 0.0044415179 1.1662822e-005 2.7264277e-005 0.99743986 -0.036794201
398107.1705535 0.96918643 -0.23217167 -3.9375769e-005 6.1136852e-005 0.0008106546 0.0046442361
-3.6217789e-005 5.8313344e-005 -0.99240249 -0.082692303 5.6418512e-006 4.420774e-005
0.00084066519 0.0046998262 -1.1277382e-005 2.8681065e-005 0.99716437 -0.038946781
421696.50342858 0.96589977 -0.24550319 -3.1699019e-005 4.9082133e-005 0.00089924765 0.0049418705
-3.8340997e-005 6.4213091e-005 -0.99254572 -0.077442937 -4.4089111e-006 3.6261015e-005
0.00090351846 0.0049196207 -2.9861695e-007 4.5420053e-005 0.997078 -0.041160174
446683.59215096 0.96204114 -0.25959495 -6.347413e-005 8.364908e-005 0.0010136896 0.0051760902
-5.6196637e-005 7.0250571e-005 -0.99263471 -0.073757127 -4.3520704e-006 2.8321321e-005
0.00099614158 0.0051956326 -5.623574e-006 2.5787856e-005 0.99676031 -0.043421946
473151.25896148 0.95789278 -0.27415368 -6.9051457e-005 6.4277898e-005 0.0011182709 0.0054931287
-6.4583794e-005 6.9615839e-005 -0.99332082 -0.069578655 -1.8430139e-005 3.8667014e-005
0.0011294616 0.0054762796 -9.9995241e-006 4.1392068e-005 0.99664646 -0.045829058
501187.23362727 0.95304757 -0.2898401 -6.0819282e-005 6.9770162e-005 0.0012066806 0.0057714381
-5.9665861e-005 7.8360164e-005 -0.99372494 -0.065321237 -4.8137667e-006 3.346019e-005
0.0012306346 0.0057678195 -1.5941399e-005 2.6138952e-005 0.9965477 -0.048331723
530884.44423099 0.94778824 -0.30604056 -6.3310727e-005 7.2035866e-005 0.001348483 0.006098168
-7.751603e-005 8.3094747e-005 -0.99400216 -0.061308131 -1.3291499e-005 5.5606997e-005
0.001359634 0.0060853693 -6.8086279e-006 4.2111526e-005 0.99636281 -0.051200729
562341.32519035 0.94220072 -0.32318765 -5.6623496e-005 9.3123665e-005 0.001470899 0.0063776067
-9.4819414e-005 8.7959881e-005 -0.99435335 -0.057544254 -1.6801061e-005 3.7942016e-005
0.0014719812 0.0064078858 -1.2176145e-005 3.9368369e-005 0.99609959 -0.054126807
595662.14352901 0.93590701 -0.34099668 -0.00010289616 9.6287695e-005 0.0016425989 0.0067287665
-8.9958441e-005 8.568872e-005 -0.99456084 -0.054018576 -1.9815359e-005 4.2195836e-005
0.0016431491 0.006748673 2.9144073e-006 3.7040565e-005 0.99581581 -0.057264004
630957.34448019 0.92870003 -0.36003605 -0.00010637843 9.5073774e-005 0.0017975986 0.0070912726
-9.7136181e-005 0.00011418659 -0.99470931 -0.050605595 -1.8775476e-006 4.0915173e-005
0.0018273076 0.0070942999 -2.5334148e-005 3.1632073e-005 0.99549377 -0.060582012
668343.91756861 0.92063957 -0.37972623 -0.0001211027 0.0001049347 0.0019981754 0.0074474234
