!Keysight Technologies,E5080A,MY55100144,A.11.70.03
!Date: Monday, November 13, 2017 17:23:03
!Correction: S11(Full 3 Port(1,2,3)) 
!S12(Full 3 Port(1,2,3)) 
!S13(Full 3 Port(1,2,3)) 
!S21(Full 3 Port(1,2,3)) 
!S22(Full 3 Port(1,2,3)) 
!S23(Full 3 Port(1,2,3)) 
!S31(Full 3 Port(1,2,3)) 
!S32(Full 3 Port(1,2,3)) 
!S33(Full 3 Port(1,2,3)) 
!S3P File: Measurements: <S11,S12,S13>,
!<S21,S22,S23>,
!<S31,S32,S33>:Log Frequency Sweep
# Hz S  RI   R 50
10000 0.99683791 -0.0014618889 -1.7722882e-006 0.00029443231 4.7015891e-007 0.00016125879
2.6311784e-006 0.00032431519 0.99900061 -0.0035480277 -1.3737305e-005 0.00072190561
1.5044213e-005 0.00017014919 1.510179e-005 0.00074284727 0.99985737 -0.0023672283
10592.537251773 0.99694741 -0.0016032475 9.8198234e-006 0.00030016201 8.1151102e-006 0.00021580816
1.4062333e-006 0.00033248283 0.99857157 -0.0035997608 -4.2723382e-006 0.00074004324
3.3664796e-006 0.00018832223 2.2066175e-005 0.00076113426 0.99992102 -0.0021364922
11220.18454302 0.99701428 -0.0016090266 1.4970834e-005 0.00035190347 9.7455377e-008 0.0001771324
-7.4761533e-006 0.00036106221 0.99883008 -0.0040114899 -6.9240637e-006 0.00078907935
-3.1176523e-006 0.00016422739 -5.2436244e-006 0.00080766779 1.0000522 -0.0024331999
11885.02227437 0.99669498 -0.0015636246 1.9261794e-005 0.00035558629 3.0934818e-005 0.00018528044
1.9286537e-007 0.00038408008 0.99876654 -0.0040076231 8.3994482e-006 0.00084579777
-1.3663964e-005 0.00018199481 1.538762e-006 0.00083534763 0.99998689 -0.0024486971
12589.254117942 0.99697304 -0.0019112304 4.0803889e-006 0.00039692683 -2.5561149e-006 0.00020738672
1.2096833e-005 0.00040264698 0.99879986 -0.0040814243 7.5384032e-006 0.00089018996
-9.8181481e-006 0.00021424225 -1.8124209e-007 0.00089708692 1.0001649 -0.0025324924
13335.214321633 0.99720711 -0.0019517211 -8.3438572e-006 0.00042403085 -8.0059908e-006 0.00022975776
-3.6001896e-007 0.00042586282 0.99887532 -0.0043095467 1.3027164e-005 0.00092954998
-1.0714456e-005 0.00021084883 2.2269344e-006 0.00096007017 0.99994242 -0.0024779683
14125.375446228 0.99695128 -0.002223023 -2.2790418e-006 0.00046506643 1.9835488e-005 0.00020900475
5.1199218e-006 0.00043549394 0.99900478 -0.004517036 1.1245832e-005 0.0010203131
8.8430506e-006 0.00022699301 3.0562082e-006 0.0010019437 0.99998927 -0.0023348378
14962.356560944 0.99692506 -0.002328678 1.0810289e-005 0.00045262993 1.2602425e-005 0.0002285235
-1.4925554e-006 0.0004646579 0.99896812 -0.0046524294 1.4096631e-005 0.0010573266
1.3960749e-005 0.00023895984 2.9582792e-005 0.0010566345 0.999928 -0.0026059791
15848.931924611 0.99715853 -0.0026492497 -3.0779931e-006 0.00047893226 4.770634e-006 0.00024872468
1.3411929e-005 0.00050364214 0.99889064 -0.0048844703 1.4858895e-005 0.0011166985
1.2005555e-005 0.00028046107 2.0972191e-006 0.0011477835 1.0001093 -0.0026128236
16788.040181226 0.99688488 -0.0026572354 1.9337944e-005 0.00051109894 -2.8957379e-006 0.0002787571
-1.6600401e-005 0.00050881144 0.99907243 -0.0051779961 7.3360684e-006 0.00119938
1.4095783e-006 0.00025956184 1.3550233e-005 0.0012062744 0.9999758 -0.0028065671
17782.794100389 0.99693185 -0.0027518745 3.1129548e-006 0.00056523539 -1.9216828e-005 0.0003086731
1.2800081e-006 0.00054842571 0.99901533 -0.0056184791 2.5256089e-005 0.0012577616
-7.4303366e-006 0.00029006138 6.5225754e-007 0.0012426866 0.99996293 -0.0027625971
18836.490894898 0.99711072 -0.0029836025 2.4998587e-006 0.00059889181 1.7022963e-005 0.0003062363
8.1649301e-007 0.0005773239 0.99914879 -0.005851503 1.5297564e-005 0.0013485624
4.9694099e-006 0.00032383073 2.5163328e-005 0.0013313146 0.99993008 -0.0027778794
19952.623149689 0.99700361 -0.0031907139 3.7913188e-007 0.00062090706 -4.7099679e-006 0.00029776897
-5.3123854e-006 0.00059718947 0.99915385 -0.0062195566 3.8362768e-006 0.0014030852
4.3449445e-006 0.00032553426 2.3236809e-005 0.0014175781 0.99996275 -0.0029139421
21134.890398366 0.99707937 -0.0034105051 8.0650043e-006 0.0006496929 1.6452757e-005 0.00035048433
9.1432557e-006 0.00066750875 0.99920774 -0.0064340997 3.9015133e-005 0.0015091919
9.4570514e-006 0.00034589012 2.4185809e-005 0.0015082289 0.99989194 -0.0031528587
22387.211385683 0.99699414 -0.0035102195 5.1192278e-006 0.00069434755 -9.1000729e-006 0.00036253966
-1.1811866e-005 0.00069303554 0.99896008 -0.0066793947 2.6721656e-005 0.0015975822
8.9764335e-006 0.00036257436 1.813342e-005 0.001602228 0.9998703 -0.0032135793
23713.737056617 0.99694514 -0.0037716592 7.2233394e-007 0.00076383934 4.3535697e-006 0.00039582283
9.0404355e-006 0.00073669531 0.99918693 -0.0070106778 3.3526438e-005 0.0016947687
1.7089127e-005 0.00039320413 2.0746678e-005 0.0016860114 0.99985272 -0.0031581037
25118.864315096 0.99704975 -0.0039453954 -2.2186878e-006 0.00078556867 -4.6095718e-007 0.00042133854
1.0033731e-005 0.00077867403 0.99912792 -0.0074409065 4.2805801e-005 0.0017788114
-1.3198717e-005 0.00040985495 1.880321e-005 0.0017752615 0.99994737 -0.00332648
26607.250597988 0.99702096 -0.0040768329 9.4208208e-006 0.00083659607 -2.8107597e-006 0.00042037162
2.0476393e-005 0.00084147882 0.99898976 -0.0078875329 1.3226006e-005 0.0018915535
3.3097134e-005 0.00042622958 1.4185881e-005 0.0018860872 0.9999212 -0.0034742707
28183.829312645 0.99702847 -0.0044510737 1.4581735e-005 0.00089172163 -1.4948761e-005 0.00045946901
-1.104191e-006 0.00087210635 0.9990412 -0.0083554732 2.8422477e-005 0.002001948
7.0021119e-006 0.00045695581 3.3913533e-005 0.0019945432 0.99988604 -0.0036124384
29853.82618918 0.99716192 -0.0047632577 2.3516061e-006 0.0009275651 -5.688732e-006 0.00047774895
1.8367376e-005 0.00090786559 0.9990868 -0.008720383 3.4256849e-005 0.0021354228
1.300968e-005 0.00048353514 4.1652827e-005 0.0021318314 0.99971586 -0.0036839261
31622.776601684 0.99705404 -0.005110438 7.661688e-006 0.00099212874 -4.5618804e-006 0.00050035818
2.7581202e-006 0.00099827908 0.99907631 -0.0093239872 3.3145072e-005 0.0022377458
1.0375204e-005 0.00050828187 3.1362386e-005 0.002255945 0.99977398 -0.0040018586
33496.543915783 0.99709791 -0.0052578254 1.6637256e-006 0.0010497124 -3.196064e-006 0.00056488247
1.8277698e-005 0.0010604681 0.99922395 -0.0097679868 2.581166e-005 0.0023833902
2.6190432e-007 0.00056202064 4.3540334e-005 0.0023833099 0.999843 -0.0041887965
35481.338923358 0.9969089 -0.0055896882 -1.0544341e-006 0.0011084139 1.123654e-005 0.00058301957
-1.2209621e-005 0.001109754 0.99909258 -0.010336138 4.8349808e-005 0.002505173
9.9474673e-006 0.0005732046 4.7034515e-005 0.0025069294 0.99982917 -0.0043155225
37583.740428844 0.99697894 -0.005923619 1.7611137e-005 0.0011678076 1.0943034e-005 0.00058741984
7.0699448e-006 0.0011797673 0.99912465 -0.010853242 4.4845772e-005 0.0026847485
3.9189217e-006 0.0005983297 3.2886146e-005 0.00267652 0.99961871 -0.004556343
39810.71705535 0.99700642 -0.0062862863 3.7943541e-006 0.0012345025 2.6285161e-005 0.00064408669
1.7261213e-005 0.0012377859 0.99904954 -0.011590525 2.7890159e-005 0.0028328069
1.0175032e-005 0.00064233085 5.2468051e-005 0.0028167567 0.99964619 -0.0047284015
42169.650342858 0.99696106 -0.0066303243 -1.4118941e-005 0.0013114598 1.9998257e-005 0.00068847701
1.2481593e-005 0.0013234079 0.99917209 -0.012139929 4.8383765e-005 0.0030141566
6.0246668e-007 0.0006834864 5.4192038e-005 0.0029886481 0.99949962 -0.0050351466
44668.359215096 0.99708134 -0.0070122443 5.9405015e-006 0.0013991792 1.5190242e-005 0.00072050217
3.6822305e-005 0.0013841162 0.99921221 -0.012847833 6.2835439e-005 0.0031595898
9.7631919e-006 0.00071462046 7.0239679e-005 0.0031785637 0.99951851 -0.0052276808
47315.125896148 0.99705672 -0.0074098548 1.0647841e-005 0.0014650845 9.456302e-006 0.00078289543
5.4484199e-006 0.0014785575 0.99911982 -0.013688268 7.9568505e-005 0.003347066
1.313682e-005 0.00075640576 5.8629772e-005 0.0033633267 0.99962145 -0.0054426794
50118.723362727 0.99698162 -0.0078196153 3.6441441e-005 0.0015518189 2.2259086e-005 0.00079211197
5.2725491e-006 0.0015710422 0.99904436 -0.01447176 8.7242493e-005 0.0035389066
1.0585147e-005 0.00080835319 7.5775475e-005 0.0035522385 0.99943799 -0.0056896298
53088.444423099 0.9971621 -0.0083800759 2.3175118e-005 0.0016680971 3.2343262e-006 0.00086196524
1.9511835e-005 0.0016585093 0.99901456 -0.015270272 8.6684333e-005 0.0037477948
-4.1229314e-006 0.00085341366 8.7451539e-005 0.003741886 0.99946243 -0.0059706578
56234.132519035 0.9970023 -0.008946497 3.1300031e-005 0.0017421538 2.1070409e-005 0.00090115151
2.735457e-005 0.0017463289 0.99896502 -0.016462803 9.6726704e-005 0.0039761206
6.2857221e-006 0.00090905954 7.7874487e-005 0.0040011848 0.99948436 -0.0062888754
59566.214352901 0.99706548 -0.009441684 2.1168278e-005 0.0018539082 3.9320839e-005 0.00095987751
9.0004041e-006 0.0018669474 0.99891955 -0.017225979 9.770388e-005 0.0042161508
1.6895445e-005 0.00096596067 9.5239877e-005 0.0042134561 0.9992075 -0.0066215019
63095.734448019 0.99680823 -0.0099380221 1.6206714e-005 0.0019535325 2.1962867e-005 0.0010124526
6.6431079e-007 0.0019702895 0.99891585 -0.018201159 0.00010293294 0.0044808295
8.9002815e-006 0.0010225463 9.7247961e-005 0.0044594044 0.99943697 -0.006992734
66834.391756861 0.99685955 -0.010482727 4.2932792e-005 0.0020631561 2.3662033e-005 0.0010898802
2.2846416e-006 0.0020993901 0.9988113 -0.01931764 0.00012733905 0.0047049164
9.4093139e-007 0.0010945405 0.00010568599 0.0047285571 0.99934661 -0.0072629591
70794.578438414 0.99687517 -0.011109789 1.5900285e-005 0.0022082783 -1.2553345e-006 0.001136308
1.8263794e-005 0.0022076089 0.99865019 -0.020450274 0.00014588388 0.0050255223
1.7642255e-005 0.0011384732 0.00010894174 0.0049924725 0.99921972 -0.0077419579
74989.420933246 0.99688661 -0.011823993 2.7615892e-005 0.0023415785 5.3328163e-006 0.0012305191
6.5503905e-006 0.0023424451 0.99870718 -0.021537529 0.00016097292 0.0053053894
2.1699952e-006 0.0012193638 0.00015887141 0.0052916631 0.99931049 -0.008001552
79432.823472428 0.99691635 -0.012330639 4.0128267e-005 0.0024505022 4.8222115e-005 0.0012835617
5.2565811e-005 0.0024767891 0.99866188 -0.022773186 0.0001637767 0.0055884486
4.5590445e-005 0.0012823167 0.00014736892 0.0056192004 0.99913406 -0.0085558323
84139.514164519 0.99691963 -0.013145384 4.6932088e-005 0.0026267741 4.0217492e-005 0.0013499429
5.6867073e-005 0.0026282412 0.99869001 -0.023966998 0.00018452566 0.0059578018
1.5974954e-005 0.0013651394 0.00018797752 0.0059436136 0.99910736 -0.0087339412
89125.093813375 0.99668503 -0.013692533 5.5632187e-005 0.0027726325 2.4690404e-005 0.001429099
4.1115021e-005 0.0027694958 0.99854577 -0.025393473 0.00018872597 0.0062769186
1.2668473e-005 0.0014598559 0.00020747476 0.0062858132 0.99908805 -0.0093732076
94406.087628592 0.99690646 -0.014578018 3.5714856e-005 0.0029403092 2.4611207e-005 0.0015117648
5.2828651e-005 0.0029419684 0.99850774 -0.026964063 0.00023253115 0.0066789296
2.5426702e-005 0.0015211635 0.00024998502 0.0066688266 0.99902266 -0.0098024542
100000 0.99694556 -0.015323962 6.3910258e-005 0.0031160116 4.3429252e-005 0.0016211499
2.7173994e-005 0.0031178242 0.99827814 -0.028591137 0.00025037513 0.0070544607
3.1363332e-005 0.001601767 0.00026699863 0.007068967 0.99905342 -0.010254511
105925.37251773 0.99695921 -0.016280096 6.5588814e-005 0.0032970582 2.0712276e-005 0.0017169312
4.7513713e-005 0.0032853135 0.99841261 -0.030132042 0.0002996143 0.0074718003
4.7503272e-005 0.0017110676 0.00028551981 0.0074667512 0.99902207 -0.010818095
112201.8454302 0.99686998 -0.017410794 5.1198298e-005 0.0035329715 5.471917e-005 0.0018212055
5.3574531e-005 0.0035008807 0.99820989 -0.031843215 0.00032105407 0.0079014068
6.0757826e-005 0.0018374963 0.00031935444 0.0078949556 0.99893451 -0.011533631
118850.2227437 0.99683714 -0.018351493 7.6973512e-005 0.0037063595 6.1730374e-005 0.0019178315
6.325711e-005 0.0037307586 0.99825364 -0.033826955 0.00034833088 0.0083613256
5.982304e-005 0.001916734 0.00034668844 0.0083716391 0.99920654 -0.012076455
125892.54117942 0.99696183 -0.019487763 6.8305075e-005 0.0039179325 5.8222693e-005 0.0020443343
9.1791997e-005 0.00394203 0.99822235 -0.035811469 0.00037723599 0.0088709462
6.59621e-005 0.0020357433 0.00039770419 0.008867126 0.99902999 -0.012815814
133352.14321633 0.99698871 -0.020804845 8.5126259e-005 0.0041498994 7.11666e-005 0.0021816699
0.00010688155 0.0041723438 0.9981463 -0.037862685 0.00045500614 0.0093784751
5.7965135e-005 0.0021538602 0.00044169929 0.0093687987 0.99909437 -0.013578917
141253.75446228 0.99689972 -0.021968998 9.3635594e-005 0.0044116275 7.8045043e-005 0.0022510674
8.4178355e-005 0.0044132909 0.99803776 -0.040317647 0.00049062521 0.0099042943
7.0239461e-005 0.0022712809 0.0005124957 0.0099292919 0.9989962 -0.014300282
149623.56560944 0.99674881 -0.023149567 0.00012896294 0.0046891421 7.2086106e-005 0.0024186163
0.00011295135 0.0047006425 0.99793595 -0.042627618 0.00053115515 0.010476711
8.0597318e-005 0.0024001817 0.00053623837 0.010500196 0.9990291 -0.015066328
158489.31924611 0.99684805 -0.024487732 0.00012714839 0.0049328995 0.00010572352 0.002562311
0.00011643651 0.0049708695 0.99782228 -0.045056134 0.0006066889 0.011100249
8.536176e-005 0.0025269883 0.00059155008 0.011116141 0.99889582 -0.015933512
167880.40181226 0.99662405 -0.026124738 0.00013087447 0.0052737133 0.00010539541 0.0026841599
0.00013927661 0.0052601574 0.99745142 -0.047699887 0.00068313308 0.011743884
0.00010583219 0.0026971532 0.00067790615 0.011760972 0.99894416 -0.016985899
177827.94100389 0.99654287 -0.027564866 0.00016975636 0.0055615497 9.6087431e-005 0.0028712733
0.0001600879 0.0055736639 0.99719292 -0.050603017 0.00075838377 0.012453817
0.00011720259 0.0028492252 0.0007496716 0.012421638 0.99863541 -0.017888429
188364.90894898 0.99644554 -0.029056845 0.00015392825 0.0058930777 0.00011069409 0.003021339
0.00018607425 0.0058674943 0.99708647 -0.053677402 0.00082635664 0.013154563
0.00012766945 0.0030267995 0.00083979539 0.013160666 0.99862963 -0.018921841
199526.23149689 0.9964304 -0.030971451 0.0002017627 0.0062491731 0.00013364374 0.0031869628
0.00020125261 0.0062341667 0.99698025 -0.056593668 0.00091787241 0.01391379
0.00014274419 0.0031984812 0.00093912007 0.013921781 0.99851114 -0.020111416
211348.90398366 0.99638599 -0.032845531 0.0002363057 0.0066098352 0.00012590726 0.0034013772
0.00022117922 0.0066088405 0.99680495 -0.059921131 0.0010204848 0.0147099
0.00014755773 0.0033659609 0.0010361074 0.01472511 0.99839306 -0.021174314
223872.11385683 0.99640119 -0.03467631 0.00025820459 0.0070024305 0.00014240429 0.0035677208
0.00025133867 0.0070054736 0.99632883 -0.063733086 0.0011306141 0.015565792
0.00013109783 0.0036021052 0.0011228333 0.015556551 0.99850923 -0.022517055
237137.37056617 0.99619418 -0.03667992 0.00029586736 0.0074346666 0.00017797404 0.00377393
0.000290264 0.0074154912 0.99604517 -0.067436993 0.0012831792 0.016433474
0.00017084175 0.003782951 0.0012734858 0.016441371 0.99821979 -0.02359616
251188.64315096 0.9964605 -0.038809698 0.00033964511 0.0078577483 0.00018344166 0.0039951401
0.00031009587 0.0078494577 0.99595469 -0.071331605 0.0013646545 0.017397296
0.0002011367 0.0040109777 0.0013961436 0.017386686 0.99821967 -0.025068663
266072.50597988 0.99607557 -0.041113779 0.00033923774 0.0083489753 0.00020798652 0.0042376071
0.00037942134 0.0083419038 0.99552745 -0.075543992 0.0015508545 0.018366497
0.00020743503 0.0042152395 0.001514632 0.018364659 0.99801838 -0.026443755
281838.29312645 0.99578434 -0.043691803 0.00041392675 0.0088153807 0.00024107644 0.0044817952
0.00042185659 0.0088389376 0.99505407 -0.079788916 0.0017092855 0.019424507
0.00022719482 0.0044434308 0.0016660802 0.019416107 0.99794936 -0.02767965
298538.2618918 0.99579662 -0.046148039 0.00043857715 0.0093615865 0.00025871966 0.0047352477
0.00048019638 0.0093698725 0.99463564 -0.084449708 0.0018791321 0.020499961
0.00023852599 0.0047556604 0.0018877861 0.020545011 0.99769282 -0.029475886
316227.76601684 0.99558914 -0.048866939 0.00054291909 0.0099056475 0.00025942881 0.0049939887
0.00053502974 0.0099318502 0.99405056 -0.089562327 0.0020742258 0.02167801
0.00025357387 0.004982789 0.0020609207 0.021691432 0.99771219 -0.031174706
334965.43915783 0.99530351 -0.051842362 0.00056389201 0.010485833 0.00026978369 0.0052796402
0.00063107978 0.010512063 0.99353522 -0.094753385 0.002292732 0.022909163
0.00029650264 0.0052752681 0.002265672 0.022915378 0.99741036 -0.032781605
354813.38923358 0.99532968 -0.054789588 0.00068495795 0.011128173 0.0003090126 0.0055788523
0.0006776966 0.011136228 0.99285173 -0.10025313 0.0025131165 0.024232766
0.00031895432 0.0055780495 0.0025088992 0.024203748 0.99746805 -0.034922406
375837.40428844 0.99507332 -0.057964493 0.00077846705 0.011781638 0.00035610597 0.0059132767
0.00077503588 0.011782208 0.99209422 -0.10614736 0.0027366602 0.025584232
0.00034034875 0.0059115076 0.0027373421 0.025600949 0.99721384 -0.03673901
398107.1705535 0.99492848 -0.061515193 0.00088520313 0.012497551 0.00039259696 0.0062642735
0.00086609431 0.012495821 0.99139726 -0.11249998 0.0030048338 0.027007896
0.00036731464 0.0062568374 0.0030204109 0.027058557 0.9969539 -0.038870189
421696.50342858 0.99459666 -0.065187387 0.00097298733 0.013240438 0.00040132849 0.0065946942
0.00098102516 0.013237853 0.99042785 -0.11892683 0.0033022524 0.028564531
0.00041791139 0.0066114562 0.0033077677 0.028558152 0.99658978 -0.041121591
446683.59215096 0.99430704 -0.069048062 0.0011161717 0.014016218 0.00042435509 0.0069987052
0.001099149 0.014007048 0.98942059 -0.12577444 0.003612852 0.030152211
0.00042892894 0.0069665127 0.0036438808 0.030151334 0.99637729 -0.043293148
473151.25896148 0.99398744 -0.073029272 0.0012532121 0.014841702 0.00045592966 0.0073594404
0.0012845027 0.014843932 0.98833835 -0.13309313 0.0039888914 0.031843714
0.00048406285 0.0073740352 0.0039981976 0.031829994 0.99620849 -0.045726582
501187.23362727 0.99352819 -0.077416442 0.001416262 0.015727174 0.00052428624 0.0077783135
0.0014440253 0.015719132 0.98741055 -0.14086083 0.0043978142 0.033615131
0.00052457565 0.0078014438 0.0044011087 0.033633698 0.99582052 -0.048281454
530884.44423099 0.99299878 -0.081950851 0.0016265375 0.016642993 0.00055953377 0.0082500651
0.0016296973 0.016647594 0.98612249 -0.14887607 0.0048090448 0.035512384
0.00055463688 0.0082322685 0.0048250421 0.035513852 0.99575222 -0.050923921
562341.32519035 0.99271226 -0.0866924 0.0018209403 0.017607957 0.00061871699 0.0087006837
0.0018306694 0.017626772 0.98458326 -0.15761106 0.0052794795 0.037497927
0.00060684711 0.008706959 0.0053008953 0.037504029 0.99533576 -0.054025125
595662.14352901 0.99229324 -0.091599032 0.0020510717 0.018651001 0.00061355648 0.0092034508
0.0020840587 0.018654987 0.98284799 -0.16673902 0.0058259428 0.039563887
0.0006331958 0.009239628 0.0058222311 0.039608102 0.99494934 -0.057118241
630957.34448019 0.99176896 -0.09705098 0.0023405536 0.019740611 0.00070672255 0.0097176069
0.0023249271 0.019725231 0.9810468 -0.17650655 0.0063922079 0.041776333
0.00070302904 0.0097575272 0.0063919411 0.041813534 0.99460965 -0.060461458
668343.91756861 0.99109381 -0.1027941 0.0026496912 0.020883892 0.00074390037 0.01029204
0.0026400217 0.020890316 0.97890937 -0.18672059 0.0070068636 0.044138961
0.00074597192 0.010334267 0.0070349583 0.044141747 0.99431103 -0.063674651
707945.78438414 0.99054021 -0.10880904 0.0029760008 0.022087317 0.00079701905 0.01088638
0.0029814262 0.022075109 0.97621959 -0.19750598 0.007756195 0.046586193
0.00081062067 0.010889304 0.007749646 0.046567217 0.99382424 -0.067497648
749894.20933246 0.98965842 -0.11527105 0.0033531212 0.023381079 0.00084285089 0.011506455
0.003378218 0.023361241 0.97340554 -0.20855129 0.0085235042 0.049144085
0.00087125838 0.011530894 0.0085417423 0.049182612 0.99314332 -0.071123533
794328.23472428 0.9885295 -0.12218519 0.0037618103 0.024691207 0.00094434211 0.012179409
0.0037826216 0.024718614 0.97133666 -0.21994366 0.0093517276 0.051883001
0.00095424359 0.012200681 0.009371859 0.051897492 0.99271846 -0.075186588
841395.14164519 0.98768002 -0.12911288 0.0042667473 0.026120473 0.0010155761 0.0128936
