!Keysight Technologies,E5080A,MY55100144,A.11.70.03
!Date: Monday, November 13, 2017 17:24:03
!Correction: S11(Full 3 Port(1,2,3)) 
!S12(Full 3 Port(1,2,3)) 
!S13(Full 3 Port(1,2,3)) 
!S21(Full 3 Port(1,2,3)) 
!S22(Full 3 Port(1,2,3)) 
!S23(Full 3 Port(1,2,3)) 
!S31(Full 3 Port(1,2,3)) 
!S32(Full 3 Port(1,2,3)) 
!S33(Full 3 Port(1,2,3)) 
!S3P File: Measurements: <S11,S12,S13>,
!<S21,S22,S23>,
!<S31,S32,S33>:Log Frequency Sweep
# Hz S  RI   R 50
10000 0.99688202 -0.0017532734 -1.46346e-005 0.00045532727 -1.0964523e-005 0.00015506193
1.2625814e-005 0.00043820168 0.99866116 -0.0036739295 -2.535256e-006 0.00071118446
-4.9658088e-006 0.00014830462 -4.2769061e-006 0.00069649809 0.9997642 -0.0024443413
10592.537251773 0.99679089 -0.0019727272 -1.1584528e-005 0.00045631744 8.8161687e-006 0.00016464775
-5.9878062e-006 0.00047303247 0.99862963 -0.0039460822 1.4349401e-005 0.00077248778
-3.2457274e-007 0.00016811887 -1.2007503e-005 0.00075111992 0.99990344 -0.0022502167
11220.18454302 0.9970274 -0.0020715161 2.2896209e-005 0.00049096131 -4.8378265e-006 0.00017465881
9.1594093e-006 0.0004957593 0.998797 -0.004114415 2.0396628e-005 0.0007761977
4.9554678e-006 0.000181995 -5.0532276e-006 0.00079628138 1.0001529 -0.0022921702
11885.02227437 0.99695033 -0.002269268 1.6074289e-005 0.00053570303 -1.8463422e-007 0.0001879826
1.472254e-005 0.00051759585 0.9987725 -0.0042582443 3.2330515e-006 0.0008530874
1.2468975e-005 0.00017897952 7.6639808e-006 0.00084611453 1.0000325 -0.0023108923
12589.254117942 0.99711365 -0.0021559449 -5.3424374e-006 0.00055636204 -2.015636e-005 0.00018928082
-3.6558761e-006 0.00054895814 0.99893063 -0.0045508291 2.712268e-005 0.00089710229
1.6566306e-006 0.00019390439 3.6369198e-007 0.0008942709 0.99985325 -0.0024447886
13335.214321633 0.99711579 -0.0024077797 1.2586983e-005 0.00059221883 -6.8505419e-006 0.00022014479
-1.1209496e-005 0.00057814323 0.99903154 -0.0046343002 8.3912346e-006 0.00095642026
7.4107311e-006 0.00022741404 1.3474233e-005 0.00096468342 0.99990571 -0.0023946404
14125.375446228 0.99696577 -0.0025881729 -9.6870381e-006 0.00062239351 9.0831441e-007 0.00022885382
4.5425377e-006 0.00063899602 0.9990114 -0.0048055854 2.4084198e-005 0.0010324956
-1.1507542e-005 0.00021061943 -7.552122e-006 0.0010005808 1.0000589 -0.0025016442
14962.356560944 0.99700403 -0.0027607307 1.63206e-005 0.0006673488 -2.2757129e-005 0.00023698516
1.9904224e-005 0.00067062955 0.99919188 -0.0049430337 2.0743735e-005 0.0010695412
1.5219177e-005 0.00024776097 2.4611028e-005 0.0010734495 1.0000159 -0.0026504928
15848.931924611 0.99702024 -0.0030342962 6.652132e-006 0.0006667705 1.0615907e-005 0.00024750427
1.6165695e-005 0.00069130992 0.99881542 -0.0053162402 2.4317662e-005 0.0011320659
-3.0149376e-006 0.00023925726 8.8275992e-006 0.0011270449 1.0000726 -0.0025105388
16788.040181226 0.99707925 -0.0033452206 3.2361838e-006 0.00076732569 1.2012207e-005 0.00026698102
-7.1405575e-006 0.00072568824 0.99892229 -0.0054350104 1.7313883e-005 0.0011914115
1.0048159e-005 0.00026234711 2.5416891e-006 0.001197472 1.0000322 -0.0026629304
17782.794100389 0.99700278 -0.0031816533 -8.3767245e-006 0.00077542476 -7.9973333e-006 0.00028232194
2.2928896e-006 0.00078950444 0.99903715 -0.0057432088 2.1650534e-005 0.0012752966
8.6253021e-006 0.00028769832 3.5319495e-006 0.0012814918 0.99996513 -0.0028021226
18836.490894898 0.99702752 -0.003403987 -5.1087404e-006 0.00081454345 -2.3095237e-005 0.00031845906
9.8562214e-006 0.00082325522 0.99902302 -0.0060712146 1.7410681e-005 0.0013542671
-5.5671908e-006 0.00029882212 1.8126661e-005 0.0013442836 0.99976707 -0.0027228761
19952.623149689 0.99702603 -0.0036524544 3.9873344e-006 0.00087018067 5.1596494e-006 0.00032902762
3.1202333e-006 0.00086160534 0.99917632 -0.006363254 1.9278263e-005 0.0014317501
-1.6399114e-006 0.00031619746 2.2282296e-005 0.0014184818 0.99992776 -0.0030488819
21134.890398366 0.99702978 -0.0037625332 -2.7292665e-006 0.00091671268 -3.6263546e-007 0.00032215289
-1.0879588e-005 0.00092292746 0.9991855 -0.0066647478 1.0007107e-005 0.0015077672
-6.145824e-006 0.00033944708 -4.0269168e-008 0.001503882 0.99980032 -0.0030117899
22387.211385683 0.99699801 -0.0041517625 -4.3543454e-007 0.00097646692 1.2204867e-005 0.00035721983
2.6687892e-005 0.0010007955 0.99908096 -0.0070563159 1.3243007e-005 0.0016050112
1.8912973e-005 0.00035562788 3.6378889e-005 0.0016056789 0.9998489 -0.0030335614
23713.737056617 0.99704933 -0.0044442033 2.4073599e-005 0.0010404363 -6.0747134e-006 0.00039605604
1.9300326e-006 0.0010595331 0.99914426 -0.0075023905 2.7371823e-005 0.0016796904
-2.8013524e-006 0.00038494289 3.1813859e-005 0.0016842575 0.99975693 -0.0031264694
25118.864315096 0.99713892 -0.0047048065 1.7598071e-005 0.0011241634 -1.8810291e-005 0.00039357887
2.0520618e-005 0.0011066453 0.99907672 -0.0077638505 3.6355712e-005 0.0017648001
1.9707136e-006 0.0004075231 1.3669044e-005 0.0017781287 0.99985152 -0.003353586
26607.250597988 0.99696541 -0.0047277189 4.9822165e-006 0.0011552847 6.2146984e-007 0.00042537038
1.0257857e-005 0.0011741366 0.99902272 -0.0083304569 4.7614241e-005 0.0018865755
-6.9770272e-006 0.00042407887 1.1895199e-005 0.0018873018 0.99991131 -0.0034744989
28183.829312645 0.99711829 -0.0052725747 1.9368941e-005 0.0012358977 7.6375281e-006 0.00047869573
-3.8367202e-006 0.0012369648 0.99912691 -0.0086351903 1.6446493e-005 0.0020075468
-1.8221988e-005 0.00045801414 1.3873276e-005 0.0020077468 0.99981791 -0.0035462135
29853.82618918 0.99713665 -0.0055601103 7.229954e-006 0.0013208673 -2.024344e-005 0.00046902412
2.1373949e-005 0.0013244892 0.99898458 -0.0090970136 4.4551642e-005 0.0021247035
6.498899e-006 0.00048598621 1.8040144e-005 0.0021277282 0.99995387 -0.003756559
31622.776601684 0.99699485 -0.005879283 1.2040713e-005 0.0013790528 3.0390429e-005 0.00050124148
2.2587976e-005 0.0014028748 0.9991557 -0.0097006941 2.938449e-005 0.0022432744
2.028378e-005 0.00050022901 2.7110382e-005 0.0022508125 0.99987924 -0.0040396373
33496.543915783 0.99713373 -0.0060672015 -2.4275566e-006 0.001466148 -2.9408047e-006 0.0005227396
3.2104352e-005 0.0014827034 0.99909681 -0.010229035 3.5235749e-005 0.0023760595
2.583421e-005 0.00052082591 2.3330678e-005 0.0023892832 0.9998039 -0.0041263858
35481.338923358 0.99693632 -0.0063977279 3.3611355e-005 0.0015647542 -1.0669085e-005 0.00056451454
4.0923944e-005 0.0015529735 0.99915874 -0.010870792 4.0773553e-005 0.0025388321
-6.3580278e-006 0.00058021373 4.5053377e-005 0.0025281669 0.99965453 -0.0042435396
37583.740428844 0.99704349 -0.0069353473 1.1038839e-005 0.0016491045 -1.0366155e-006 0.00057986763
1.2869238e-005 0.0016529765 0.99910325 -0.011388148 3.0916919e-005 0.0026822821
1.3175601e-005 0.00058540807 3.3654993e-005 0.0026967116 0.99965268 -0.0044420441
39810.71705535 0.9970203 -0.0072439457 2.192266e-005 0.0017455602 5.1567717e-006 0.0006214233
1.9393057e-005 0.0017547067 0.99917746 -0.012137027 4.7800637e-005 0.0028734037
1.5482896e-005 0.00063195504 4.899767e-005 0.0028349089 0.99956822 -0.0047584302
42169.650342858 0.99694932 -0.007648367 -9.1375841e-006 0.0018466166 1.0421564e-005 0.00065726542
1.8172132e-005 0.0018594422 0.99904341 -0.012744379 4.8740159e-005 0.0029780257
2.060413e-005 0.00068698835 6.7777459e-005 0.0029849235 0.99956411 -0.0048453189
44668.359215096 0.99703801 -0.0082235858 1.9384055e-005 0.0019719594 1.6068589e-005 0.00072831131
2.4800318e-005 0.0019654068 0.99919915 -0.013475141 6.555955e-005 0.0031871279
2.278321e-005 0.00071595167 6.0490172e-005 0.0031954506 0.99948508 -0.0051747328
47315.125896148 0.99711663 -0.0085354298 9.9979907e-006 0.0020888583 2.749317e-006 0.00075916812
2.1786207e-005 0.0020903903 0.99909091 -0.014313445 5.398555e-005 0.0033727039
6.5826594e-006 0.00076102739 6.0096507e-005 0.0033591499 0.99959344 -0.0053994558
50118.723362727 0.99702328 -0.0091041448 2.6212369e-005 0.0021964407 2.1966351e-005 0.00078608241
1.861183e-005 0.0022080601 0.99903536 -0.015144099 9.4602379e-005 0.0035486324
1.2646657e-005 0.00080044213 8.6524953e-005 0.0035572036 0.99943078 -0.0056689391
53088.444423099 0.99703455 -0.0097197294 2.0583655e-005 0.0023293758 1.7195212e-005 0.00085330085
3.0886735e-005 0.0023331421 0.9990747 -0.016113585 8.8694396e-005 0.0037557606
-5.6959616e-006 0.00085954461 9.299798e-005 0.0037602903 0.99959219 -0.0059030945
56234.132519035 0.99707818 -0.010371782 2.9280509e-005 0.0024676917 4.4078452e-006 0.00090941909
2.9462662e-005 0.0024731406 0.99900085 -0.017129138 0.00010144241 0.0039989064
5.6252929e-006 0.00091977144 0.00011033472 0.0039856574 0.99945104 -0.0063167629
59566.214352901 0.99703139 -0.01100033 5.6495795e-005 0.002612533 3.5431094e-005 0.0009247163
3.5714726e-005 0.0026263932 0.99889743 -0.018081695 0.00010427858 0.0042227739
-3.4449506e-006 0.0009464061 0.00011215462 0.0042258166 0.99914247 -0.0065138903
63095.734448019 0.99691164 -0.011612313 4.3764379e-005 0.0027766856 2.4091574e-005 0.00099306321
2.4109826e-005 0.0027808151 0.99891055 -0.01925569 0.00012455705 0.0044848905
7.7858494e-006 0.001007779 9.8944103e-005 0.0044731321 0.9994123 -0.0069036125
66834.391756861 0.9967162 -0.012185815 7.3036106e-005 0.0029354219 2.3946188e-005 0.0010617785
5.2876323e-005 0.0029207584 0.99878073 -0.020357169 0.00014623324 0.0047328919
1.4336276e-005 0.0010688608 0.00011479895 0.0047154771 0.9993428 -0.0072941892
70794.578438414 0.99683928 -0.012928555 5.0467028e-005 0.0031074346 1.5779222e-005 0.0011283481
4.6683926e-005 0.0031141967 0.99856925 -0.021451423 0.00014962821 0.0050182804
2.1511343e-005 0.0011576073 0.0001341154 0.0050074062 0.9991979 -0.0077393283
74989.420933246 0.99685317 -0.013637565 6.9166395e-005 0.0032987643 1.8168552e-005 0.0012213909
6.6105553e-005 0.0033017918 0.99872452 -0.022708066 0.00015562812 0.0053104507
1.5564918e-005 0.0011806306 0.00016164429 0.0053261258 0.99924076 -0.0080316719
79432.823472428 0.99684757 -0.014447657 5.1046743e-005 0.0035096759 2.3875502e-005 0.0012643591
5.0820276e-005 0.0035011724 0.99874991 -0.023800576 0.00014861999 0.0056443717
2.2988053e-005 0.0012718105 0.00016292457 0.0056304606 0.9990772 -0.0084097972
84139.514164519 0.99684912 -0.0152558 6.3367275e-005 0.0036861668 4.5866884e-005 0.0013377971
6.8339374e-005 0.0036977958 0.9985615 -0.025290003 0.00018573998 0.0059425808
3.8351875e-005 0.0013297903 0.00018911947 0.0059443731 0.9990288 -0.00876588
89125.093813375 0.99678868 -0.016104229 9.0336187e-005 0.003927154 2.0514184e-005 0.0014247992
6.4002263e-005 0.0039258213 0.99853426 -0.026688205 0.00020697486 0.006309825
3.1412819e-005 0.001431036 0.00020178581 0.0063033639 0.99899161 -0.0094151208
94406.087628592 0.9967708 -0.016995015 7.8202611e-005 0.0041520922 3.0634088e-005 0.0015371842
8.2088147e-005 0.0041539124 0.99842095 -0.028268114 0.00023432411 0.006670604
3.8350161e-005 0.0015133299 0.00024259354 0.0066797487 0.99915457 -0.0097399494
100000 0.99687648 -0.018058857 7.7249286e-005 0.0044026854 3.7201862e-005 0.0015727467
0.00010329836 0.0044106101 0.99836618 -0.030033574 0.00026261769 0.0070659788
4.7780737e-005 0.0016049328 0.00025670329 0.0070575075 0.99888182 -0.010436615
105925.37251773 0.99692351 -0.019109314 0.00010804248 0.0046551386 3.361671e-005 0.0016849682
0.00010506328 0.0046483567 0.99837422 -0.031697288 0.00030364885 0.0074765473
4.1994888e-005 0.0016659157 0.0002951028 0.0074783177 0.9989711 -0.010983046
112201.8454302 0.99696112 -0.020107031 0.00011526216 0.0049364152 5.8566999e-005 0.0017813654
0.00011291278 0.00491807 0.99821889 -0.03345893 0.00035357231 0.0079262787
4.3189069e-005 0.0017991791 0.00032745089 0.0079057869 0.99906129 -0.011474281
118850.2227437 0.99696207 -0.021252615 0.00012453621 0.0052300822 3.7591541e-005 0.0018845471
0.00011219127 0.005233766 0.99834102 -0.035509765 0.00035444237 0.0083832871
7.2664385e-005 0.0019169436 0.00037726478 0.0083861789 0.99905002 -0.012131745
125892.54117942 0.99692911 -0.022501277 0.000149935 0.0055275052 4.9994265e-005 0.0020205851
0.00012671624 0.005529338 0.99823034 -0.037551902 0.00042354318 0.0088800993
4.7345602e-005 0.0020095536 0.00039435207 0.0088636503 0.99919492 -0.012694015
133352.14321633 0.996907 -0.024021002 0.00015296234 0.0058517493 3.3638829e-005 0.002133016
0.00015026718 0.0058647194 0.99819314 -0.03987813 0.0004648694 0.0093859918
5.7562182e-005 0.0021144855 0.00043572983 0.0094010001 0.99899954 -0.013471778
141253.75446228 0.99681741 -0.025513871 0.00016889312 0.0062057055 5.3795091e-005 0.0022592531
0.00019548221 0.006210811 0.99788988 -0.042214889 0.00048041888 0.0099318828
7.3771778e-005 0.002239676 0.00051285652 0.0099173132 0.99899113 -0.014272022
149623.56560944 0.99680448 -0.02683847 0.00020537477 0.0065766755 7.3123665e-005 0.0023604946
0.00019870599 0.0065648491 0.99774325 -0.044735942 0.00055975118 0.010515755
7.2416478e-005 0.0023641626 0.00055567524 0.010500596 0.99880779 -0.015274195
158489.31924611 0.99680531 -0.02849674 0.00023435827 0.006973099 9.0017042e-005 0.0025310498
0.0002187279 0.0069683669 0.99771774 -0.047156636 0.00061168405 0.011122771
6.8374371e-005 0.0025303976 0.00063044031 0.01114807 0.99895585 -0.015952135
167880.40181226 0.99659377 -0.030130714 0.00025697501 0.0073908214 8.4869542e-005 0.0026595381
0.00024817477 0.0073887403 0.99735165 -0.050041419 0.00069918972 0.011759756
7.4876167e-005 0.0026595078 0.00068607402 0.011772991 0.99890661 -0.016920812
177827.94100389 0.99655974 -0.031973958 0.00027862433 0.0078396853 9.8611876e-005 0.0028290609
0.00027318747 0.0078167859 0.99726313 -0.053127669 0.00075480423 0.012473555
8.3926927e-005 0.0028140109 0.00076716003 0.012476527 0.99878329 -0.01801794
188364.90894898 0.99631017 -0.033845279 0.00030484391 0.0082823504 0.00010626896 0.0029787873
0.00030889822 0.0082745161 0.99706709 -0.056220699 0.00083329796 0.01315701
9.1088557e-005 0.002985012 0.00086330867 0.01317429 0.99852324 -0.018988566
199526.23149689 0.9962818 -0.035870686 0.00035840875 0.0087745534 9.8172452e-005 0.0031409182
0.00035822231 0.0087795649 0.99680901 -0.059459928 0.00096423092 0.013943729
9.5236872e-005 0.0031423809 0.00093481818 0.013926303 0.99843746 -0.019980218
211348.90398366 0.99628294 -0.038055565 0.00039410501 0.0092687029 0.00012302853 0.0033426951
0.00039505755 0.0093074059 0.99649245 -0.062911667 0.0010392697 0.01475549
0.00012641084 0.0033335714 0.0010463574 0.014738383 0.99855083 -0.021064918
223872.11385683 0.99617082 -0.040131096 0.0004354445 0.0098389415 0.00013629899 0.0035135257
0.00043793474 0.0098422607 0.99617219 -0.066691257 0.0011385618 0.015587306
0.00013483218 0.0035425317 0.0011499121 0.015577111 0.99847955 -0.022344721
237137.37056617 0.9960711 -0.042623546 0.00050579698 0.010444839 0.00016337086 0.0037343255
0.00049057242 0.010440812 0.99567497 -0.070770837 0.0012782151 0.016441477
0.0001778099 0.00371154 0.0012853468 0.016464747 0.9983083 -0.02344694
251188.64315096 0.99604422 -0.045085706 0.00054633961 0.011023007 0.00016826947 0.0039514992
0.00056400988 0.011049261 0.99574137 -0.074785456 0.0014126165 0.017413961
0.00017706359 0.0039358712 0.0014338754 0.017430471 0.99821025 -0.024999982
266072.50597988 0.99580199 -0.047808018 0.00061414141 0.011720072 0.00018377895 0.0041630124
0.00063636893 0.011711559 0.995341 -0.07906387 0.0015538014 0.018424969
0.00018936023 0.0041640964 0.0015514836 0.018432785 0.99814016 -0.026469845
281838.29312645 0.99562126 -0.050903577 0.00072971021 0.012372849 0.00019471091 0.004430728
0.00070014101 0.012441227 0.99471855 -0.083747067 0.0017433594 0.019437142
0.00019497956 0.0044173975 0.0017104872 0.019465713 0.99811894 -0.027865088
298538.2618918 0.99541742 -0.053624019 0.00079969165 0.01311897 0.00023204843 0.0046551791
0.00080555183 0.013155008 0.99424249 -0.088627629 0.001899717 0.0205599
0.00021819799 0.0046488196 0.0019273703 0.020561231 0.99779338 -0.029533835
316227.76601684 0.9952938 -0.056851488 0.00090675923 0.013898024 0.00024914008 0.004911317
0.00089692674 0.01390964 0.99367672 -0.093932919 0.0020707303 0.021707699
0.00025844338 0.0049239243 0.0020915016 0.021761961 0.99754381 -0.031194841
334965.43915783 0.99475038 -0.060299028 0.0010134971 0.014735278 0.00024511074 0.0052068462
0.0010338017 0.014737441 0.99312079 -0.099424027 0.0022955297 0.022934854
0.0002464662 0.0052335383 0.0023255521 0.022967588 0.99736917 -0.032872569
354813.38923358 0.99467891 -0.063653745 0.0011455972 0.015606477 0.00027409484 0.0054719951
0.0011392897 0.015604349 0.99225062 -0.10524928 0.0025689865 0.024249271
0.00028421002 0.0054974179 0.0025581834 0.024238966 0.99729693 -0.034793053
375837.40428844 0.99446887 -0.067364991 0.0013191724 0.016528087 0.00030069705 0.0058112592
0.0012963801 0.016569559 0.99148607 -0.11150748 0.0027906797 0.025605746
0.00028513314 0.005816937 0.0028094281 0.025630876 0.99717933 -0.036781766
398107.1705535 0.99424815 -0.07135947 0.001436234 0.017511217 0.00033171286 0.0061381077
0.0014516045 0.017517177 0.9906168 -0.11788315 0.0030913316 0.027042471
0.00032830742 0.006174318 0.003086911 0.027052721 0.9968738 -0.038668975
421696.50342858 0.99379867 -0.075665638 0.0016587173 0.018551111 0.00035486853 0.0064820494
0.0016427459 0.018557869 0.98969746 -0.12455389 0.0033685842 0.028598174
0.00034777061 0.0064974865 0.00338881 0.028592706 0.99658173 -0.041123908
446683.59215096 0.99353617 -0.080129378 0.0018377971 0.019643169 0.00040344056 0.0068575847
0.001857399 0.01963426 0.98857147 -0.13193622 0.00373896 0.030182594
0.00038389341 0.0068778396 0.0037250016 0.030207204 0.996315 -0.04339952
473151.25896148 0.99297023 -0.084728405 0.0020729292 0.020773808 0.00041209153 0.0072647268
0.0020898138 0.020792143 0.98745489 -0.13967142 0.0040727365 0.031868279
0.00040884811 0.0072668223 0.0041040857 0.031884398 0.99622214 -0.045737986
501187.23362727 0.99238974 -0.089760534 0.002348762 0.021997252 0.00041906314 0.0076899258
0.0023124132 0.021996591 0.98617512 -0.14777803 0.004503618 0.033660349
0.00044638835 0.0076945662 0.0045277011 0.033671159 0.99585688 -0.048288252
530884.44423099 0.99174261 -0.095074445 0.0026596035 0.023267396 0.00047380084 0.0081220493
0.0026708131 0.023265231 0.98500574 -0.15622604 0.004944338 0.035562191
0.000474111 0.0081289858 0.0049272389 0.035576873 0.99579203 -0.051003121
562341.32519035 0.99125218 -0.10066337 0.0029844583 0.024624266 0.00049402617 0.0085888943
0.0029838656 0.024641471 0.98310858 -0.16550668 0.0054340139 0.037540678
0.00050103315 0.008598513 0.0054323426 0.037555438 0.99522227 -0.054101422
595662.14352901 0.99050993 -0.10624022 0.0033667043 0.026054498 0.00056622783 0.0091098435
0.0033579725 0.026065284 0.98125917 -0.17491107 0.0059514367 0.039625712
0.00056032598 0.0090896757 0.005973394 0.039636388 0.99496275 -0.057249211
630957.34448019 0.9900381 -0.11268449 0.0037599427 0.027578399 0.00059756974 0.0096224146
0.0037609714 0.027577776 0.97920305 -0.18507434 0.0065386193 0.04180615
0.0005838346 0.0096170744 0.0065463488 0.041871268 0.99452025 -0.060358174
668343.91756861 0.98913372 -0.11925853 0.0042413925 0.029162187 0.0006169051 0.010178462
0.0042822659 0.029174469 0.97687721 -0.19571197 0.0071751513 0.044167519
0.00062400551 0.010183167 0.0072068726 0.04418537 0.99432683 -0.063638523
707945.78438414 0.98824048 -0.12623848 0.0048007597 0.030832516 0.00067962229 0.0107609
0.0047993981 0.030833475 0.9740814 -0.20692544 0.0079124095 0.046634458
0.0006763452 0.010776398 0.0079514496 0.046629336 0.99375337 -0.067377135
749894.20933246 0.9871586 -0.13373177 0.005355421 0.032571666 0.00070136029 0.011377447
0.0053553833 0.03260617 0.9709726 -0.21851318 0.0087423827 0.049156662
0.00074045121 0.011382664 0.0087402677 0.049206682 0.99314791 -0.071206704
794328.23472428 0.9856891 -0.14161101 0.0060590119 0.034399331 0.00077441166 0.012056793
0.0060693165 0.034426026 0.96850395 -0.23047453 0.0095835384 0.05190742
0.00079787831 0.012076692 0.0096089328 0.051925283 0.99257606 -0.075172007
841395.14164519 0.98451161 -0.14966737 0.006780969 0.036369644 0.00081922911 0.012768317
0.0067981239 0.036378067 0.96531701 -0.24423133 0.010561922 0.05477941
