!Keysight Technologies,E5080A,MY55100144,A.11.70.03
!Date: Monday, November 13, 2017 17:25:49
!Correction: S11(Full 3 Port(1,2,3)) 
!S12(Full 3 Port(1,2,3)) 
!S13(Full 3 Port(1,2,3)) 
!S21(Full 3 Port(1,2,3)) 
!S22(Full 3 Port(1,2,3)) 
!S23(Full 3 Port(1,2,3)) 
!S31(Full 3 Port(1,2,3)) 
!S32(Full 3 Port(1,2,3)) 
!S33(Full 3 Port(1,2,3)) 
!S3P File: Measurements: <S11,S12,S13>,
!<S21,S22,S23>,
!<S31,S32,S33>:Log Frequency Sweep
# Hz S  RI   R 50
10000 0.99518847 -0.0056153894 8.9808045e-006 -1.3825163e-005 -1.2050258e-005 0.00013452816
-1.3490047e-005 1.3695217e-006 0.47080219 -0.87580889 -1.1100922e-005 -1.440668e-006
-4.0024993e-006 0.00011868992 -2.2322531e-006 1.4336237e-005 0.99977416 -0.0023611165
10592.537251773 0.99535632 -0.0059289653 7.0661658e-006 2.9474777e-006 -2.8612649e-006 0.0001244529
7.2069761e-006 -5.6777244e-006 0.4256739 -0.89843118 8.1549551e-006 8.2159823e-007
-9.1071524e-006 0.00013435904 -5.0012891e-006 4.4224635e-006 0.99978864 -0.0023518489
11220.18454302 0.99546754 -0.0063545937 4.5670286e-006 1.2990952e-005 -1.2943241e-006 0.00012703458
2.0651927e-005 1.3448863e-005 0.37736255 -0.91926104 1.19107e-005 -2.0360851e-006
-4.1365065e-006 0.00012929297 9.1377733e-006 3.5664331e-007 1.000196 -0.0024156151
11885.02227437 0.99537188 -0.0065607787 1.8423076e-005 -2.674687e-006 -6.357192e-006 0.00015407417
9.5663381e-007 1.8642661e-005 0.32786593 -0.93783563 -4.7547292e-006 6.0712168e-006
-1.0285993e-005 0.0001367408 9.5243513e-006 1.4506501e-005 1.0000162 -0.0023118518
12589.254117942 0.99546468 -0.0069802934 7.690316e-007 -1.2345572e-005 -1.5281583e-005 0.00016462128
-9.1487009e-006 -4.9551545e-006 0.27629024 -0.95410281 6.8676072e-006 -3.7824136e-006
3.326965e-006 0.00015619863 2.5621637e-006 -2.5091579e-006 0.99990612 -0.0023412795
13335.214321633 0.99564022 -0.0073056784 -2.3513213e-007 2.5195354e-006 2.2846894e-005 0.0001667654
-8.2282219e-007 -1.360717e-005 0.22302239 -0.96801281 1.7354701e-007 2.9425833e-006
-1.0579059e-005 0.00016597247 1.2488024e-005 6.0834113e-006 0.99997967 -0.0025189987
14125.375446228 0.99549156 -0.0079329591 -4.8606574e-007 3.685851e-006 -1.9642686e-005 0.0001521645
-3.907991e-007 1.7131273e-005 0.16818435 -0.97835475 -8.2472758e-007 8.5553511e-006
4.3575651e-006 0.00015546457 4.9546202e-006 -1.6364298e-005 0.99996918 -0.00243385
14962.356560944 0.99536502 -0.0080765989 9.8531345e-006 1.4089201e-005 -1.9838864e-005 0.00017069333
9.768044e-006 3.3476824e-006 0.11255302 -0.98670709 -2.3398889e-006 -4.1752892e-006
4.7195776e-006 0.00016963996 -1.52735e-006 -5.7234952e-006 1.0000061 -0.0026889918
15848.931924611 0.99565119 -0.0087694777 -6.3953589e-006 1.2402461e-005 -1.0797975e-005 0.00018716506
-3.6517511e-006 -9.54916e-007 0.055859473 -0.99108082 -4.9708542e-006 4.6744744e-006
1.9785157e-006 0.00018325621 -1.4517454e-006 7.6958713e-006 1.00014 -0.0026071107
16788.040181226 0.99538195 -0.0093836766 -1.4698173e-005 8.3191289e-006 1.2942052e-005 0.00020946228
2.1538617e-006 -1.9743669e-005 -0.00082416181 -0.99261779 3.1196153e-006 -1.3760745e-005
2.2342601e-006 0.00021494107 -1.356155e-005 -1.8080282e-005 1.0001222 -0.0027296739
17782.794100389 0.99557567 -0.0097193364 -5.4528805e-006 -1.1259467e-006 -1.4768798e-006 0.00021502198
1.998133e-006 3.4720688e-006 -0.057660464 -0.99063379 -3.1185027e-006 2.0852494e-005
1.1478133e-005 0.00023703215 7.4402606e-006 7.8570514e-007 1.0000352 -0.0028739767
18836.490894898 0.99569046 -0.010378387 -1.5040943e-005 2.117644e-005 1.766636e-005 0.00020394198
3.1092366e-006 6.1182755e-006 -0.11404881 -0.98565722 -1.0857488e-005 6.755095e-006
1.4960672e-005 0.00024890693 7.9812708e-006 -3.5636751e-006 0.99995506 -0.0028601717
19952.623149689 0.99547881 -0.010933078 -1.6669585e-006 1.4041489e-005 1.1482116e-005 0.00023607537
8.4079602e-006 -4.4726776e-006 -0.16946408 -0.97768366 6.0627744e-006 -2.1418487e-006
9.4755114e-006 0.00023739955 2.0254765e-005 5.5486798e-006 1.0000138 -0.0030234982
21134.890398366 0.99571437 -0.011693166 -3.1864629e-006 1.9900312e-005 1.1859507e-005 0.00027064575
-7.8992489e-006 -1.6430639e-006 -0.22418989 -0.96655059 2.5234358e-006 3.816499e-006
1.5232936e-005 0.00026771045 1.9664079e-005 -1.0149653e-005 0.99980801 -0.0031407846
22387.211385683 0.99551618 -0.012226342 1.0538303e-005 -8.7824283e-006 9.6831127e-006 0.00027450031
1.9943288e-006 1.7036132e-006 -0.27739722 -0.95274526 -2.5638349e-006 6.9756211e-006
2.9258956e-006 0.00026920473 -1.7974902e-005 6.7177061e-006 0.99998188 -0.003139277
23713.737056617 0.99532396 -0.013149781 -5.2779274e-009 -6.2519816e-006 1.1928203e-005 0.00029917681
4.3568916e-006 -1.0987883e-005 -0.32895702 -0.93594974 4.9347282e-006 -4.3311784e-006
7.091075e-007 0.00028686022 9.995144e-006 2.6064599e-006 0.99961793 -0.0032389313
25118.864315096 0.99551779 -0.013802701 6.7003475e-006 3.4019768e-006 -2.6968132e-006 0.00029721553
-5.5919631e-006 -1.0553918e-005 -0.37849319 -0.91721076 -1.5201564e-005 -1.0369998e-005
1.8640338e-005 0.00030132508 1.4634781e-005 -3.7043272e-005 0.99988312 -0.0033046529
26607.250597988 0.99549323 -0.014550964 2.4577834e-005 -1.3031859e-006 -2.4947688e-006 0.00034817393
-5.3602721e-006 4.0731555e-007 -0.4260706 -0.89618057 1.4266722e-006 1.2596412e-005
8.5671772e-006 0.00032746914 1.8711721e-007 -1.7740173e-005 0.99986136 -0.00355353
28183.829312645 0.99561429 -0.015643181 3.3092833e-006 -1.6066453e-005 6.3859225e-006 0.00035922552
-6.3699731e-006 6.2262998e-006 -0.47150481 -0.87336683 6.0879961e-006 -4.1332105e-006
-2.7231783e-006 0.00033301377 4.4564163e-006 -3.1652278e-006 0.99985218 -0.0036531074
29853.82618918 0.99548471 -0.016412439 3.0002723e-006 -1.2730388e-005 1.5501877e-005 0.00036738359
7.786698e-006 2.6181058e-006 -0.51427186 -0.84882301 1.0946069e-006 -5.0471081e-006
5.5532462e-007 0.00037912372 -6.3669513e-006 1.8490274e-006 0.99968922 -0.0037489652
31622.776601684 0.99537528 -0.017404323 -1.2504248e-006 -1.3944557e-006 9.8801356e-006 0.00036852443
4.081146e-006 9.1090706e-006 -0.55455285 -0.82314831 -4.3427399e-006 3.4908435e-006
-3.4092373e-006 0.00039816232 -9.7127995e-006 2.0170562e-005 0.99978524 -0.004173304
33496.543915783 0.99545056 -0.018389923 -6.8987788e-006 -6.5643835e-006 8.2698407e-006 0.0004135629
1.2478871e-006 -3.8538756e-006 -0.59256727 -0.79620528 -2.8170956e-007 -1.172763e-005
-6.992469e-006 0.00040850148 -4.2764027e-006 -3.2095238e-006 0.99976999 -0.0041522398
35481.338923358 0.9952327 -0.019332662 1.2280466e-005 -1.9322206e-005 9.907526e-006 0.00042429692
1.8047491e-007 -7.3288224e-006 -0.62792963 -0.76868969 2.8865643e-006 3.3767139e-006
1.5160243e-005 0.00044976451 8.5339593e-007 -4.0545406e-006 0.9996531 -0.0042407764
37583.740428844 0.99515444 -0.020528378 -2.7312904e-006 1.896587e-006 -8.6632945e-006 0.00046547971
7.6875648e-007 1.4117355e-005 -0.66092777 -0.74071878 -1.6617694e-006 -4.0867303e-006
3.5230547e-005 0.0004830184 -3.3242254e-006 -3.4742417e-005 0.9995774 -0.004536612
39810.71705535 0.99529678 -0.021703811 -9.1184966e-006 -7.1602676e-007 2.2637112e-005 0.00048329291
-1.6409446e-006 6.2149415e-006 -0.69152904 -0.71237856 3.1328987e-006 2.3080771e-005
1.260203e-005 0.00049198413 -6.3093744e-006 7.2171269e-006 0.99960363 -0.0047797062
42169.650342858 0.99518013 -0.022961332 -3.0723852e-005 1.6520065e-005 2.8356173e-005 0.00053007226
-1.0836338e-005 9.2415157e-006 -0.71978188 -0.68411136 1.6185974e-006 1.2945829e-005
1.5148591e-005 0.00051697728 -1.2406704e-005 -5.0657068e-006 0.99951857 -0.0049175653
44668.359215096 0.99529475 -0.02443159 -1.9632558e-005 9.5273805e-007 1.7228631e-005 0.00054253225
1.330088e-006 -1.1070792e-005 -0.74580222 -0.65580529 -4.2685388e-006 -9.3141989e-006
1.0355218e-005 0.00055680686 -6.1229457e-006 2.2243173e-006 0.99942368 -0.0052426164
47315.125896148 0.99538171 -0.02587935 1.5392383e-005 -1.7080652e-005 2.7733358e-007 0.00060082925
-1.0642335e-005 9.7427592e-006 -0.76978707 -0.6278044 -8.5048086e-006 3.1702939e-006
1.2545212e-005 0.00059628132 -1.4614684e-005 2.5646385e-005 0.9994573 -0.0053804759
50118.723362727 0.99517155 -0.027397078 -1.8195433e-005 -6.0120652e-007 2.4970377e-005 0.00062361936
-1.0662876e-005 -4.7884132e-006 -0.7915417 -0.60015029 -8.4414196e-006 1.2217023e-005
3.2435906e-005 0.00063494261 -4.0002492e-006 -1.3437714e-005 0.99946547 -0.0056514586
53088.444423099 0.99525809 -0.029094664 -1.6115366e-005 1.4936491e-005 1.050731e-005 0.00065581495
-1.1803812e-005 3.281576e-007 -0.81161916 -0.57311994 3.6401548e-007 2.3497751e-006
2.2834663e-005 0.00063951977 1.2386161e-005 4.1220825e-005 0.99950123 -0.0059188548
56234.132519035 0.99509293 -0.03075039 7.4336913e-006 -4.6314995e-007 1.9509427e-005 0.00071103853
-2.6203895e-006 -1.207482e-005 -0.82979906 -0.54667038 3.0868855e-006 6.1837422e-006
2.4265672e-005 0.0006872685 1.6515734e-005 8.3271061e-006 0.99940705 -0.0062990761
59566.214352901 0.99494165 -0.032437555 5.9849249e-006 -3.0800763e-006 2.3336477e-005 0.00073487667
-5.0924223e-006 9.1746033e-006 -0.84634948 -0.52088046 4.5931306e-006 1.103435e-005
2.8732527e-005 0.00073723635 4.0469599e-006 -1.0504461e-005 0.99926853 -0.0066030072
63095.734448019 0.99496353 -0.03447615 -1.3553839e-005 -4.6477353e-006 4.1656833e-005 0.0007958372
-1.2402629e-006 -2.2873432e-006 -0.86145961 -0.49578702 -6.17924e-007 2.1376391e-006
3.6960773e-005 0.0007714862 -1.2459923e-005 3.5047775e-005 0.99923748 -0.0070317215
66834.391756861 0.99483693 -0.036404472 -1.2817279e-006 1.4349357e-006 1.8176517e-005 0.00083453121
-9.6222639e-006 -5.6205181e-007 -0.87492824 -0.47165474 8.0496384e-006 8.6248028e-006
1.3298351e-005 0.00081878511 1.8631409e-006 1.311604e-005 0.99933815 -0.007278712
70794.578438414 0.99475145 -0.038557183 1.8422194e-005 -2.1670843e-005 4.5641351e-005 0.00087322859
-9.8304599e-006 5.1603174e-006 -0.88729018 -0.44846389 5.4957968e-006 4.0049226e-006
2.1455511e-005 0.00089680281 -4.055099e-006 4.9138401e-007 0.99902838 -0.0076484261
74989.420933246 0.99464589 -0.040796928 1.2203905e-005 -5.1141369e-006 3.2957658e-005 0.00093758566
-1.5962087e-005 -1.1950501e-005 -0.89848208 -0.42591998 5.7301321e-007 8.1730022e-006
3.442161e-005 0.00093206408 -2.3376853e-005 2.3355697e-005 0.99931377 -0.007861862
79432.823472428 0.99453586 -0.043169495 -2.624674e-005 -1.5752863e-005 2.3763005e-005 0.00099135085
-8.3316227e-006 5.0195144e-006 -0.90856665 -0.40419665 5.8711162e-006 8.5372121e-006
3.1567688e-005 0.00099852297 3.8327175e-006 7.906005e-007 0.99917984 -0.0085257022
84139.514164519 0.99434918 -0.045713078 1.5540742e-005 -6.1868e-006 6.2436004e-005 0.0010450248
-3.1187408e-006 3.6449915e-006 -0.91756082 -0.38361737 5.5579671e-006 -3.6571555e-006
3.9688741e-005 0.0010335319 -1.2514992e-006 2.0525882e-005 0.99900085 -0.0087716151
89125.093813375 0.99415606 -0.048427589 -6.420064e-006 1.7109587e-005 3.8779915e-005 0.0011004364
-1.437701e-006 1.0077465e-005 -0.92584091 -0.36374444 -6.5203503e-006 -6.6148107e-007
6.0259939e-005 0.0010645927 7.1084301e-006 1.7290851e-005 0.99913132 -0.0093764979
94406.087628592 0.99404114 -0.051273894 -2.7554246e-005 -2.5028603e-005 5.3225773e-005 0.0011505762
-6.3183979e-006 6.8703991e-007 -0.93320119 -0.34471649 -6.7805286e-006 3.8968583e-006
5.9129346e-005 0.0011651962 -3.9738234e-006 1.7132266e-005 0.999071 -0.009846204
100000 0.99391991 -0.054138526 2.124558e-005 2.6943097e-005 6.7494599e-005 0.0012317857
-8.4912728e-007 1.1142705e-005 -0.93972927 -0.32658631 -7.9211386e-006 8.3215737e-006
6.6140536e-005 0.0012381449 8.3141194e-006 2.2586297e-005 0.99903244 -0.010322965
105925.37251773 0.99383628 -0.057469122 2.0337986e-005 1.6393313e-005 6.8498113e-005 0.0012807009
2.9629086e-007 -1.8343123e-007 -0.94566762 -0.30930331 1.0336605e-005 1.3793898e-005
6.8874666e-005 0.0013032476 1.1071636e-006 1.2487431e-005 0.99898273 -0.010759437
112201.8454302 0.99360806 -0.060876332 3.8627186e-006 1.235227e-005 6.4235595e-005 0.0013670599
-2.9802064e-007 1.8445608e-005 -0.95099944 -0.29282543 -2.7863566e-006 6.628768e-006
9.5132047e-005 0.0013677151 -2.1688353e-005 1.3238284e-005 0.9989298 -0.011599677
118850.2227437 0.99337435 -0.064389966 7.0710339e-006 2.5414682e-005 9.0119538e-005 0.0014564994
-2.6183767e-007 -1.5883651e-006 -0.95583332 -0.27712396 2.437271e-006 -5.8706661e-007
9.2945847e-005 0.0014609321 -2.7240872e-006 1.0413808e-005 0.99918598 -0.012070799
125892.54117942 0.99327612 -0.068143681 -9.6730391e-006 9.4092811e-006 0.0001128174 0.0015489189
-1.0614289e-006 1.2092325e-005 -0.96012002 -0.26222071 5.7341899e-006 1.7193246e-005
9.5700932e-005 0.0015477828 -1.2632151e-005 1.8848938e-005 0.99911946 -0.012826069
133352.14321633 0.99304128 -0.072150931 -3.1506922e-006 2.4472436e-005 9.591259e-005 0.0016401989
-3.8967801e-007 4.6470674e-007 -0.96396738 -0.24797517 -1.2292558e-006 9.5156054e-007
0.0001057958 0.0016373354 -1.5763384e-005 1.0410326e-005 0.99893796 -0.013459679
141253.75446228 0.9925372 -0.076614402 -5.7827367e-007 -4.0772888e-006 0.0001254518 0.0017398924
1.4570603e-006 1.0252778e-005 -0.96738631 -0.23450002 -8.0855152e-006 2.1730471e-005
0.00012766573 0.0017353975 -5.192443e-006 -3.4028633e-006 0.99906772 -0.014318655
149623.56560944 0.99218875 -0.081071772 -2.4544408e-005 -2.18074e-005 0.00013967902 0.0018410014
-8.8619017e-006 1.7530578e-005 -0.9705056 -0.22170471 1.0088421e-005 1.7197261e-005
0.00013203052 0.0018284786 1.4762017e-005 9.6612657e-006 0.99890041 -0.015281917
158489.31924611 0.99173212 -0.085747413 -3.9731203e-006 8.5142813e-007 0.00013257621 0.0019527181
-5.173235e-006 7.8333505e-006 -0.97336924 -0.2095174 3.7373954e-006 1.8768607e-005
0.00014126547 0.0019503708 2.6083981e-005 -3.8330109e-007 0.99882966 -0.015937537
167880.40181226 0.99118227 -0.090915918 -1.3405338e-005 2.6673315e-005 0.00016767606 0.0020685005
-1.6153035e-005 1.2852864e-005 -0.97580862 -0.19788678 -1.0865479e-005 9.9310219e-006
0.00016197748 0.0020584282 -7.6067786e-006 6.3331963e-006 0.99888873 -0.016894564
177827.94100389 0.99065316 -0.096216455 1.054544e-005 -7.2560165e-006 0.00018469468 0.0021662803
-1.6926735e-005 4.0563395e-006 -0.97735304 -0.18590863 8.6372029e-006 1.8244926e-005
0.00016481751 0.002170966 1.0529026e-005 1.8489003e-005 0.99885577 -0.018025067
188364.90894898 0.99012876 -0.10181206 1.8005658e-005 1.5793965e-005 0.0002195967 0.0022830549
-1.1026377e-005 1.4581114e-005 -0.97987056 -0.17711069 -6.898716e-006 1.4478607e-005
0.00018296436 0.0022930289 -1.395978e-005 -1.6634178e-006 0.99868304 -0.01885194
199526.23149689 0.98948824 -0.10783393 1.3928796e-005 -2.1587923e-006 0.00024734912 0.0024188934
-6.2038343e-006 1.4757015e-005 -0.98169506 -0.16718601 6.5863865e-006 2.6971638e-006
0.00021910405 0.0024386637 -9.7762777e-006 2.4912852e-005 0.99863833 -0.020129796
211348.90398366 0.98878717 -0.11440148 -2.3854518e-005 3.3955416e-006 0.00022059809 0.0025642777
-2.0608813e-005 1.5780051e-005 -0.98337466 -0.15782942 -2.783569e-006 1.5844396e-005
0.00026380894 0.0025684701 1.1959818e-006 1.2092279e-005 0.99857384 -0.021102974
223872.11385683 0.98802036 -0.12091698 -1.3937105e-005 8.4746644e-006 0.00028492115 0.0027012597
-1.0524573e-005 2.2990136e-005 -0.98477948 -0.14903025 2.839183e-006 1.8778299e-005
0.00027973455 0.002696085 -1.784716e-005 1.9611076e-005 0.99844116 -0.022387117
237137.37056617 0.98705178 -0.12800691 -4.0756313e-006 5.8043042e-006 0.00030050761 0.0028447565
-1.8776509e-005 1.3181146e-006 -0.98598874 -0.14061858 -1.2829932e-005 1.9230909e-005
0.00031208611 0.0028673671 4.0184414e-006 1.5520258e-005 0.99837202 -0.02368195
251188.64315096 0.98621249 -0.13565417 -2.4920582e-005 1.0470361e-005 0.00034145411 0.0029954235
-2.1723126e-005 6.4695942e-006 -0.98717874 -0.1326938 7.3652777e-006 1.4382716e-005
0.00033873337 0.0030284994 -3.9315387e-006 -4.4696599e-006 0.99851173 -0.025027407
266072.50597988 0.98493713 -0.14348383 -2.5180936e-005 3.5228913e-005 0.00037630514 0.003219658
-1.7148601e-005 1.9680105e-005 -0.98822439 -0.12521192 -5.4318639e-007 1.8459205e-005
0.00036858174 0.0031992726 1.1090871e-005 3.410742e-006 0.99830073 -0.026429588
281838.29312645 0.98362112 -0.15207563 -1.6551086e-005 1.9228073e-005 0.00041318056 0.0033603003
-2.5686926e-005 1.7955486e-005 -0.98909479 -0.11814944 -9.8370231e-007 5.643401e-006
0.00041761796 0.0033470448 -5.4218922e-006 1.3531205e-005 0.99810177 -0.027944451
298538.2618918 0.98211575 -0.16091359 -1.7785025e-005 1.9585083e-005 0.0004489912 0.003567789
-2.7081489e-005 9.682708e-006 -0.98991418 -0.11134081 -1.0391462e-005 2.0548507e-005
0.00046263999 0.0035758151 -1.5916206e-005 -6.0980042e-006 0.99799675 -0.029669652
316227.76601684 0.98053503 -0.17016129 -4.6470748e-005 2.2309316e-005 0.00050408195 0.0037507738
-2.2307418e-005 2.3946908e-005 -0.99061245 -0.10511296 -7.6293709e-006 2.6661273e-005
0.00050721451 0.0037642685 2.0803225e-005 1.2993693e-005 0.99785763 -0.031139731
334965.43915783 0.97859043 -0.18018791 -2.6434112e-005 1.1380042e-005 0.00057724782 0.0039654695
-4.3916261e-005 3.299693e-005 -0.99134117 -0.099193431 -1.0843074e-006 3.5415302e-005
0.00057959405 0.003963531 -9.9561594e-006 1.5123011e-005 0.99750525 -0.033024348
354813.38923358 0.97673064 -0.19052735 -3.7864054e-005 -5.1558e-006 0.00062049279 0.0041752327
-2.15702e-005 2.8095872e-005 -0.99191988 -0.09340594 -2.7280341e-006 9.325785e-006
0.0006414394 0.0041884705 -4.8804955e-006 2.6615582e-005 0.9975282 -0.034814596
375837.40428844 0.9744314 -0.20165253 -6.3425046e-005 4.5221674e-005 0.00070766662 0.004412937
-4.5346438e-005 3.4325385e-005 -0.9923628 -0.08791592 -6.0159473e-006 2.0870906e-005
0.00070445595 0.0044144769 1.650012e-005 2.131964e-005 0.99740821 -0.03665147
398107.1705535 0.97191662 -0.21331786 -4.7488204e-005 3.2316675e-005 0.00076745625 0.0046673384
-3.1766875e-005 2.575818e-005 -0.99288732 -0.082681574 -8.6735463e-006 3.0573814e-005
0.0007686555 0.0046626255 -1.1448528e-005 1.8933843e-005 0.99719483 -0.038924489
421696.50342858 0.96907854 -0.22555898 -6.0242794e-005 4.1736024e-005 0.00084918924 0.004927495
-4.0394996e-005 3.3436536e-005 -0.99306846 -0.077484384 -2.17352e-006 3.3426397e-005
0.00084585336 0.0049265637 -3.1278821e-006 3.7630372e-005 0.99701321 -0.041152395
446683.59215096 0.96590728 -0.2385062 -6.0237417e-005 5.7491412e-005 0.00094008935 0.0052030315
-5.049456e-005 2.3901619e-005 -0.99309409 -0.073811412 7.5064245e-006 2.5722284e-005
0.00094582193 0.005203044 2.957082e-005 2.7923819e-005 0.99686992 -0.043354318
473151.25896148 0.96236163 -0.2521368 -6.6334454e-005 6.6305285e-005 0.0010360252 0.0054722051
-6.1514911e-005 3.8731203e-005 -0.99385399 -0.069488987 -6.7108335e-006 4.2398751e-005
0.0010294934 0.0054833493 5.9319364e-006 2.916025e-005 0.99666464 -0.045992713
501187.23362727 0.95828205 -0.266532 -6.5561697e-005 4.1922765e-005 0.0011480236 0.0057792673
-5.5466571e-005 4.980003e-005 -0.99423707 -0.065304041 -1.1683315e-005 3.2895583e-005
0.0011573752 0.0057869526 -4.650457e-006 4.6031128e-005 0.99646074 -0.048432566
530884.44423099 0.95385307 -0.28154022 -8.5922497e-005 4.9478407e-005 0.0012619274 0.0060689598
-7.5083364e-005 4.2081378e-005 -0.9945153 -0.061253022 -1.5480853e-005 1.4878371e-005
0.0012752123 0.0060796691 -2.5274805e-005 3.2655753e-005 0.99644208 -0.051163733
562341.32519035 0.94906306 -0.29756489 -9.3170158e-005 4.7495279e-005 0.0013702878 0.0064091333
-7.4269497e-005 6.051116e-005 -0.99487126 -0.057562694 -1.9850109e-005 1.6581407e-005
0.0014070212 0.0063931569 -9.2049377e-006 4.9947485e-005 0.99612737 -0.054243308
595662.14352901 0.94365078 -0.3142035 -0.00010080186 4.799723e-005 0.0015259406 0.0067528086
-9.4594259e-005 6.201709e-005 -0.99502254 -0.054021541 -2.4498318e-005 3.2323518e-005
0.0015416445 0.0067667584 -1.5434531e-005 4.0232066e-005 0.99580956 -0.057242066
630957.34448019 0.9376936 -0.33157808 -9.0670197e-005 8.5390609e-005 0.0017010046 0.0071062911
-0.00010407276 5.801503e-005 -0.99517196 -0.050608344 -1.8983774e-005 2.1331849e-005
0.0016901966 0.0071077244 -1.0997472e-005 4.1080159e-005 0.99551684 -0.06073197
668343.91756861 0.93073851 -0.35004696 -0.00010900724 6.066039e-005 0.0018730443 0.0074697467
