!Keysight Technologies,E5080A,MY55100144,A.11.70.03
!Date: Monday, November 13, 2017 17:21:38
!Correction: S11(Full 3 Port(1,2,3)) 
!S12(Full 3 Port(1,2,3)) 
!S13(Full 3 Port(1,2,3)) 
!S21(Full 3 Port(1,2,3)) 
!S22(Full 3 Port(1,2,3)) 
!S23(Full 3 Port(1,2,3)) 
!S31(Full 3 Port(1,2,3)) 
!S32(Full 3 Port(1,2,3)) 
!S33(Full 3 Port(1,2,3)) 
!S3P File: Measurements: <S11,S12,S13>,
!<S21,S22,S23>,
!<S31,S32,S33>:Log Frequency Sweep
# Hz S  RI   R 50
10000 0.9961369 -0.00080567255 -9.5035183e-008 0.00013769841 1.5076939e-005 0.00016618797
1.6723874e-005 0.00015010829 0.99891609 -0.003461268 -1.1529089e-005 0.00070869864
-1.1661925e-007 0.00017628916 8.7121025e-006 0.0007114461 0.99987441 -0.0023417643
10592.537251773 0.99634206 -0.0011566149 -1.0596919e-005 0.0001437755 5.8410023e-006 0.00017787365
1.2631973e-005 0.00017468775 0.99866819 -0.0034765501 2.2120696e-005 0.00074809988
4.6912492e-006 0.00017600604 -3.2608662e-006 0.00076058658 1.0000099 -0.002267705
11220.18454302 0.99622619 -0.0011468054 7.6537281e-006 0.00017096312 -6.6642742e-006 0.00019521806
3.1688003e-006 0.0001659829 0.99875867 -0.0037960722 1.3377096e-006 0.00078122178
7.7640234e-006 0.00019906975 2.9573535e-005 0.00078734744 0.99982852 -0.0022308743
11885.02227437 0.99623168 -0.0011346537 1.8256009e-005 0.00021373646 5.8057658e-006 0.00019949098
6.0695768e-008 0.00017940969 0.99885589 -0.0036869624 -6.0265675e-006 0.00083328132
-1.4740676e-005 0.00018433896 1.2738123e-005 0.00085001648 1.0000691 -0.0023328576
12589.254117942 0.99627465 -0.001329793 1.023976e-006 0.00020133908 -3.4372047e-006 0.00022196202
-1.9008959e-006 0.00020087689 0.99901295 -0.0040427176 2.9190671e-005 0.00089610904
5.4113798e-006 0.00021381253 -6.4408846e-006 0.00089107233 1.000106 -0.0025224111
13335.214321633 0.99633533 -0.0013622455 1.5806894e-005 0.00019210737 1.1716839e-005 0.00021944215
1.9716099e-005 0.00020501118 0.99907333 -0.0042421487 5.8659462e-006 0.0009052633
4.4649482e-006 0.00023698497 -8.306326e-006 0.00093412341 0.99989504 -0.0024727129
14125.375446228 0.99613458 -0.001612014 1.1921331e-005 0.00023322675 -1.9288211e-005 0.00026309185
-1.3783159e-006 0.00021255661 0.99896431 -0.0042854594 3.2867789e-005 0.00097635423
8.4307812e-006 0.00022961113 1.5385738e-005 0.0010049957 1.0000832 -0.002442823
14962.356560944 0.99608302 -0.0016642029 -1.296076e-005 0.00024238137 -1.9026797e-005 0.00027383806
6.6018602e-006 0.00023085155 0.99906981 -0.0045362576 1.0644022e-005 0.001067903
1.1980523e-005 0.00024400059 -7.1056286e-007 0.0010644732 0.99999791 -0.0027296576
15848.931924611 0.99627966 -0.0018149023 1.8299701e-005 0.00021580943 4.6665314e-006 0.00028512324
7.8053654e-007 0.00026322331 0.99888968 -0.0046929778 1.5927722e-005 0.0011008045
9.5974274e-006 0.00025090267 1.9985978e-006 0.0011301006 0.99994111 -0.0025596728
16788.040181226 0.99630159 -0.0021831053 -2.8329603e-006 0.00025120669 2.3067176e-005 0.00027479453
6.5080512e-006 0.00025888966 0.99892193 -0.0049473234 1.4742017e-005 0.0012185532
-9.3886611e-006 0.00026261929 1.6676257e-005 0.0011683123 1.0000348 -0.0028431579
17782.794100389 0.99625313 -0.0019113235 2.6795678e-006 0.00027685461 4.957169e-006 0.00030419612
1.0684559e-005 0.00028025976 0.99912822 -0.0051511903 -1.1574887e-006 0.00124686
-7.6510269e-006 0.00033410068 2.4784547e-005 0.0012483789 0.99987525 -0.0027289598
18836.490894898 0.99616402 -0.0020729897 -3.3236302e-005 0.00029220548 2.9362905e-006 0.00032384554
1.345396e-005 0.00030691325 0.99914283 -0.0053647282 1.6408583e-005 0.001321938
-5.9777967e-006 0.00032843478 1.2219702e-005 0.0013265545 0.99993777 -0.0027314131
19952.623149689 0.99621516 -0.0023375549 -7.5895732e-006 0.00030349527 8.7294839e-006 0.00036508232
-1.2117602e-005 0.00030214695 0.99921387 -0.0057664802 1.3097088e-005 0.0014141331
1.0875652e-005 0.00035092866 9.6098984e-007 0.0013913865 0.99998188 -0.0029148979
21134.890398366 0.99622601 -0.0026226505 9.148951e-006 0.00031606742 -1.8936011e-006 0.0003567102
-8.4321964e-006 0.00032404996 0.99907613 -0.0059793317 1.6889837e-005 0.0014708505
-9.6185079e-007 0.00037993694 2.2205084e-005 0.001471567 0.99987274 -0.0030404276
22387.211385683 0.99619997 -0.0026801561 -4.2855686e-006 0.00033213134 -1.382209e-005 0.00038305033
2.7209442e-006 0.00033867857 0.99915498 -0.0062157679 1.5944668e-005 0.0016028029
1.086015e-005 0.00038297503 2.7552698e-005 0.001576422 0.99991471 -0.0032033655
23713.737056617 0.99600536 -0.0030109724 -1.3853743e-005 0.00036193061 3.0718595e-006 0.00041617226
-1.6120452e-005 0.00034848976 0.99911302 -0.0066258218 1.3200864e-005 0.001657467
1.2549712e-005 0.00040896685 1.3682085e-005 0.0016760788 0.99971503 -0.0031873467
25118.864315096 0.99613941 -0.0031576131 1.553977e-005 0.00039081773 2.3216518e-005 0.00044627662
1.3256588e-005 0.00038892066 0.99908161 -0.0069264174 1.8238579e-005 0.001772153
-1.1946889e-005 0.00040918036 1.3018274e-005 0.0017551022 0.99990696 -0.0033943604
26607.250597988 0.9961741 -0.0031713615 -3.6515619e-006 0.00039318434 7.2921553e-006 0.00046667166
3.2925939e-006 0.00041263568 0.99916798 -0.0074032722 2.5584179e-005 0.0018547801
2.0607473e-005 0.00045216369 3.4368479e-006 0.0018619453 0.9998219 -0.0035308611
28183.829312645 0.99613976 -0.0035476636 8.5235015e-006 0.00044560645 1.8037046e-005 0.00050002226
-1.1856052e-005 0.00042297313 0.99909216 -0.0076789944 1.4823086e-005 0.0019859087
4.9055093e-006 0.0004851128 3.752418e-005 0.0019731561 0.99995875 -0.0036185991
29853.82618918 0.99632484 -0.0038014536 3.5145855e-005 0.00045766888 9.2215614e-006 0.00050624309
2.1477288e-006 0.00046290172 0.99921703 -0.0080346912 1.9357009e-005 0.0020909647
-3.3575118e-006 0.00051369 1.586974e-005 0.0021178627 0.99988794 -0.0037804681
31622.776601684 0.99626368 -0.0040412918 -6.6593939e-006 0.00050584855 -5.4151774e-006 0.00055333733
1.5391006e-005 0.00049259281 0.99900812 -0.0084988829 2.7667105e-005 0.0022246891
1.1947777e-005 0.00054681418 2.6008234e-005 0.0022169058 0.99976856 -0.0040488034
33496.543915783 0.99622154 -0.0042637396 -1.3262657e-005 0.00052389142 2.6318785e-005 0.00054754969
7.6436254e-006 0.0005093725 0.99906522 -0.0091730328 2.3632989e-005 0.0023490284
9.410327e-006 0.00058833329 2.4101542e-005 0.0023456956 0.99983144 -0.0040159607
35481.338923358 0.99610436 -0.0045339623 1.8022711e-005 0.00054876431 2.8445596e-008 0.00060278951
7.9032006e-006 0.00054197269 0.99915123 -0.009668814 3.7809867e-005 0.0024881086
1.359306e-005 0.00061211485 5.0136379e-005 0.0024947159 0.99986726 -0.0042068539
37583.740428844 0.99605167 -0.0047721355 9.7904212e-006 0.00057094707 -6.3161069e-006 0.00064247561
1.0705769e-005 0.0005554501 0.9991439 -0.010154884 4.1704134e-005 0.0026464635
1.0119974e-005 0.00065808941 5.3738473e-005 0.0026308082 0.99956751 -0.0045671244
39810.71705535 0.99621916 -0.0050801034 -9.1054568e-007 0.00060416973 8.3498917e-006 0.00068331935
-1.7644029e-006 0.00060464075 0.99911249 -0.010873427 5.7084861e-005 0.0027947796
1.7796151e-006 0.00067352637 5.735024e-005 0.0027961635 0.99964631 -0.0048712166
42169.650342858 0.99613124 -0.005483856 -2.4383687e-007 0.00064668257 1.2081448e-005 0.00073509774
-3.5413186e-007 0.00061891688 0.9992488 -0.011310875 6.9670437e-005 0.0029357118
6.1025544e-006 0.0007243196 4.8237296e-005 0.0029385246 0.99950951 -0.0050035873
44668.359215096 0.99619544 -0.0057186629 4.2067236e-006 0.00067586533 1.3896199e-005 0.00076166459
2.1563194e-006 0.00068287703 0.99903727 -0.011987993 5.0029455e-005 0.0031294564
1.1822659e-005 0.0007619175 6.0218681e-005 0.0031463534 0.9994244 -0.0051190574
47315.125896148 0.99623555 -0.0059062066 2.3464148e-005 0.00071259012 5.2794026e-006 0.00082226784
2.5147006e-005 0.00072617724 0.99907666 -0.012698785 5.154113e-005 0.0033178024
1.1609931e-005 0.00081530795 7.9085832e-005 0.0033213547 0.99969274 -0.0054625771
50118.723362727 0.99616235 -0.0064320364 -4.7191097e-006 0.00076175836 -9.9365352e-006 0.00085988786
1.987315e-006 0.00075958105 0.9990682 -0.013534863 6.1908242e-005 0.0035229223
4.6901555e-006 0.00085876114 6.04448e-005 0.0035266934 0.99946505 -0.0056586424
53088.444423099 0.99617797 -0.0068284734 -4.7436479e-006 0.00080784672 -1.6174927e-006 0.00091100013
6.2618728e-006 0.000798842 0.9989754 -0.01431118 7.1467468e-005 0.0037262181
9.179993e-006 0.00091429154 7.2130504e-005 0.0037150579 0.99963623 -0.0060240189
56234.132519035 0.9962042 -0.007197307 -1.5461192e-006 0.00087299087 1.8200399e-005 0.00096317485
-8.3492223e-006 0.00085734983 0.99892741 -0.015258752 0.00010905998 0.0039506759
2.1469905e-005 0.00095672929 8.6102533e-005 0.003946654 0.99939871 -0.0061279577
59566.214352901 0.99627388 -0.0075741187 1.585262e-005 0.00089813775 7.3140491e-006 0.001027371
4.9464297e-006 0.00091094623 0.99895889 -0.016053092 9.3101087e-005 0.004170883
2.0050362e-005 0.0010220991 8.7699176e-005 0.0041904682 0.99928516 -0.0065867538
63095.734448019 0.99608397 -0.0081488825 3.8028513e-006 0.00098569947 3.1602722e-005 0.0010706891
1.2498702e-005 0.00096310815 0.99891329 -0.017107489 9.9020399e-005 0.0044331686
1.972334e-005 0.0010802203 0.00010230567 0.0044270195 0.99941516 -0.0069841673
66834.391756861 0.9961006 -0.008529922 1.0153398e-005 0.0010120156 1.0456291e-006 0.0011595555
1.1738966e-005 0.0010270943 0.99878764 -0.018172193 0.00011631846 0.0046565891
1.241206e-005 0.0011378329 0.00013372053 0.0046777865 0.99940747 -0.0073416852
70794.578438414 0.99618721 -0.0090189464 1.0764499e-005 0.0010863019 9.3268654e-006 0.0012250397
-1.6951311e-005 0.0010826227 0.99860555 -0.019035246 0.00013020977 0.0049536079
1.2539837e-005 0.0012034259 0.00014050903 0.0049583046 0.99916774 -0.0077195126
74989.420933246 0.99619418 -0.0095576085 2.3918514e-005 0.001133265 3.2479787e-005 0.0013041861
-3.4479158e-006 0.0011526492 0.99877042 -0.020013122 0.000148028 0.0052476963
6.7001342e-006 0.001282793 0.00012596457 0.0052408576 0.99918371 -0.007921502
79432.823472428 0.99626017 -0.010102968 -2.2739107e-006 0.0011992094 3.3818396e-005 0.0013840515
4.3242862e-006 0.001221194 0.9986372 -0.021188362 0.00015179653 0.0055563855
-2.8729369e-006 0.0013656181 0.00017283118 0.0055704066 0.99906975 -0.0084889038
84139.514164519 0.99621195 -0.010525555 -2.1283804e-006 0.0012852276 3.864415e-005 0.0014383369
4.7237036e-006 0.001280369 0.99862838 -0.022264546 0.00016362937 0.0058895615
2.8573526e-005 0.0014363872 0.00017464739 0.0058917594 0.99899185 -0.0088175675
89125.093813375 0.99621034 -0.01111092 2.3110764e-005 0.001347233 1.9301713e-005 0.0015347829
-1.0526732e-006 0.0013638735 0.99851334 -0.023773728 0.00022771467 0.0062577045
4.6549729e-005 0.0015310805 0.00020507617 0.0062113302 0.99916852 -0.0094436323
94406.087628592 0.99628597 -0.011958669 2.9821276e-005 0.0014371765 3.6074551e-005 0.001622315
1.431076e-005 0.001435137 0.998492 -0.025004359 0.00020225812 0.0065923361
3.0539337e-005 0.0016265108 0.00019487634 0.0066094035 0.99917835 -0.0098594753
100000 0.99638635 -0.012574729 7.7347349e-006 0.0015138325 5.3314841e-005 0.0017186963
2.4300773e-005 0.0015184617 0.99839151 -0.026671732 0.00024979829 0.006967301
5.2406653e-005 0.0017176692 0.00025038241 0.006961605 0.99908167 -0.010333692
105925.37251773 0.99623978 -0.013244817 -1.056009e-005 0.0016157342 5.6868736e-005 0.0018191043
3.6419444e-006 0.0016094783 0.99839866 -0.028264852 0.00026311559 0.0074146972
4.4031582e-005 0.0018166217 0.00028547144 0.0073990095 0.99905717 -0.010826473
112201.8454302 0.99634928 -0.014168693 2.4777117e-005 0.001682968 4.373461e-005 0.0019290128
5.9018598e-006 0.0017041597 0.99844748 -0.029784122 0.00031219161 0.0078197699
6.0182356e-005 0.0019313114 0.00031825775 0.0078494372 0.99899691 -0.011452504
118850.2227437 0.9962343 -0.014910208 8.0809987e-006 0.0018048381 6.2396102e-005 0.0020589759
1.0051102e-005 0.0018227873 0.99843162 -0.031402856 0.00035389117 0.0083064614
6.0460414e-005 0.0020190955 0.00033470866 0.0082964795 0.99918514 -0.012059197
125892.54117942 0.99642634 -0.01568247 3.3743934e-005 0.001922087 7.1225069e-005 0.0021566565
-5.551392e-006 0.0019435292 0.9984045 -0.033359349 0.00036981175 0.0087655224
5.8705282e-005 0.002147197 0.0003870271 0.0087730736 0.99911803 -0.012783012
133352.14321633 0.99632233 -0.016751479 4.0344701e-005 0.0020296103 6.9857721e-005 0.0022856565
1.225979e-006 0.0020182217 0.99827611 -0.035374295 0.00042145851 0.0093008513
6.6777291e-005 0.0023172339 0.00042841228 0.009293668 0.99916679 -0.013418962
141253.75446228 0.99631381 -0.01784971 3.6437781e-005 0.002172664 8.3083534e-005 0.0024134482
2.7137181e-005 0.0021652987 0.99814802 -0.037452698 0.00049029314 0.0098370835
6.7710302e-005 0.0024153588 0.00046280684 0.0098186508 0.99905562 -0.014326901
149623.56560944 0.99630159 -0.018760318 2.3773398e-005 0.0023049563 7.5170065e-005 0.00254953
2.4303057e-005 0.0022820698 0.99814099 -0.039641876 0.00052652502 0.010410075
8.6804132e-005 0.0025724554 0.00052404305 0.010406585 0.99884593 -0.015161305
158489.31924611 0.99632949 -0.019893134 2.8770732e-005 0.0024345075 8.9758549e-005 0.0027153054
2.4361312e-005 0.0024494973 0.99795413 -0.042036306 0.00058371457 0.011008049
0.00010803145 0.0026744858 0.0005833474 0.010986918 0.99873686 -0.0160583
167880.40181226 0.99621832 -0.021234592 2.525343e-005 0.0025680044 0.00010112392 0.0028608993
3.5432698e-005 0.0025569254 0.99761134 -0.044369254 0.00063209201 0.011656522
0.00011993652 0.0028735921 0.00065226882 0.011636105 0.99887252 -0.017041933
177827.94100389 0.99615741 -0.022435149 3.1909229e-005 0.0027306585 0.00011584698 0.0030144455
5.4230364e-005 0.0027330017 0.99750191 -0.047165658 0.00073317892 0.012318272
0.00012970963 0.0030339125 0.00074692513 0.012321156 0.99881923 -0.017876333
188364.90894898 0.99596703 -0.023662198 3.8980568e-005 0.0028899331 0.00015239604 0.0032124454
4.4389682e-005 0.0028805607 0.99724925 -0.049952742 0.00079523388 0.013048613
0.0001389699 0.003208739 0.00079199794 0.01302393 0.99866229 -0.019036893
199526.23149689 0.99608082 -0.025078043 3.4944718e-005 0.0030624501 0.00013818873 0.0033968422
2.9952551e-005 0.00307151 0.99725485 -0.052861273 0.00090376055 0.013766586
0.00015750529 0.0034027584 0.00090054551 0.013760926 0.99863058 -0.020151587
211348.90398366 0.99606574 -0.026649667 6.92412e-005 0.003245774 0.00015927842 0.0035605151
4.1312887e-005 0.003248092 0.99697459 -0.055831466 0.00097489299 0.014569799
0.00017105968 0.0035830156 0.00094820169 0.014552479 0.99850655 -0.021140916
223872.11385683 0.99586332 -0.028178096 7.2869349e-005 0.0034273465 0.00019234586 0.0037827278
6.7951012e-005 0.0034135778 0.99670309 -0.059414253 0.0010785998 0.015426053
0.00019100588 0.003792118 0.001107057 0.015417427 0.99842918 -0.022347864
237137.37056617 0.9959318 -0.029849272 6.2753446e-005 0.0036252527 0.00021438283 0.0040083248
6.7620276e-005 0.0036315639 0.99640572 -0.062916681 0.0012262427 0.016298285
0.00020666049 0.0039946716 0.0012327046 0.016273921 0.99817592 -0.023531014
251188.64315096 0.9958728 -0.031666204 6.9361529e-005 0.0038666942 0.00023363552 0.0042423652
8.5672778e-005 0.0038584771 0.99622834 -0.06640932 0.0013370513 0.017234968
0.00022918322 0.0042342655 0.0013404334 0.017240811 0.99831736 -0.024958441
266072.50597988 0.9957006 -0.033450838 9.823552e-005 0.0040880791 0.0002385869 0.0044837142
9.3430201e-005 0.0041022422 0.99600446 -0.07028769 0.0014876098 0.01822607
0.00022152005 0.0044735475 0.0014805577 0.01824644 0.99826938 -0.026380135
281838.29312645 0.99564254 -0.03561816 0.00010698054 0.0043487917 0.0002712984 0.004765417
9.5617404e-005 0.0043509575 0.99551946 -0.074236199 0.0016367872 0.01925059
0.00025969237 0.0047429162 0.0016363874 0.019261459 0.99802834 -0.027796373
298538.2618918 0.99548692 -0.037686814 0.00012297499 0.0046146461 0.00029264737 0.0049986565
0.00011154146 0.0046202159 0.99523157 -0.078765489 0.001790367 0.020345684
0.00030391716 0.0050233076 0.0017801531 0.020353347 0.99793249 -0.029508222
316227.76601684 0.9953742 -0.039809544 0.00012483003 0.0049094711 0.00034642534 0.0052874903
0.0001614372 0.0048757792 0.99473006 -0.083429277 0.0019609074 0.021506159
0.00030695667 0.0052978154 0.001970483 0.021488639 0.99762976 -0.031167751
334965.43915783 0.99522007 -0.042132709 0.00014397714 0.0051584505 0.00034284173 0.0055943602
0.00015169726 0.0051701791 0.99426341 -0.088320687 0.0021774399 0.022714218
0.00036200348 0.0056021893 0.002187965 0.022721224 0.99740738 -0.032862823
354813.38923358 0.99513698 -0.044583309 0.00017438691 0.0055124396 0.00038268021 0.00592583
0.00020403173 0.0055002673 0.99374282 -0.093374506 0.0024084377 0.024003675
0.00038731802 0.0059320102 0.0024251938 0.024042733 0.99739474 -0.034851432
375837.40428844 0.99513537 -0.04726376 0.00021412357 0.0058271098 0.00043383558 0.0062495857
0.00020126125 0.00581478 0.99297506 -0.099042974 0.002633383 0.025375891
0.00039395384 0.0062517971 0.0026413454 0.025376447 0.99718785 -0.036599889
398107.1705535 0.99495983 -0.050084155 0.00025350563 0.0061541041 0.00044410556 0.0065990128
0.00025430816 0.0061657005 0.99223369 -0.10472963 0.0029035925 0.026793368
0.00046842839 0.0066056619 0.0029139917 0.02681178 0.99690384 -0.038725596
421696.50342858 0.99487406 -0.053015884 0.00028476949 0.0065503586 0.00049667369 0.0069979853
0.00027187387 0.0065556895 0.99152076 -0.11075888 0.0032039112 0.028285416
0.0004926424 0.0069916034 0.0031814687 0.028309453 0.9967888 -0.041007128
446683.59215096 0.99467379 -0.056200132 0.00033064539 0.0069775046 0.00055830384 0.0073734066
0.0003240139 0.0069574798 0.9908188 -0.11735053 0.0034882466 0.029881967
0.00054182543 0.007389863 0.003497944 0.029918939 0.99638659 -0.043199915
473151.25896148 0.99446338 -0.059428781 0.00039820035 0.0073686182 0.00060645561 0.0077786888
0.00037759266 0.0073635029 0.98984295 -0.12420449 0.0038434446 0.031591851
0.00056447822 0.0078008836 0.0038434614 0.03160442 0.99627942 -0.045739565
501187.23362727 0.99398375 -0.063017316 0.00043652221 0.0078326827 0.00064205646 0.0082462085
0.00046756279 0.0078204134 0.98888588 -0.13124144 0.0042189085 0.033355109
0.00063270144 0.0082424888 0.0042396244 0.033383567 0.99594879 -0.048306145
530884.44423099 0.99362016 -0.066767104 0.00051789003 0.008316448 0.00068329216 0.0087049929
0.00052167219 0.0082944371 0.98785502 -0.13868067 0.0046116267 0.035215434
0.00067995687 0.0086994255 0.0046411287 0.035250068 0.99568206 -0.051025778
562341.32519035 0.99343061 -0.070558332 0.00060449552 0.0087693995 0.0007330951 0.0091968775
0.00059902942 0.0088019986 0.98634487 -0.1469834 0.0050574006 0.037195835
0.00076045562 0.0092233503 0.0051084324 0.037208661 0.99544865 -0.053992052
595662.14352901 0.99321437 -0.074482664 0.00067153352 0.0093216803 0.00081117358 0.0097208442
0.00069043459 0.0093059614 0.98472887 -0.15554795 0.0055635562 0.039255049
0.00082821667 0.0097507406 0.0055825519 0.039296731 0.99497861 -0.057081658
630957.34448019 0.99295503 -0.078894831 0.00078784843 0.0098525565 0.00086589012 0.010288545
0.00079710281 0.0098761534 0.98338068 -0.16455501 0.0061105751 0.041474719
0.0008834367 0.010287565 0.0061426163 0.041475244 0.99474674 -0.060456228
668343.91756861 0.99247819 -0.083647944 0.00089330081 0.010438526 0.00095719431 0.010867042
0.00089743955 0.010448554 0.98149472 -0.17389381 0.0067425393 0.043796707
0.00095333892 0.010870876 0.0067409109 0.043828353 0.99426514 -0.06363406
707945.78438414 0.99203843 -0.088607602 0.0010428998 0.011063359 0.0010189743 0.011494185
0.0010309049 0.011050836 0.97915018 -0.1840665 0.0074130176 0.046226092
0.0010470146 0.01149444 0.007437292 0.046251263 0.99381202 -0.067293853
749894.20933246 0.99163061 -0.093898185 0.0011869472 0.01170051 0.0011057521 0.012153245
0.0011912858 0.011718277 0.97662705 -0.19461006 0.0081523564 0.048797969
0.0011433176 0.012138554 0.0081388494 0.048788622 0.99334109 -0.071062803
794328.23472428 0.99075925 -0.099483281 0.0013603332 0.012397408 0.0012418781 0.012832402
0.0013492283 0.012423211 0.97473741 -0.20519334 0.0089488383 0.051531285
0.0012302956 0.012837697 0.0089786313 0.05155668 0.99279708 -0.075256437
