!Keysight Technologies,E5080A,MY55100144,A.11.70.03
!Date: Monday, November 13, 2017 17:21:42
!Correction: S11(Full 3 Port(1,2,3)) 
!S12(Full 3 Port(1,2,3)) 
!S13(Full 3 Port(1,2,3)) 
!S21(Full 3 Port(1,2,3)) 
!S22(Full 3 Port(1,2,3)) 
!S23(Full 3 Port(1,2,3)) 
!S31(Full 3 Port(1,2,3)) 
!S32(Full 3 Port(1,2,3)) 
!S33(Full 3 Port(1,2,3)) 
!S3P File: Measurements: <S11,S12,S13>,
!<S21,S22,S23>,
!<S31,S32,S33>:Log Frequency Sweep
# Hz S  RI   R 50
10000 0.99613279 -0.00090687384 1.9688641e-005 0.00018741973 -8.1388125e-006 0.0001882638
3.7314292e-006 0.00018114035 0.9990167 -0.0033010498 -4.2396186e-006 0.00069930841
1.5805794e-005 0.00018632654 1.4419733e-005 0.00071140641 0.99985731 -0.0024234417
10592.537251773 0.99622512 -0.0011356412 -4.0818122e-006 0.00021101887 7.7341574e-006 0.00016396074
1.9420617e-005 0.0001905572 0.99880898 -0.0034852531 6.8055538e-006 0.00074333616
-4.7542258e-006 0.00019219577 1.0501924e-005 0.00073056761 0.99999797 -0.0023577644
11220.18454302 0.9963122 -0.0013354396 -1.759207e-006 0.00020605829 1.3482803e-006 0.00018024855
-2.2829299e-006 0.00022024862 0.99868524 -0.0038064118 -4.3536115e-006 0.00076974096
1.7608971e-005 0.0001937069 1.3163868e-005 0.00078814087 1.0001534 -0.0024308024
11885.02227437 0.99612099 -0.0011228898 -1.2624941e-005 0.00020459965 1.1322072e-005 0.00020004182
-8.1625394e-006 0.00020558067 0.99899089 -0.0039226739 6.2675831e-006 0.00082231819
2.4760081e-006 0.00022020566 -6.2638173e-006 0.00083285721 1.000128 -0.0022898118
12589.254117942 0.99623632 -0.0014251894 -1.1926785e-006 0.00021512058 1.1445807e-006 0.00020702012
1.5700982e-005 0.00021427294 0.99896699 -0.0040382571 1.6423302e-005 0.00088895805
5.5764499e-006 0.0002029272 1.1182029e-005 0.0008834636 1.0001717 -0.0024947154
13335.214321633 0.99623549 -0.0013994443 2.4780398e-005 0.00023618268 -6.5683184e-006 0.00022135313
-1.7105614e-006 0.00024112975 0.99896306 -0.0041878815 1.6104552e-005 0.00094662089
1.3147911e-005 0.00022906459 2.1468366e-005 0.00093287474 0.99988574 -0.0025138767
14125.375446228 0.99612641 -0.0015506906 -4.9096175e-006 0.00025657454 2.4943716e-005 0.00025645705
4.3303253e-006 0.0002394395 0.99885899 -0.004344746 6.0636053e-006 0.0010192558
-2.0165558e-005 0.00023347388 1.0929521e-005 0.00099180825 1.0000898 -0.0024545223
14962.356560944 0.99599069 -0.0017125182 -1.6848908e-005 0.00026144341 1.3514514e-006 0.00025675396
-1.6785598e-005 0.00026499107 0.99910378 -0.0043654726 8.3354354e-007 0.0010597652
-1.4622652e-005 0.00024674137 2.3230174e-005 0.0010779978 0.99991423 -0.0026707251
15848.931924611 0.99627066 -0.0019613714 1.3970295e-006 0.00028472202 -1.3435365e-006 0.00028759448
-9.1737893e-006 0.00026482873 0.99895823 -0.0047490699 4.0272964e-005 0.0011495943
2.5029867e-006 0.00026271696 -3.8674384e-006 0.0011174541 1.0001905 -0.0024772433
16788.040181226 0.99620295 -0.0021014342 -8.2815377e-006 0.00028052568 6.1416421e-007 0.0002792514
1.2278626e-005 0.00029267566 0.99898213 -0.0049939319 3.148957e-005 0.0011858412
4.6412256e-006 0.00027588353 1.6209193e-005 0.0011851818 0.99995553 -0.002805063
17782.794100389 0.99616253 -0.0020278955 -4.8619227e-006 0.00030117863 1.6201895e-005 0.00029361242
-1.592148e-005 0.000326596 0.99907428 -0.0052095833 2.7918042e-005 0.0012594338
-3.6498761e-006 0.00030637204 1.5621262e-006 0.0012424341 0.99998075 -0.0028401529
18836.490894898 0.99621856 -0.0022120366 6.6636808e-006 0.0003445188 8.401923e-006 0.00032213074
4.2493516e-006 0.00034049436 0.99905145 -0.0054836543 3.3799311e-005 0.0013047872
-2.8979903e-006 0.00033831425 2.1237878e-005 0.0013163522 0.99987251 -0.0027949945
19952.623149689 0.99628943 -0.0025560043 1.471478e-006 0.00036729008 -1.104135e-005 0.00033608795
2.0416679e-005 0.00036625392 0.99900556 -0.0058447625 1.7173801e-005 0.0014186533
-1.4932024e-006 0.0003343054 1.9511524e-005 0.0014150525 0.99998367 -0.002839877
21134.890398366 0.99624979 -0.0026492944 -3.6825611e-006 0.00038970227 1.0911822e-005 0.00033064978
1.1184563e-006 0.00036539865 0.99905181 -0.006151462 4.4614037e-005 0.0014929553
5.2788505e-006 0.00035581645 1.3481532e-005 0.0014908427 0.99988103 -0.0031554515
22387.211385683 0.99612838 -0.0028897738 1.266747e-005 0.00039610322 1.4199536e-005 0.00038091314
-2.9959576e-006 0.00040492282 0.99916023 -0.0063514234 1.5487101e-005 0.0015905706
-8.809051e-006 0.00038294299 3.4420787e-005 0.0015657948 0.99994427 -0.0032184441
23713.737056617 0.99607599 -0.0031118914 2.9702593e-005 0.0004227371 1.1193987e-005 0.00038503041
7.9585689e-006 0.00043501655 0.99915332 -0.0066354582 1.4593267e-005 0.001670787
1.0237263e-005 0.00039596669 2.7495411e-005 0.0016606564 0.99977088 -0.0030189764
25118.864315096 0.99615073 -0.0033266193 1.0361344e-005 0.00043647247 1.601636e-005 0.00041247689
1.8120641e-005 0.00043783386 0.99899673 -0.0070413593 1.5722586e-005 0.0017822678
-1.0258467e-005 0.00041646301 1.4042903e-005 0.0017557682 0.99975848 -0.0034577642
26607.250597988 0.99613577 -0.0033373015 -8.4167978e-006 0.00045959934 -1.7169892e-005 0.00044809747
3.1553327e-006 0.00048856082 0.9990015 -0.0074109407 3.1316245e-005 0.0018916209
-1.2096972e-005 0.00045300709 1.4957986e-005 0.0018725427 0.99985117 -0.0034080867
28183.829312645 0.9961251 -0.0037610484 8.0142618e-006 0.00048400558 -1.3197738e-005 0.00048847601
1.1733884e-005 0.00051210693 0.99915528 -0.0078851627 8.0709979e-006 0.0019905395
2.6214998e-006 0.00047338911 2.3081669e-005 0.001987396 0.99978393 -0.0036037359
29853.82618918 0.99626333 -0.0038785427 2.6670161e-006 0.00053196173 1.8436675e-006 0.00049316627
1.448875e-005 0.0005349135 0.99909502 -0.008077533 4.3943666e-005 0.0021004064
1.982613e-005 0.0004838263 3.1979453e-005 0.0020866725 0.99991155 -0.0036150999
31622.776601684 0.99615812 -0.0041933185 4.0882023e-006 0.00056735007 1.2593834e-005 0.0005119415
4.0970085e-006 0.0005703629 0.99921191 -0.0086597251 4.6531863e-005 0.0022234812
-5.3791894e-007 0.00053466461 4.0451949e-005 0.0022175845 0.99982917 -0.0040921587
33496.543915783 0.99621063 -0.0043759118 -2.2519009e-006 0.00059863128 -1.0181449e-006 0.00056488661
-1.0617225e-006 0.00060597603 0.99907184 -0.0092236381 2.7088539e-005 0.0023583698
1.9441701e-005 0.00057587825 4.7609912e-005 0.0023554182 0.99976236 -0.0041089817
35481.338923358 0.99604392 -0.0046807355 -1.1047191e-006 0.00062642305 1.7196302e-005 0.00059821171
2.3852829e-006 0.0006315799 0.99938577 -0.0097005544 4.0252755e-005 0.0025123798
1.5452757e-005 0.00060017564 3.3239743e-005 0.0024995105 0.99987072 -0.0041989954
37583.740428844 0.99623191 -0.0048947572 8.2668294e-006 0.00065632223 -6.0515945e-006 0.00064429455
4.2261245e-006 0.00067016552 0.99910957 -0.010366826 1.4063344e-005 0.0026680706
1.0156363e-005 0.0006339766 3.8071932e-005 0.0026377768 0.99967384 -0.0046335538
39810.71705535 0.99608874 -0.0051260777 -2.0397499e-006 0.00069622986 1.1710044e-005 0.00068027759
-4.1477801e-007 0.00070740911 0.99925351 -0.010791985 4.3469176e-005 0.0028185898
-2.8065226e-006 0.00066997961 3.6833597e-005 0.0028073294 0.99957198 -0.0047869924
42169.650342858 0.9961403 -0.0054941415 3.0341687e-006 0.00075315277 1.4369402e-005 0.00069706835
1.0405507e-005 0.00074582925 0.9990527 -0.011388705 6.2887229e-005 0.0029726464
1.9771502e-005 0.00069732912 4.3863631e-005 0.0029730294 0.99949992 -0.0049370741
44668.359215096 0.99624425 -0.0058414359 -6.4426699e-006 0.0007912385 4.1343574e-006 0.00077027187
1.564042e-005 0.00079852581 0.99921203 -0.012293242 5.0495477e-005 0.0031551209
1.1334109e-005 0.00077366247 5.8164169e-005 0.0031397382 0.99975258 -0.0053001908
47315.125896148 0.99622798 -0.006062598 7.659517e-006 0.00080649025 1.2175268e-005 0.00079978124
3.4376935e-006 0.0008376544 0.99909461 -0.012825263 7.3192656e-005 0.0033403139
2.3139516e-007 0.00079438271 5.5116339e-005 0.0033203117 0.99961144 -0.0054150023
50118.723362727 0.9962607 -0.006562375 2.0122787e-005 0.00090439606 2.3128467e-005 0.00083424011
1.422859e-005 0.00087806385 0.99913901 -0.013649224 9.4376053e-005 0.0035503914
1.3171802e-005 0.00085283915 7.6661046e-005 0.0035250031 0.99949151 -0.0055537596
53088.444423099 0.99624395 -0.0069687986 3.293766e-006 0.00092548155 7.684207e-006 0.00090127275
-9.035063e-007 0.00092695665 0.99905509 -0.014416445 8.4213476e-005 0.0037322871
2.5459924e-005 0.00091494853 6.4854052e-005 0.0037650948 0.99948287 -0.0060477061
56234.132519035 0.99631739 -0.0075288219 2.77371e-005 0.0010081271 3.4934994e-005 0.0009528196
1.4209847e-005 0.00098270003 0.99889404 -0.015447981 7.4024269e-005 0.0039659198
2.131108e-005 0.00095896656 0.00010576758 0.0039453078 0.99945617 -0.0062066321
59566.214352901 0.9961493 -0.0078584207 1.5793945e-005 0.0010614265 1.9468989e-005 0.0010183139
-4.378036e-006 0.0010596964 0.99880546 -0.016409975 9.304627e-005 0.0041870861
1.3591571e-005 0.0010212663 0.00010403975 0.0041908761 0.99920166 -0.0065583913
63095.734448019 0.9962188 -0.0083738081 8.8772949e-006 0.0011412376 -3.4796033e-006 0.0010558511
5.9561821e-006 0.0011251031 0.99890572 -0.017463222 8.9662281e-005 0.0044583208
3.6949477e-005 0.0010595234 8.442426e-005 0.0044360524 0.9995091 -0.006933494
66834.391756861 0.99620366 -0.0086754626 2.7734772e-005 0.0011785845 2.9997373e-005 0.0011300966
-4.4647013e-006 0.0011872308 0.99874437 -0.018419979 0.0001234786 0.0046876594
2.1132017e-005 0.0011253642 0.00013447106 0.0047007599 0.99936795 -0.0074149077
70794.578438414 0.99615347 -0.0093881441 9.8653745e-006 0.001249346 3.657952e-005 0.0011980028
1.018412e-005 0.0012746374 0.99863213 -0.019253921 0.00012707722 0.0049631195
4.5755846e-006 0.0011829357 0.00010803768 0.0049721804 0.99911469 -0.007663561
74989.420933246 0.99635404 -0.0097785527 2.0558513e-005 0.0013311695 7.4890175e-007 0.0012481897
5.0378153e-006 0.0013500481 0.99864858 -0.020381 0.00015545035 0.005263234
2.586118e-005 0.0012497341 0.00013804255 0.0052557336 0.9991414 -0.0080067934
79432.823472428 0.9962036 -0.01037978 -1.4277683e-005 0.0014103301 4.3984855e-005 0.0013369221
2.6370551e-005 0.0013977685 0.99870026 -0.021462116 0.00017187143 0.0055838032
4.7208741e-005 0.0013416529 0.00015524896 0.0055797594 0.99902374 -0.0084609976
84139.514164519 0.99625564 -0.010928504 1.2432979e-005 0.0014739686 2.4082316e-005 0.0014319393
-1.0329285e-005 0.0014901197 0.99859172 -0.022698855 0.00017688145 0.0059119603
1.4813311e-005 0.0014213597 0.00019570213 0.0059093367 0.99906641 -0.0087714856
89125.093813375 0.99615198 -0.011599312 7.5800958e-006 0.0015616993 4.4043696e-005 0.0015133324
1.9100769e-005 0.0015814956 0.99865735 -0.024128785 0.00020554666 0.0062545789
4.4053042e-005 0.0015263594 0.00019715025 0.0062705586 0.99916971 -0.0092533287
94406.087628592 0.99630845 -0.012240359 1.6975182e-005 0.0016735793 4.9205144e-005 0.0015948177
1.4943755e-005 0.0016865383 0.99849468 -0.025489768 0.00024608462 0.0066246269
3.8819519e-005 0.0015752951 0.00023669508 0.0066179307 0.99913704 -0.0097946515
100000 0.99630219 -0.012938769 1.5285026e-005 0.0017854985 1.8751798e-005 0.001686966
2.2076678e-005 0.0017718577 0.99848318 -0.027050767 0.00025737041 0.0070188642
3.9842602e-005 0.0016940847 0.0002640743 0.0070202779 0.99907917 -0.010357463
105925.37251773 0.99636984 -0.013690582 1.4466995e-005 0.0018709787 5.1875246e-005 0.0017949292
2.0014735e-005 0.0018897175 0.99845821 -0.028637843 0.00030588746 0.0074295285
1.8954932e-005 0.0017941364 0.00028450077 0.0074334904 0.99904525 -0.010779794
112201.8454302 0.99620581 -0.014696304 1.692793e-005 0.0019942373 4.841559e-005 0.0019122128
3.2190776e-006 0.0019868666 0.99859315 -0.030145487 0.00031154358 0.0078451829
4.28085e-005 0.0018826217 0.00029781941 0.0078496188 0.99900323 -0.011582407
118850.2227437 0.99620152 -0.015386676 2.3300376e-005 0.0021302635 5.2099364e-005 0.0019987959
9.1055708e-006 0.0021039168 0.99848408 -0.031865425 0.00033587933 0.0083140079
4.9334092e-005 0.0019965973 0.00034662068 0.008293882 0.99902278 -0.012113908
125892.54117942 0.99639809 -0.01636491 4.6757472e-005 0.0022413107 8.4306012e-005 0.0021302055
3.2400545e-005 0.0022588463 0.99836642 -0.033926841 0.00041074728 0.0088045122
5.2670108e-005 0.0021040139 0.00037915443 0.0088011082 0.99918592 -0.012793129
133352.14321633 0.99645579 -0.01728568 2.7194928e-005 0.002369575 6.4934939e-005 0.0022488714
1.5047879e-006 0.0023874608 0.99837309 -0.03593735 0.00045803894 0.0093084471
4.201664e-005 0.0022566305 0.00042530781 0.0093101179 0.99906373 -0.01337902
141253.75446228 0.99632484 -0.018457152 3.28774e-005 0.0025104885 7.3971809e-005 0.0023819129
3.4396606e-005 0.0025148445 0.99804652 -0.037941031 0.00047651964 0.0098800836
8.2870349e-005 0.0023606145 0.00048110491 0.0098500419 0.99909991 -0.014359694
149623.56560944 0.99621177 -0.019419881 2.399607e-005 0.0026772544 0.00010871512 0.0025212562
2.7576596e-005 0.0026691027 0.99812317 -0.040237781 0.00052752742 0.01044427
0.00010188452 0.0024969468 0.00053804275 0.01045313 0.99894595 -0.015230318
158489.31924611 0.99619925 -0.020501707 4.5311022e-005 0.0028273314 9.880343e-005 0.0026562277
5.1349034e-005 0.0028279696 0.9978646 -0.042434637 0.00059927278 0.011020789
9.471603e-005 0.0026394073 0.00057842635 0.011046334 0.99896753 -0.016036255
167880.40181226 0.99614757 -0.021848064 3.8029641e-005 0.0030093011 0.00012211056 0.0028134661
3.296477e-005 0.0029882146 0.99749357 -0.045163136 0.00065943762 0.011664665
8.3528314e-005 0.0028268292 0.00065803324 0.011660233 0.9988935 -0.017048428
177827.94100389 0.99618816 -0.023184907 5.3831653e-005 0.0031598744 0.00013003436 0.0029721123
3.2703076e-005 0.0031608907 0.99758023 -0.047747415 0.00071001943 0.012351354
0.00011822715 0.0029807433 0.00073894399 0.012353496 0.99876124 -0.017881619
188364.90894898 0.99603045 -0.024352064 3.4536784e-005 0.0033655656 0.00013483656 0.0031324469
4.3713524e-005 0.003373188 0.99726808 -0.050692245 0.00081885076 0.013093493
0.00013937245 0.0031631019 0.00080379861 0.013085094 0.99872476 -0.018979462
199526.23149689 0.99586999 -0.026077095 5.5594261e-005 0.0035599691 0.00016130497 0.0033177719
6.3222382e-005 0.0035648858 0.99712664 -0.053541783 0.00088106963 0.013821345
0.00014939171 0.0033384224 0.00091147568 0.01384155 0.99859643 -0.020131774
211348.90398366 0.99590164 -0.027594665 8.9990965e-005 0.0037720758 0.00016884861 0.0035193365
6.9758149e-005 0.0037831685 0.99697721 -0.05670188 0.00097975275 0.014617731
0.00015733419 0.0035189365 0.00099676137 0.014616546 0.99855429 -0.021195257
223872.11385683 0.99599922 -0.0291883 0.00010820556 0.0040207175 0.00016776616 0.003690622
8.1441496e-005 0.0039891764 0.99671417 -0.060100131 0.0011072753 0.015457503
0.00017472483 0.0037236405 0.0010912342 0.015469225 0.99855411 -0.022257913
237137.37056617 0.99588889 -0.030778699 0.00010334548 0.0042387801 0.00020223687 0.0039579403
8.0611979e-005 0.0042533991 0.99632508 -0.063715905 0.0012101238 0.016347948
0.00021360957 0.0039235973 0.0011943452 0.016339594 0.99850798 -0.023575446
251188.64315096 0.99595934 -0.03270039 8.8048349e-005 0.0044889669 0.00021244434 0.0041687209
0.00011167151 0.0045087817 0.99628216 -0.067336306 0.0013484968 0.017286956
0.00022162154 0.0041683461 0.0013198471 0.017323775 0.99829262 -0.025095329
266072.50597988 0.99577951 -0.034557063 0.00012764294 0.0047635916 0.00023663674 0.0044104941
0.00011698682 0.0047672573 0.9959532 -0.071312234 0.0014912605 0.018271409
0.00023318664 0.0044037714 0.0014792202 0.01828141 0.99816793 -0.026362903
281838.29312645 0.99565035 -0.036837477 0.00013788168 0.0050911922 0.0002369967 0.0046630199
0.00011531684 0.005076983 0.99564898 -0.075403087 0.0016336022 0.019303372
0.00026455382 0.0046594888 0.0016249325 0.019315774 0.99790877 -0.027738241
298538.2618918 0.99543422 -0.038712256 0.00018662459 0.0053794752 0.00029733099 0.0049332194
0.00017357858 0.0053686863 0.99507219 -0.07983689 0.0018068873 0.020404974
0.00027602215 0.0049199336 0.0018172198 0.020419531 0.99780381 -0.029459801
316227.76601684 0.99543417 -0.041032132 0.0001828167 0.0056827622 0.00030651194 0.0052029309
0.00019376447 0.0056945253 0.99456912 -0.084726825 0.0019845865 0.021576785
0.00029779997 0.0051980186 0.0020216301 0.021563705 0.99769396 -0.031104533
334965.43915783 0.99532533 -0.043539699 0.0002141905 0.006005263 0.000355936 0.0054975995
0.00022222429 0.0060263164 0.99419355 -0.089487836 0.0021966528 0.022766914
0.00037309725 0.0054853316 0.0021910905 0.022799226 0.99748242 -0.032847431
354813.38923358 0.99514312 -0.046237107 0.00025839574 0.0064037652 0.00033678286 0.0058035962
0.00025506053 0.0064095594 0.99365079 -0.094708145 0.002428747 0.024092307
0.00038158867 0.0058106286 0.0024070493 0.024094079 0.99742597 -0.03479163
375837.40428844 0.99499881 -0.048702683 0.00028732183 0.0067978813 0.00036792076 0.0061172065
0.00027597841 0.006784298 0.99278367 -0.10031454 0.0026563306 0.025429871
0.00038875593 0.0061375038 0.0026645425 0.025432242 0.99733359 -0.036808729
398107.1705535 0.99484193 -0.051703002 0.00033303263 0.0072113429 0.00040717542 0.006512119
0.00033595657 0.0072005084 0.99212366 -0.10625889 0.002925466 0.02686457
0.00044060824 0.0065136594 0.0029162758 0.026853362 0.99679601 -0.038817752
421696.50342858 0.99483806 -0.054820012 0.00037910306 0.0076220236 0.00045706585 0.0068828887
0.0003915432 0.0076188939 0.99133718 -0.1123891 0.0031930825 0.028389107
0.00045643531 0.0068615568 0.0032052335 0.028379766 0.99676496 -0.041004222
446683.59215096 0.99461412 -0.058196291 0.00044625264 0.0080828592 0.00052432681 0.0072269826
0.00045073114 0.0080900853 0.99043554 -0.11894595 0.003531758 0.029992441
0.00050753611 0.0072640455 0.0035290346 0.029993007 0.99639285 -0.043298244
473151.25896148 0.9942382 -0.061428837 0.00053546182 0.0085791778 0.00055738853 0.0076872562
0.00050428649 0.0085813068 0.9895696 -0.12583955 0.003880603 0.031681135
0.00057625584 0.0076682358 0.0038595754 0.031672265 0.99606508 -0.045704477
501187.23362727 0.9939177 -0.0651353 0.00059546717 0.0090923831 0.00059288729 0.008100884
0.00060115376 0.0090553006 0.98856151 -0.13313133 0.0042490121 0.033446405
0.00059982372 0.0081040924 0.0042700106 0.033471961 0.99601984 -0.048168458
530884.44423099 0.99355906 -0.068984196 0.00067255495 0.0096366834 0.00065912824 0.0085805617
0.00067432399 0.0096223839 0.9874509 -0.14084788 0.0046582171 0.035349071
0.00066332472 0.0085728029 0.0046637682 0.035363138 0.995839 -0.050960768
562341.32519035 0.99319798 -0.072965346 0.00076691265 0.010204259 0.00070120959 0.0090539651
0.00078336889 0.010200881 0.98606485 -0.14905545 0.0051283804 0.037324306
0.00072828267 0.0090612778 0.0051474548 0.037316639 0.99529862 -0.053986415
595662.14352901 0.99302566 -0.076999903 0.00087712327 0.010798654 0.00078150874 0.0095545817
0.00087649922 0.010810007 0.9845739 -0.15769556 0.0056200903 0.039387584
0.00077701733 0.0095540471 0.0056220493 0.039417498 0.99518645 -0.057132199
630957.34448019 0.99274158 -0.081616692 0.0010259922 0.01143539 0.00083961285 0.010126885
0.0010013254 0.011420304 0.98277164 -0.16682814 0.0061927689 0.041586593
0.00084906211 0.01010925 0.0062023071 0.041595679 0.9946624 -0.060385808
668343.91756861 0.99226826 -0.086456522 0.0011529364 0.012137489 0.0009187464 0.010695932
0.0011623559 0.01209705 0.98097652 -0.17641033 0.0067910315 0.04394006
0.00092181982 0.010714777 0.0068021961 0.043945573 0.99421537 -0.063729353
707945.78438414 0.99162078 -0.091592021 0.0013267642 0.012849911 0.0009876783 0.011289941
0.0013221657 0.012818838 0.97870004 -0.18671164 0.0074936352 0.046369031
0.0009900328 0.011319813 0.0075107096 0.046378244 0.99400681 -0.067439839
749894.20933246 0.99120981 -0.096993685 0.0015167624 0.013611569 0.001082542 0.011974393
0.001502179 0.013573516 0.97596443 -0.1972747 0.0082126269 0.04892084
0.0010895192 0.011955951 0.0082249464 0.048933074 0.99328893 -0.071171783
794328.23472428 0.99043417 -0.10277569 0.0016949369 0.014367039 0.0011706974 0.012651233
0.0016931703 0.014375226 0.97407365 -0.20801146 0.0090089133 0.051654935
0.0011676265 0.012638285 0.0090723345 0.051659063 0.99282861 -0.075119756
