!Keysight Technologies,E5080A,MY55100144,A.11.70.03
!Date: Monday, November 13, 2017 17:25:44
!Correction: S11(Full 3 Port(1,2,3)) 
!S12(Full 3 Port(1,2,3)) 
!S13(Full 3 Port(1,2,3)) 
!S21(Full 3 Port(1,2,3)) 
!S22(Full 3 Port(1,2,3)) 
!S23(Full 3 Port(1,2,3)) 
!S31(Full 3 Port(1,2,3)) 
!S32(Full 3 Port(1,2,3)) 
!S33(Full 3 Port(1,2,3)) 
!S3P File: Measurements: <S11,S12,S13>,
!<S21,S22,S23>,
!<S31,S32,S33>:Log Frequency Sweep
# Hz S  RI   R 50
10000 0.99542987 -0.0056079263 1.6992284e-005 -4.89161e-008 4.4044996e-006 0.0001424917
9.5748828e-006 4.3980472e-007 0.47080445 -0.87581217 -1.1853248e-006 1.9539502e-005
-1.2972834e-005 0.00013277309 6.5127267e-007 5.4492134e-006 0.99994504 -0.0023532826
10592.537251773 0.99567199 -0.0059272395 -3.1387613e-006 2.9166699e-006 5.1513948e-006 0.00014194754
2.961188e-007 -6.4477454e-006 0.42565435 -0.8984006 1.1505779e-005 1.6369209e-007
-2.1780131e-006 0.00011583225 -4.3242667e-006 -1.3423364e-006 0.99997002 -0.0021680254
11220.18454302 0.99579352 -0.0062490273 7.6580063e-006 -5.1386669e-006 1.2259336e-005 0.00012747347
1.1377896e-006 -7.2331968e-006 0.37747011 -0.91921222 -1.2705175e-005 8.5386637e-006
-1.5553009e-005 0.00012620131 -9.3868239e-006 -3.1992922e-006 1.0000067 -0.0023728455
11885.02227437 0.99553138 -0.00660697 1.5348398e-005 3.7553559e-006 2.5505784e-005 0.00014368733
6.3584539e-006 -2.7422964e-006 0.32786661 -0.93783373 -1.6772334e-005 8.2464194e-006
-1.3957673e-005 0.00015995833 -4.7131011e-006 2.0744235e-005 1.0000238 -0.002326851
12589.254117942 0.99560237 -0.0069989804 -3.7492509e-006 4.0373939e-006 1.8794703e-005 0.00016746751
2.4829404e-007 -7.4371013e-007 0.2761395 -0.95406151 5.4094448e-006 3.2902155e-006
-2.8635652e-006 0.00015373078 2.2006629e-005 1.6203105e-005 1.0000378 -0.0024844084
13335.214321633 0.9957357 -0.0072550303 9.94116e-006 -4.3517844e-006 7.8172689e-006 0.0001538237
1.6105116e-006 -1.6276498e-006 0.22299601 -0.9680894 4.6410546e-006 2.0922096e-005
3.1659688e-006 0.00018059234 -2.0470152e-005 9.6551257e-006 0.99986953 -0.0025672887
14125.375446228 0.99556279 -0.0078957705 2.7372738e-005 7.5833223e-006 9.6371241e-006 0.00017592449
2.5868628e-006 -6.1933847e-006 0.1682453 -0.97853023 2.9237885e-006 4.9385699e-006
7.6383922e-006 0.00016148205 -6.9701896e-006 -1.2737199e-006 1.0000265 -0.0025908325
14962.356560944 0.99562609 -0.0082863932 8.6738901e-006 -2.8640115e-006 -4.8731772e-007 0.00016620978
5.812069e-006 -7.6051901e-007 0.11261731 -0.98680538 -4.491164e-006 -1.5159822e-005
-8.809121e-006 0.0002063698 1.4306e-006 -3.3802492e-006 0.99997735 -0.0027561153
15848.931924611 0.9957484 -0.008766707 -4.2340203e-006 8.5866603e-008 6.1110368e-006 0.00021545813
-9.4439774e-006 -1.18863e-005 0.055907119 -0.99104398 -7.6894725e-007 -1.0704243e-005
3.0368656e-005 0.00020045918 -6.9277548e-006 -9.1244983e-006 1.0002111 -0.002675622
16788.040181226 0.99566615 -0.009227368 1.2985794e-005 2.032261e-005 1.792719e-005 0.00020169433
-9.6485846e-006 -7.9256115e-006 -0.00079566089 -0.99251372 -3.2699124e-006 -1.2785029e-006
-2.4358376e-006 0.00020643952 -8.0382542e-006 -1.3429925e-005 0.99999416 -0.0028021184
17782.794100389 0.99573123 -0.009645205 -7.8703088e-006 1.2870317e-005 1.2348085e-005 0.00023919104
-2.9172254e-006 -1.4375438e-005 -0.057580687 -0.99058491 4.9961218e-006 9.3179424e-006
3.2738794e-006 0.00021585195 3.7037948e-006 -3.2352664e-006 0.99999171 -0.0027066886
18836.490894898 0.99570459 -0.010320723 -1.8699905e-006 -5.6187159e-006 -1.006983e-005 0.00022384367
5.928377e-006 -2.2685597e-006 -0.11399543 -0.98576301 -1.7211059e-005 4.1532371e-006
2.3575438e-005 0.00022418694 3.1338775e-006 1.0563417e-005 0.99993658 -0.0028324216
19952.623149689 0.99553972 -0.011057743 1.8099716e-005 9.2318951e-006 2.9565185e-006 0.0002446445
3.5679989e-006 4.3898249e-006 -0.16947697 -0.97775692 7.4159366e-006 -8.3509249e-006
7.7966279e-006 0.00024767549 1.6677537e-005 2.6104939e-005 1.0000061 -0.0029965825
21134.890398366 0.99562669 -0.011699163 1.5202288e-006 -1.5712643e-005 -1.0572874e-005 0.00027183213
-6.6921539e-006 1.2445516e-005 -0.2242879 -0.96671259 7.7379254e-006 -2.2512477e-006
-3.6671433e-006 0.0002538824 3.1631373e-006 6.7624001e-006 0.99978894 -0.0030414979
22387.211385683 0.99564016 -0.012265107 -5.5589253e-006 6.2833269e-006 5.5817768e-006 0.00026383434
6.6782932e-006 -1.9961074e-006 -0.27729946 -0.95266223 5.4866623e-006 3.2671901e-006
-6.8017953e-006 0.00027263674 -2.0346361e-005 6.6413454e-006 0.99986917 -0.0031680756
23713.737056617 0.99561536 -0.013074295 -1.6598433e-005 -7.3562069e-006 3.8452217e-006 0.00030655446
1.6570006e-006 -1.8384802e-006 -0.32893997 -0.93596566 -1.2027112e-005 -1.2812186e-005
2.078119e-006 0.00031097181 -8.4808644e-006 -6.7080564e-006 0.99977434 -0.0031371699
25118.864315096 0.99574226 -0.013742289 1.0470902e-005 9.9417693e-006 4.2605116e-006 0.00032308596
1.3418634e-005 3.3025927e-007 -0.37855187 -0.91723645 -7.563935e-006 3.3802519e-006
1.6562011e-005 0.0003161463 2.3562106e-006 -2.339889e-005 0.99982798 -0.0033321742
26607.250597988 0.99579149 -0.01455369 8.8174183e-006 -2.587286e-006 1.949882e-008 0.00033363767
2.7722331e-006 -1.4943016e-006 -0.42604476 -0.89622909 -6.4502854e-007 -1.0396709e-005
1.5055796e-006 0.00032777037 -1.799205e-005 3.6109077e-006 0.9999246 -0.0034995445
28183.829312645 0.9955644 -0.015609533 1.1503378e-005 -2.5451336e-005 -1.8537742e-006 0.00034011281
3.5766814e-006 5.2878418e-006 -0.47151133 -0.87340647 4.4305052e-006 -2.1024364e-006
2.6045084e-006 0.00034804744 -1.377731e-005 -1.2567938e-005 0.99978358 -0.0035895999
29853.82618918 0.99559802 -0.016512854 2.6462392e-005 5.257722e-006 3.9067004e-006 0.00034244839
-3.1691861e-006 8.9002233e-006 -0.51427364 -0.84876913 -7.9404617e-006 1.4058472e-006
-3.4305992e-006 0.00037169931 2.2118888e-006 -6.2109375e-006 0.99990475 -0.0036923713
31622.776601684 0.99566841 -0.017524477 -2.262628e-005 1.416847e-005 8.5556267e-006 0.00041072216
-2.2500926e-005 -1.2406011e-005 -0.55461651 -0.8231712 -5.6037097e-006 -5.7198804e-006
8.7762701e-006 0.00039265954 1.2183088e-005 -2.3154258e-005 0.99988717 -0.0040502651
33496.543915783 0.99555129 -0.018385174 -1.0862454e-005 1.1454311e-005 3.2458641e-007 0.00041383825
1.9730353e-005 1.2850532e-007 -0.59255677 -0.79634249 -6.176736e-006 -1.7790621e-006
-3.8102319e-006 0.00041284761 1.5426571e-005 8.2647321e-006 0.99988121 -0.0041494803
35481.338923358 0.99543607 -0.019482041 2.3605999e-005 2.8322461e-007 -1.4566472e-006 0.00042975697
-1.0343661e-005 -8.5985776e-006 -0.6279974 -0.76863158 -4.7190701e-007 3.0011754e-006
6.4761525e-006 0.00044034142 -9.5933156e-006 -3.61869e-006 0.99978024 -0.0042432626
37583.740428844 0.99557573 -0.02069279 -9.0144231e-006 1.8216329e-005 2.0515032e-005 0.000467109
-4.2378852e-006 3.0545011e-006 -0.66095674 -0.74066925 -4.9032387e-008 7.5922817e-006
1.0842749e-005 0.00044210261 -1.3444351e-005 -9.841782e-007 0.99966115 -0.0045959223
39810.71705535 0.99553603 -0.021843828 1.8753039e-005 1.8047569e-005 1.3809284e-005 0.0004977177
-2.3176344e-006 1.4565714e-005 -0.69148904 -0.71242422 -1.6795781e-005 -5.0202611e-006
1.4759091e-005 0.00047024825 6.1166907e-006 -9.1294278e-006 0.99969405 -0.0047152019
42169.650342858 0.9953422 -0.023180917 -1.2724706e-005 1.2871711e-005 1.0549031e-005 0.00052674132
-5.4718375e-006 2.839352e-006 -0.71976864 -0.68412679 1.0407882e-006 -1.4348981e-006
2.4779456e-005 0.00053519232 -2.9660005e-005 4.6683822e-006 0.9996084 -0.0049562082
44668.359215096 0.99539644 -0.024502451 5.8255687e-006 5.0484882e-006 -3.3475428e-006 0.00055284577
8.0134316e-007 1.3135625e-005 -0.7457931 -0.65581214 -9.9262752e-006 -1.0501169e-005
1.6280304e-005 0.00055406493 2.4007452e-006 -1.4409253e-005 0.99954265 -0.0052810516
47315.125896148 0.99546707 -0.025857478 1.7564766e-005 1.3513129e-005 2.8163859e-005 0.00057470222
-9.3772019e-007 3.2940051e-007 -0.7696867 -0.62779731 6.7931264e-006 1.177499e-006
1.5347619e-005 0.00058538874 -8.2572669e-006 -1.2744023e-005 0.99955845 -0.0053905258
50118.723362727 0.99531001 -0.027464835 2.4125461e-006 -1.1538352e-005 2.0336673e-005 0.0006213407
2.2470451e-007 6.1982573e-006 -0.79154193 -0.60015583 -1.6348341e-006 5.1560673e-006
1.641026e-005 0.00061269273 -1.0732729e-005 9.4091247e-006 0.99934977 -0.0057132128
53088.444423099 0.99541867 -0.029096279 -1.8781237e-005 1.7522907e-005 5.8192509e-006 0.00064265146
6.8656988e-007 6.756417e-006 -0.8116132 -0.57304204 3.3717449e-006 -5.1991074e-006
1.6852791e-005 0.00063412328 -9.0019294e-006 -4.9768374e-007 0.99956882 -0.0059551573
56234.132519035 0.99524999 -0.030881887 8.632677e-007 1.8723722e-005 2.7310667e-005 0.00069789391
-1.9631884e-006 4.8951247e-006 -0.82979345 -0.54662132 -1.2943187e-006 -2.5097027e-006
1.785727e-005 0.00069803122 -3.6033512e-006 3.6807942e-005 0.99935263 -0.006338221
59566.214352901 0.99515742 -0.032699324 -1.138749e-005 1.0827332e-005 1.2225246e-005 0.00072104571
-6.3683906e-006 3.8855269e-006 -0.84636492 -0.52089155 3.4438401e-006 1.4309321e-005
2.5891028e-005 0.00073326722 -3.4452314e-005 -2.4174282e-005 0.99936563 -0.0065240902
63095.734448019 0.99493229 -0.034517042 1.6446347e-005 1.1901411e-006 9.3336548e-006 0.00080330833
1.389045e-005 -4.8828599e-007 -0.86131227 -0.49589211 -2.7427461e-006 -8.2693086e-006
2.3877941e-005 0.00079611817 3.7537735e-005 -1.405048e-005 0.99947995 -0.0068725594
66834.391756861 0.99496472 -0.03655364 -1.5083386e-005 5.4134284e-006 2.5533063e-005 0.00082382612
3.770821e-006 4.8655767e-007 -0.87498569 -0.471659 -7.4403579e-006 2.4902938e-006
2.1404961e-005 0.00081828726 -1.5553391e-005 -1.1104987e-005 0.99936438 -0.0073292125
70794.578438414 0.99486697 -0.038785573 1.9814543e-005 7.1239056e-006 3.1592484e-005 0.00085090974
-1.7684233e-005 8.9733885e-006 -0.88732237 -0.44844893 -6.4592559e-006 -7.4944169e-006
2.373936e-005 0.00088671874 2.2108639e-005 1.7273242e-005 0.99911737 -0.0076250634
74989.420933246 0.99479359 -0.041072022 1.1005081e-005 8.4055155e-006 3.7108362e-005 0.00091251999
-5.9469107e-006 3.8250487e-006 -0.89844882 -0.42590103 -1.3613927e-005 5.7385332e-006
3.5470104e-005 0.00093549013 1.4187998e-005 2.2120958e-005 0.99924481 -0.0081037031
79432.823472428 0.99472183 -0.043350436 -9.572007e-006 1.6513903e-005 5.1060761e-005 0.00097500201
9.7828945e-007 -8.2816705e-006 -0.90852642 -0.4042218 -1.6501561e-005 -1.9475724e-006
4.3884025e-005 0.00098554557 4.0242271e-006 -2.7796912e-005 0.99916714 -0.0084346952
84139.514164519 0.99448091 -0.04586314 -1.9421355e-005 -1.5014434e-005 4.8939713e-005 0.0010235024
1.5477642e-007 -8.0334612e-006 -0.9175542 -0.38357067 4.7122174e-007 1.0080017e-005
3.9752576e-005 0.0010310642 1.3125962e-005 5.2480882e-006 0.99904329 -0.0087967394
89125.093813375 0.99449068 -0.048619151 1.1793693e-006 1.1072765e-006 2.8297396e-005 0.0010888251
-2.4779631e-006 2.6373191e-006 -0.92575866 -0.36369964 4.453751e-006 1.4396909e-005
4.7887137e-005 0.001104499 1.7906119e-005 -7.2054868e-006 0.99915063 -0.0093069952
94406.087628592 0.99431843 -0.05144982 -7.0971078e-006 1.2886041e-005 5.3450505e-005 0.0011747471
-1.5206343e-005 -8.2700526e-006 -0.93312085 -0.34474412 7.5976805e-006 6.8853587e-006
3.9940278e-005 0.0011704362 1.1819004e-005 -3.2812186e-006 0.99920189 -0.0098674428
100000 0.99421173 -0.054454312 -6.007926e-006 -7.1338277e-006 5.8106671e-005 0.0012366277
9.9752142e-006 1.7057646e-008 -0.93969464 -0.32648927 8.6648515e-006 8.7083443e-008
5.2323845e-005 0.0012363981 -1.889447e-005 7.3848328e-006 0.99914926 -0.01035746
105925.37251773 0.99412799 -0.05781557 6.6844891e-006 1.6298844e-005 5.1079634e-005 0.0012901328
-7.429212e-006 1.3072895e-005 -0.94572711 -0.30932006 -9.1941383e-006 4.1984185e-006
6.3328756e-005 0.0012958109 -9.4657744e-006 1.6508835e-005 0.9989174 -0.010960725
112201.8454302 0.99394035 -0.06119084 8.8931447e-006 1.8406543e-005 7.3154413e-005 0.0013826401
1.1651682e-006 3.1424495e-006 -0.95103645 -0.29279619 -1.6851263e-005 1.5748343e-005
7.8142824e-005 0.0013881924 2.8162518e-005 -6.7991477e-006 0.99907672 -0.011439166
118850.2227437 0.99361765 -0.064772725 -2.9931241e-005 1.792353e-006 6.0221035e-005 0.0014315032
-8.4877502e-006 1.3216618e-005 -0.95588154 -0.27713469 9.4187744e-006 1.1953975e-005
8.3832405e-005 0.001473735 -2.4810095e-005 -5.3693889e-006 0.99920166 -0.012123739
125892.54117942 0.99355024 -0.068478301 -1.6477668e-005 1.5205185e-005 8.4917723e-005 0.0015478132
-1.2268481e-005 -6.8407003e-006 -0.96013159 -0.26224524 1.298497e-005 2.6859461e-006
9.6473697e-005 0.0015592253 -1.0884165e-005 5.4785687e-006 0.99918199 -0.012778973
133352.14321633 0.99333102 -0.07257472 -1.0916835e-005 7.1099089e-006 8.8924135e-005 0.0016262571
-2.9257749e-006 1.1553342e-005 -0.96396321 -0.24791114 6.7249266e-006 1.4240543e-005
0.00010898817 0.0016205789 -1.7367451e-005 -1.1413566e-005 0.99892366 -0.013464331
141253.75446228 0.99283147 -0.076896377 -2.7074335e-005 -1.5535699e-005 0.00012174316 0.001756911
3.7770828e-006 1.2826943e-006 -0.96738905 -0.23456247 7.0280106e-007 8.2630113e-006
9.9147284e-005 0.0017140495 1.4568085e-006 -6.6792577e-006 0.99917299 -0.014348949
149623.56560944 0.99239469 -0.081446581 -1.7382565e-005 -5.1841998e-006 0.00014199615 0.0018359135
-2.1052683e-006 1.6417485e-005 -0.97052068 -0.22167526 4.6183732e-006 -5.6219119e-006
0.00012852885 0.0018210163 2.0850342e-005 -4.8890097e-006 0.9989922 -0.015244532
158489.31924611 0.99195033 -0.086214416 -3.6372341e-005 2.7832219e-005 0.00014640263 0.0019278774
-1.5045372e-005 1.7869677e-005 -0.97327584 -0.20950297 -1.0266685e-006 1.1923176e-005
0.00013977959 0.0019256767 4.5049828e-006 1.318136e-006 0.99899238 -0.015860386
167880.40181226 0.9913401 -0.091397144 -5.9589902e-006 4.0802348e-005 0.00015324498 0.0020398386
-1.0031479e-005 7.6760404e-007 -0.97572392 -0.19786774 -8.2819497e-006 1.3038049e-005
0.00016253092 0.0020544953 -4.4530084e-006 -1.0492048e-005 0.99900055 -0.016987393
177827.94100389 0.99086773 -0.096614361 -1.3005122e-006 -6.5695954e-006 0.00015930276 0.002159199
-9.384933e-006 4.2946544e-006 -0.97743177 -0.18589991 5.1559382e-006 1.7918532e-005
0.00019562969 0.0021870956 -6.7730434e-006 1.1052276e-005 0.99881858 -0.017932117
188364.90894898 0.99024045 -0.10231639 -1.7738201e-005 1.6204878e-005 0.00018245965 0.0022735512
-1.1743427e-005 8.9860578e-006 -0.97985327 -0.17714316 -1.0516736e-005 1.6178046e-005
0.00019997425 0.0023049221 2.1413598e-005 3.326184e-006 0.9987517 -0.019019451
199526.23149689 0.98957551 -0.10830832 -9.2179647e-007 2.1023439e-005 0.00021205119 0.0024107755
-1.8980012e-005 2.1172293e-005 -0.9816578 -0.16717789 -5.8081355e-006 2.0449907e-005
0.0002234337 0.0024196615 -2.1941107e-006 1.0297342e-005 0.99868697 -0.020056924
211348.90398366 0.98895824 -0.11481063 -8.2602082e-006 -1.022976e-005 0.00024850658 0.0025708559
-2.4676769e-005 2.1596396e-005 -0.98335373 -0.15782233 2.2492543e-006 2.0448853e-005
0.00024458126 0.0025841931 -2.2487644e-005 1.1561161e-005 0.99861014 -0.021238972
223872.11385683 0.98818922 -0.12146265 -2.0789235e-005 -3.5501484e-006 0.00026703023 0.0026893865
-1.109685e-005 1.2698058e-005 -0.9847495 -0.14896253 -1.2920102e-006 9.3363551e-006
0.00028145942 0.0027119303 2.3638913e-009 8.4838784e-006 0.99842346 -0.022368971
237137.37056617 0.98726875 -0.12855422 -1.7827733e-005 3.1683256e-005 0.00031874029 0.0028615748
-2.3483319e-005 1.4764696e-005 -0.98605675 -0.14064576 -4.9159248e-006 1.5384374e-005
0.00031166352 0.002859395 1.6912601e-005 9.6169006e-006 0.99851614 -0.023593901
251188.64315096 0.98635817 -0.13617581 4.744601e-006 2.1074748e-005 0.00032830346 0.003004808
-2.0632822e-005 1.2128151e-005 -0.98720181 -0.13267352 6.3081291e-007 3.8964158e-006
0.00033817344 0.0030113265 -6.5566383e-006 6.3674311e-006 0.99830812 -0.025134981
266072.50597988 0.98491728 -0.14412728 -2.7336704e-005 1.5301717e-005 0.00038516431 0.003174775
-1.4913592e-005 1.9670091e-005 -0.98819774 -0.12524702 -3.4394382e-006 1.4092461e-005
0.00039027477 0.0032081883 -7.5795356e-006 1.0789474e-005 0.99841046 -0.026338315
281838.29312645 0.98360085 -0.15267836 -3.2577733e-005 -5.4002653e-006 0.00044310457 0.0033737693
-1.6431948e-005 1.7514836e-005 -0.98907882 -0.11814469 7.1910827e-006 3.0521456e-005
0.00042516779 0.0033701453 -5.186761e-006 9.4033167e-006 0.99832308 -0.027901486
298538.2618918 0.98224181 -0.16152833 -1.4094212e-005 2.2073533e-005 0.00046050889 0.0035527267
-2.0630476e-005 2.8681357e-006 -0.98987448 -0.11139483 -1.2273549e-005 1.5177539e-005
0.00045697193 0.003570783 1.0128838e-006 1.0309735e-005 0.99807626 -0.029577436
316227.76601684 0.98067886 -0.17092626 -3.2863834e-005 1.6604276e-005 0.0005158463 0.0037533015
-2.3467208e-005 2.4266716e-005 -0.99059719 -0.10509442 -1.2306971e-005 3.8077236e-005
0.0005189153 0.0037436949 1.6009192e-006 1.4460683e-005 0.99800032 -0.031268205
334965.43915783 0.97871476 -0.18100128 -3.9134888e-005 2.2003112e-005 0.00057769998 0.0039571733
-2.5300171e-005 1.9817637e-005 -0.99129456 -0.099256083 -5.0959807e-006 8.9745872e-006
0.00055490562 0.0039514727 7.436633e-006 4.1042808e-006 0.99764711 -0.032891307
354813.38923358 0.97682405 -0.19125821 -6.0457834e-005 2.2089254e-005 0.00063717616 0.0041959081
-3.7175429e-005 3.1617052e-005 -0.99191767 -0.093440905 -2.0560398e-007 2.0942103e-005
0.00061801902 0.0041789031 1.2210455e-005 1.7030728e-005 0.99771059 -0.034794025
375837.40428844 0.97443467 -0.20242368 -2.4373547e-005 1.396861e-005 0.0007092313 0.0044169556
-4.7251968e-005 2.7178414e-005 -0.99232614 -0.087915674 -1.1713003e-005 2.8398674e-005
0.00069045869 0.0044182129 -9.88801e-006 5.2208972e-005 0.99759775 -0.036959972
398107.1705535 0.9719516 -0.21408959 -3.1912961e-005 3.4321332e-005 0.00079128722 0.0046553705
-3.589374e-005 3.1671665e-005 -0.99285221 -0.082671814 -6.9562411e-006 2.6526384e-005
0.00077950209 0.0046623927 -3.214453e-005 1.8596167e-005 0.99724591 -0.039010718
421696.50342858 0.96912527 -0.22651243 -5.2381758e-005 3.9166007e-005 0.00086595962 0.0049310615
-6.0038619e-005 3.3487235e-005 -0.99304235 -0.077469349 -1.7554134e-005 3.8551974e-005
0.00085996831 0.0049380525 -1.0758307e-005 4.6472949e-005 0.99717522 -0.041174684
446683.59215096 0.96602315 -0.23954463 -5.2897976e-005 3.2802604e-005 0.00094840652 0.005186019
-5.6516026e-005 3.7755286e-005 -0.99310583 -0.073755734 1.8894577e-006 2.0891357e-005
0.00094714941 0.0051932414 -6.6702523e-007 2.1996764e-005 0.99678111 -0.043409258
473151.25896148 0.96236968 -0.25313836 -7.3719908e-005 5.0366973e-005 0.0010373467 0.0054459586
-6.1887615e-005 3.9517956e-005 -0.99386978 -0.069561161 -1.4027212e-005 4.0705749e-005
0.0010505628 0.0054690326 -4.9619865e-007 2.8248309e-005 0.99687082 -0.045900881
501187.23362727 0.95819205 -0.26761264 -6.9223068e-005 6.1665429e-005 0.001138213 0.0057786298
-8.2501661e-005 3.8747246e-005 -0.99425411 -0.06533356 -1.5186123e-006 2.864429e-005
0.0011328929 0.0057655191 -7.9312049e-006 5.0567931e-005 0.99653953 -0.048450571
530884.44423099 0.953628 -0.28280854 -6.9718728e-005 3.6785397e-005 0.0012534837 0.0060500535
-7.9402373e-005 5.4794255e-005 -0.9945029 -0.061241325 -1.6435368e-005 3.9380306e-005
0.0012892954 0.0060923407 -1.6479222e-005 1.2182142e-005 0.99638808 -0.05117552
562341.32519035 0.94884658 -0.29874712 -8.1077356e-005 4.6975478e-005 0.0014313929 0.0064087454
-6.717183e-005 4.9255137e-005 -0.99486858 -0.057582904 -1.5059988e-005 1.9430094e-005
0.0014081986 0.0064228713 -4.0612111e-005 5.0963365e-005 0.99609488 -0.054254171
595662.14352901 0.94340169 -0.31536373 -9.1767732e-005 5.4159958e-005 0.0015343403 0.0067397519
-9.3547213e-005 5.1468964e-005 -0.9950577 -0.054068245 -2.7425408e-006 3.1446816e-005
0.0015622131 0.0067632678 -2.4106028e-005 4.681362e-005 0.99565005 -0.057229847
630957.34448019 0.9374944 -0.33306757 -0.00011292878 7.4202733e-005 0.0017037407 0.0071041822
-9.4685121e-005 5.8458212e-005 -0.99520028 -0.050641373 -1.2388679e-005 2.790397e-005
0.0017271445 0.0070944475 -1.7178039e-005 3.4021985e-005 0.99556178 -0.060637929
668343.91756861 0.93038547 -0.35144317 -0.00011053525 4.6989288e-005 0.0018610127 0.0074875993
