!Keysight Technologies,E5080A,MY55100144,A.11.70.03
!Date: Monday, November 13, 2017 17:25:06
!Correction: S11(Full 3 Port(1,2,3)) 
!S12(Full 3 Port(1,2,3)) 
!S13(Full 3 Port(1,2,3)) 
!S21(Full 3 Port(1,2,3)) 
!S22(Full 3 Port(1,2,3)) 
!S23(Full 3 Port(1,2,3)) 
!S31(Full 3 Port(1,2,3)) 
!S32(Full 3 Port(1,2,3)) 
!S33(Full 3 Port(1,2,3)) 
!S3P File: Measurements: <S11,S12,S13>,
!<S21,S22,S23>,
!<S31,S32,S33>:Log Frequency Sweep
# Hz S  RI   R 50
10000 0.99670494 -0.0058543975 1.2753247e-005 4.7829471e-006 1.3244896e-005 0.00012245447
-2.1890194e-006 2.1955744e-005 0.47089404 -0.87565821 5.7900456e-006 -1.5229584e-005
3.1335583e-007 0.00013428957 -1.1532943e-005 -1.8100411e-005 0.99979854 -0.0023634133
10592.537251773 0.9968853 -0.0063465275 -1.7427699e-005 -1.5296135e-005 2.0117945e-005 0.00012848647
-3.624426e-006 -9.9265617e-006 0.42575613 -0.89826232 -1.1810553e-005 -1.0071854e-005
-7.1719378e-006 0.00013655685 -3.6337963e-007 -1.2459356e-005 0.9999001 -0.002290902
11220.18454302 0.99679118 -0.0067976564 -5.150612e-008 -6.9488428e-006 -1.4408554e-006 0.00014919517
-6.994984e-007 1.099511e-005 0.37755403 -0.91912478 1.5415908e-005 -9.7042175e-006
-1.6510123e-005 0.00012921523 8.1149028e-006 -2.6942187e-006 1.0000039 -0.002346827
11885.02227437 0.99690515 -0.0069032991 6.3280149e-006 9.891286e-006 1.3221567e-005 0.00014772476
-1.3032269e-005 2.2668694e-006 0.32795942 -0.93781537 -2.8366312e-006 -7.2794073e-006
-7.990493e-006 0.00014005465 -2.8178603e-005 3.6776291e-007 1.000155 -0.0023945924
12589.254117942 0.99692082 -0.0074026585 9.3790759e-006 3.9231918e-006 -1.446041e-005 0.00014783467
1.5242786e-006 6.8499367e-006 0.27622151 -0.95405316 -2.3315122e-006 -1.5067054e-005
-3.7069972e-006 0.00017034738 -1.0630549e-006 1.0521045e-005 0.99994189 -0.0025542134
13335.214321633 0.99690235 -0.0078350818 -5.3638682e-006 -5.0128142e-006 2.7322534e-005 0.00017605908
5.2218606e-006 -9.3779563e-006 0.22310199 -0.96779984 -9.3828658e-007 1.9645502e-005
2.1265843e-005 0.00016519305 -3.9995678e-007 -5.1094742e-007 0.99983293 -0.0023878824
14125.375446228 0.99698365 -0.0082982974 2.3818657e-005 1.7990675e-006 8.1373955e-006 0.00019200376
-8.052335e-006 6.6359112e-006 0.16836156 -0.97827429 4.8680922e-006 -1.1974801e-007
2.1649273e-006 0.00018061063 1.6629883e-005 2.3040719e-005 0.99998766 -0.002458035
14962.356560944 0.99686116 -0.0086776642 -1.2381817e-005 -1.6135622e-005 2.3706001e-005 0.00018483803
1.1004168e-005 -1.2606542e-005 0.11278491 -0.986696 -1.0057437e-005 -1.6824806e-006
3.4019249e-005 0.00017954072 5.1017964e-006 -9.6296344e-006 0.99998838 -0.0026211906
15848.931924611 0.99703622 -0.0092789363 -1.3675889e-005 -1.7505954e-005 -8.3647374e-006 0.00020092019
8.3054501e-006 -1.2853637e-006 0.055966333 -0.99107027 9.7066513e-006 5.9618224e-006
-6.8454174e-006 0.00022526922 8.6310474e-006 5.0777949e-006 0.99999976 -0.002453303
16788.040181226 0.99683517 -0.0098678051 2.6843331e-006 6.8149784e-006 -5.1901281e-007 0.00021976302
-1.595432e-005 -1.099169e-005 -0.00068195543 -0.99237674 -1.3256585e-005 1.9598685e-006
1.51444e-006 0.00020443974 1.6620226e-005 -1.4565871e-005 0.99994814 -0.0026380301
17782.794100389 0.99695641 -0.010207282 7.7025807e-006 -9.0942931e-006 1.7207029e-005 0.00023454477
9.6750274e-010 -1.586134e-005 -0.057465438 -0.99040782 -1.0299132e-005 6.530383e-006
-8.6235968e-006 0.00020177824 -1.0545971e-005 9.3402123e-006 1.0000075 -0.0028012302
18836.490894898 0.99695486 -0.010977564 -1.9233859e-005 8.8514726e-006 -1.448326e-006 0.00021674675
-1.5133439e-006 2.5850259e-006 -0.11386929 -0.98568791 -2.1437086e-006 1.0896424e-005
1.7943023e-005 0.00024331047 2.1673142e-005 -3.1544205e-006 0.99990463 -0.0028235007
19952.623149689 0.9969998 -0.011642706 2.1741573e-006 -1.1468459e-005 1.0200652e-005 0.00027456853
9.2140253e-006 -4.3245996e-006 -0.16936238 -0.97759068 -8.6538994e-006 1.3161996e-005
9.8728069e-006 0.00024139963 1.2481898e-005 -6.3882835e-006 0.99990672 -0.002898019
21134.890398366 0.99706733 -0.012370478 5.0644862e-006 1.661128e-005 -9.836084e-007 0.00024840175
1.1728278e-005 -8.8229608e-006 -0.22405408 -0.96645015 1.4665082e-005 1.3024209e-005
-1.5836991e-005 0.00026931957 -6.6937419e-006 3.0963931e-006 0.99987113 -0.0031457315
22387.211385683 0.99689007 -0.013073252 1.8013663e-005 1.0367874e-006 2.5285412e-006 0.0002747481
6.1468916e-007 1.1139613e-006 -0.27721483 -0.95255738 6.7922706e-006 -8.3932282e-006
-1.8515024e-005 0.00029358899 -3.668146e-005 -1.3813877e-005 0.99976718 -0.0032131423
23713.737056617 0.9967863 -0.013988183 -1.0746508e-005 -1.9532868e-005 4.9232863e-006 0.0002990202
-2.4269816e-006 -1.3323783e-005 -0.32872605 -0.93587285 2.6603882e-006 -4.8643747e-006
2.7211652e-005 0.00029070725 -1.1677275e-006 4.1735047e-006 0.99976343 -0.003063122
25118.864315096 0.99683136 -0.014588234 4.4507037e-006 -8.1030275e-006 -2.154494e-005 0.00030790892
5.5750611e-006 3.8452804e-006 -0.37834334 -0.91711879 -8.3897021e-006 3.1457619e-006
9.2412773e-007 0.00028934842 7.1847503e-006 -1.2959351e-005 0.99981737 -0.0034208943
26607.250597988 0.99688041 -0.01545253 -2.2864086e-005 -1.4501935e-006 1.0455603e-005 0.00033452915
-3.8166199e-006 3.9340927e-007 -0.42594886 -0.89609963 9.5786063e-006 -1.2223471e-005
-9.1109396e-006 0.00030822985 -1.2146653e-005 -9.4933002e-006 0.99966526 -0.0034535031
28183.829312645 0.99685055 -0.016527152 3.0806636e-006 3.7123616e-006 1.4742244e-005 0.00035108847
-1.3931415e-006 -2.3555e-007 -0.47134084 -0.87320602 6.1532578e-006 -1.816003e-005
1.2359769e-005 0.00034945252 -4.4913695e-006 1.522872e-005 0.99983323 -0.0036009247
29853.82618918 0.99690735 -0.017370231 -6.1565247e-006 2.1962239e-006 5.8042051e-006 0.00040088239
3.2402152e-006 1.2359218e-005 -0.51403695 -0.84857917 7.3113933e-006 1.2389413e-005
-6.0651291e-006 0.00035025083 3.550544e-005 1.97134e-006 0.99988973 -0.0037399875
31622.776601684 0.99675077 -0.018476322 -6.5101749e-006 4.3091454e-006 9.3108829e-006 0.00038368924
-3.5696341e-006 -1.781325e-005 -0.55433559 -0.82297814 6.7068536e-006 6.3516291e-006
5.723994e-006 0.00039572746 1.4345069e-007 1.0998541e-005 0.99969661 -0.004015428
33496.543915783 0.9969492 -0.019534722 -1.2462203e-005 1.3370622e-005 3.7807858e-006 0.00040372889
-4.8965417e-006 4.2006918e-006 -0.59225535 -0.79612464 7.9574429e-006 8.1709965e-007
-1.0363764e-005 0.0004197112 3.6014055e-005 3.6962331e-006 0.99972916 -0.0041851392
35481.338923358 0.99660927 -0.02076395 4.7476196e-006 -1.0643202e-005 5.698646e-006 0.00043302181
6.0031607e-007 5.6035033e-006 -0.62772769 -0.76855886 1.2870268e-005 -3.9287984e-006
1.7264978e-005 0.0004194981 2.9994069e-006 -1.3765648e-005 0.99976832 -0.0041897818
37583.740428844 0.99671811 -0.021938544 5.1440634e-006 1.5632322e-005 -2.3161658e-005 0.00046781759
-6.6761886e-006 -1.9476795e-006 -0.66078365 -0.74055076 1.0035081e-005 -3.7928858e-006
1.8018589e-005 0.00047614862 -8.7514072e-006 4.7145932e-006 0.99957573 -0.0045463229
39810.71705535 0.99660987 -0.023092598 -1.9173576e-005 4.0629739e-006 8.7313456e-006 0.00050361187
1.6435007e-006 -5.159531e-007 -0.69138801 -0.71235609 1.3753463e-007 1.4869612e-005
8.5043048e-006 0.0004786175 2.4893968e-006 -9.8174378e-006 0.99956423 -0.0046678567
42169.650342858 0.9965229 -0.024622358 2.0492949e-007 1.192044e-005 9.332869e-006 0.00051726407
-6.4206024e-006 6.5456466e-006 -0.71956033 -0.68412131 1.0879568e-005 1.2474802e-005
1.6361852e-005 0.00054088212 -2.4876546e-005 6.919783e-007 0.99940115 -0.0050528147
44668.359215096 0.99660867 -0.026041895 -1.0028177e-005 2.9361225e-005 2.2362294e-005 0.00054114964
2.0205837e-006 9.8963355e-006 -0.74555176 -0.65578008 -3.2769487e-006 -1.7624955e-006
1.7307606e-005 0.00055708428 -2.5394634e-006 3.1501426e-005 0.99949795 -0.0051880134
47315.125896148 0.99660468 -0.02754746 1.3308582e-005 7.3000779e-006 4.0993902e-005 0.00057501864
1.2924872e-006 -1.4908148e-006 -0.76948363 -0.62778848 -6.2130248e-006 -2.4950391e-006
3.1829411e-005 0.0005925126 3.5744783e-006 1.1094303e-005 0.9994632 -0.0054741902
50118.723362727 0.99660033 -0.029170049 2.2724298e-005 2.1618129e-005 1.4667419e-005 0.0006152339
7.2190232e-007 4.7052195e-006 -0.79130435 -0.60002476 2.5757852e-006 5.3761096e-007
1.2818188e-005 0.00062853802 -3.0059278e-005 -1.3831792e-005 0.99947679 -0.0056528598
53088.444423099 0.99648803 -0.03092552 -4.9944765e-006 2.2185346e-005 -7.4987206e-006 0.00066972809
5.552784e-007 4.153098e-006 -0.81138927 -0.57309633 1.4354307e-005 -4.2374436e-006
2.8950817e-005 0.00066062267 -3.2292839e-006 2.3596037e-006 0.99949574 -0.0059787096
56234.132519035 0.99643421 -0.032765541 -1.0149993e-006 1.2551281e-005 2.4068358e-005 0.0006839055
-8.1840444e-006 -5.0575736e-006 -0.82953489 -0.54660708 4.2559145e-006 -7.6743454e-006
1.9688008e-005 0.00068960909 1.461435e-005 -9.0452277e-006 0.99942404 -0.0063403607
59566.214352901 0.996481 -0.034679726 6.4015121e-006 -1.4846591e-005 8.1086446e-006 0.0007612115
-5.1984516e-006 1.4227408e-005 -0.84610611 -0.52085781 -2.6789664e-006 6.108547e-006
1.8762681e-005 0.00073786039 4.8594728e-007 2.7862474e-005 0.99921811 -0.0065668384
63095.734448019 0.99614364 -0.036633994 7.7383138e-006 1.1477135e-005 2.7553759e-005 0.00077139767
-7.5014746e-006 1.8804481e-005 -0.86112577 -0.49592376 -9.247995e-006 6.4696133e-006
2.6963589e-005 0.00077887037 1.3100686e-006 -4.3248324e-006 0.99936241 -0.0071378592
66834.391756861 0.99615479 -0.038916551 -1.1741073e-005 1.2650989e-005 1.2523196e-005 0.0008239171
2.0599698e-006 1.3041737e-005 -0.87470096 -0.47161302 3.731504e-006 1.0304826e-005
2.3753284e-005 0.00081204256 -5.3905533e-006 -1.3580679e-005 0.99947375 -0.0073059481
70794.578438414 0.99595451 -0.041044556 -7.9477568e-006 6.6793887e-006 3.4351709e-005 0.00087674672
2.7827948e-006 8.1437083e-006 -0.8870883 -0.44845611 2.5345739e-006 -6.5094882e-006
2.1243301e-005 0.00086293346 2.6179468e-006 3.7165151e-005 0.99926436 -0.0077309394
74989.420933246 0.99593604 -0.043515678 -1.1244857e-005 -8.5625925e-006 1.6168855e-005 0.00091467425
-4.8273273e-006 6.7817368e-006 -0.89828372 -0.42589083 8.2619654e-006 1.5761536e-005
2.348624e-005 0.00092482311 8.1102298e-006 4.7035683e-006 0.999129 -0.0079036076
79432.823472428 0.99577278 -0.046134695 -9.323735e-007 3.206768e-006 3.7844176e-005 0.00097002299
9.8223063e-007 1.1546716e-005 -0.90835953 -0.40417793 -1.7629407e-005 8.2772044e-007
3.4561377e-005 0.00097353995 1.6332637e-005 2.0025086e-006 0.99922764 -0.0085202996
84139.514164519 0.99555099 -0.048635546 -2.2460674e-005 2.0691004e-005 2.8450446e-005 0.0010442162
2.5185275e-006 1.9592344e-005 -0.91731179 -0.38355297 5.431797e-006 1.312429e-005
3.2171381e-005 0.0010148477 -1.5666339e-005 6.607047e-006 0.99902296 -0.0088154236
89125.093813375 0.99552119 -0.051470049 -6.3402845e-006 -1.8771481e-005 6.2563442e-005 0.0011091832
-3.2599694e-006 8.7432072e-006 -0.92553258 -0.36363611 5.9834559e-007 1.1830173e-005
3.1369691e-005 0.0011121059 -2.2924882e-005 1.3689555e-005 0.99901634 -0.0094363671
94406.087628592 0.9955129 -0.054609761 -4.8370708e-005 2.0758702e-005 5.1534385e-005 0.0011460894
-8.4758722e-006 5.7893435e-006 -0.93288428 -0.34467274 -1.0605739e-005 -7.5919367e-008
6.0449736e-005 0.0011708018 1.5071172e-005 1.1793574e-005 0.99923688 -0.0097274696
100000 0.99529958 -0.057803411 -1.6763024e-005 4.3935927e-007 7.1695998e-005 0.0012132294
-3.5072724e-006 9.4588868e-006 -0.93949908 -0.32650119 -2.5555053e-006 1.5188028e-005
6.0659695e-005 0.0012493067 -1.3338861e-005 -9.9038098e-006 0.99908584 -0.010257385
105925.37251773 0.99500591 -0.061312012 -1.0700579e-005 1.3238195e-005 4.9130122e-005 0.0013040762
-1.0187095e-005 7.4682475e-006 -0.94546634 -0.30928913 -1.8749845e-006 8.2969564e-006
7.1974151e-005 0.0013023874 -1.7792494e-006 1.5511929e-005 0.99897504 -0.010813887
112201.8454302 0.99482054 -0.064807065 -1.2613949e-005 1.5918447e-005 7.4048665e-005 0.0013809779
-7.128313e-006 5.9022391e-006 -0.95080352 -0.29273671 -5.0259628e-006 1.4493141e-005
9.0813643e-005 0.0013927305 3.5486089e-006 2.0705806e-005 0.99896902 -0.011534185
118850.2227437 0.9945901 -0.068584315 3.4227871e-006 1.4365783e-006 0.00012160344 0.0014574819
-5.9194081e-006 2.3673854e-006 -0.95556158 -0.27709895 -1.4738221e-006 4.2990737e-006
7.2122501e-005 0.0014662105 4.7889425e-006 -5.1900424e-006 0.99916881 -0.012119735
125892.54117942 0.9942959 -0.072670698 -2.1554468e-005 2.4662508e-005 8.9590554e-005 0.0015254357
-4.3050095e-006 1.3399483e-005 -0.95988792 -0.26222721 1.2352365e-005 1.2218193e-005
9.296296e-005 0.0015572521 7.4587638e-006 7.1775157e-006 0.9989742 -0.012816385
133352.14321633 0.99402511 -0.077129155 -3.0767294e-006 1.6375889e-005 0.00011591225 0.0016167536
-5.5358937e-006 1.1448734e-005 -0.96374989 -0.24793459 -3.0986897e-007 1.0785189e-005
0.00012082063 0.0016514278 -5.7499155e-006 1.3969651e-005 0.99898875 -0.013358464
141253.75446228 0.99350142 -0.081762113 1.1416488e-005 8.4532257e-006 0.0001284606 0.0017463577
-1.5931655e-005 5.4856682e-006 -0.96716517 -0.23448674 3.5348141e-006 1.5831751e-005
0.0001297468 0.0017292275 -2.0159869e-005 1.4965042e-005 0.99890292 -0.014378403
149623.56560944 0.99321902 -0.086458512 -1.2886535e-005 3.4741548e-005 0.00013477936 0.0018179743
-2.2538757e-006 1.4799503e-005 -0.97031069 -0.22167434 -1.7127528e-005 1.656438e-006
0.00014025293 0.001832566 8.093929e-006 4.0227806e-006 0.99891412 -0.015316517
158489.31924611 0.992724 -0.091461368 -1.9213589e-005 2.2037882e-005 0.00015188614 0.0019478739
-1.2502386e-006 2.2919923e-005 -0.9730736 -0.2095253 -1.4226373e-005 1.1705562e-005
0.00015565044 0.0019431806 -3.0253159e-007 -7.5064472e-006 0.99888688 -0.015894022
167880.40181226 0.9921996 -0.097008094 -6.7242395e-006 2.3995915e-005 0.00018886021 0.0020582585
-6.5330723e-006 3.6056435e-006 -0.97553962 -0.19789231 -6.197758e-006 6.8498525e-006
0.00016585448 0.0020451953 8.9887189e-006 2.090116e-005 0.99893355 -0.017008265
177827.94100389 0.99162203 -0.10268337 -1.5366648e-005 3.4194494e-005 0.00021953382 0.002175597
-3.3002343e-006 1.304122e-005 -0.97711766 -0.18588637 1.1942918e-005 4.1940511e-006
0.00020346208 0.002170067 -1.1356359e-006 -7.0665642e-006 0.99879271 -0.01783254
188364.90894898 0.99082869 -0.10868625 -7.9274887e-006 1.4566076e-005 0.00021830529 0.0022967549
-1.3117771e-005 2.1145515e-005 -0.9796204 -0.17706583 3.3077251e-006 1.010996e-005
0.00019814953 0.0023051244 -4.4542026e-006 -6.6422604e-006 0.99874437 -0.018988196
199526.23149689 0.99001575 -0.11501458 -1.2558827e-005 1.2518632e-005 0.00024053337 0.0024427292
-7.2234579e-006 1.2854031e-005 -0.98145777 -0.16722201 -6.200009e-006 2.6746422e-005
0.00023222079 0.0024134247 -1.8283634e-005 3.73537e-006 0.99859685 -0.020080473
211348.90398366 0.98932904 -0.12194797 -2.6208992e-005 5.1592096e-006 0.00028825179 0.0025689739
-6.4648862e-007 2.4185038e-005 -0.98305821 -0.15777718 -2.5597972e-006 1.1428995e-005
0.00025751541 0.0025810257 -1.0954819e-005 2.0315913e-006 0.9983663 -0.021203145
223872.11385683 0.98835212 -0.12886959 -4.2264408e-005 1.1957287e-005 0.00026762357 0.0027071505
-1.2223064e-005 3.3679116e-005 -0.98454273 -0.14897478 -1.56068e-005 1.4478508e-005
0.00028036541 0.0026785454 -1.2350259e-005 2.0133582e-005 0.99835664 -0.022358982
237137.37056617 0.98736423 -0.13640499 -1.5439496e-006 7.3799019e-006 0.00034984699 0.0028490894
-1.5975444e-005 1.2901846e-005 -0.98577607 -0.14059675 -2.4474866e-006 9.7195243e-006
0.00031454815 0.0028981878 -8.2359893e-006 2.5303603e-005 0.99839008 -0.023496248
251188.64315096 0.98637474 -0.14455287 -3.4796267e-005 2.2484708e-005 0.00035440098 0.0030280545
-3.3894398e-006 4.0169412e-005 -0.98696339 -0.13264981 -1.6749151e-005 6.8473028e-006
0.00035143617 0.0030284175 -8.8054003e-006 7.5785993e-006 0.9983654 -0.025174089
266072.50597988 0.9848454 -0.15300742 -2.499115e-005 3.8828708e-005 0.00041426771 0.0032071639
-2.3256222e-005 2.7589875e-005 -0.98796707 -0.125222 3.3793046e-006 4.6393561e-006
0.00038323068 0.003207217 1.2031581e-005 9.8487844e-006 0.99826145 -0.026426235
281838.29312645 0.98338395 -0.16204065 -1.7301943e-005 1.3989879e-005 0.00042853321 0.0033689106
-1.5102947e-005 3.7303245e-005 -0.98887253 -0.11813606 -6.6685675e-006 1.5090095e-005
0.0004429094 0.0033678459 -6.4685778e-006 1.463637e-005 0.99807876 -0.027841099
298538.2618918 0.98177665 -0.17147735 -3.8815666e-005 5.0726358e-005 0.00049086544 0.0035444484
-4.139058e-005 4.4240158e-005 -0.98962873 -0.11130601 -2.6899601e-005 1.3966102e-005
0.00048373087 0.0035886378 -5.9674308e-006 2.3550541e-005 0.99773043 -0.029484672
316227.76601684 0.97986335 -0.18140861 -1.7977616e-005 3.3741904e-005 0.00053741166 0.0037653209
-2.4984995e-005 4.1872288e-005 -0.99031985 -0.10506226 -6.289908e-006 1.4359776e-005
0.00053537369 0.003777669 1.2495008e-005 2.5037079e-005 0.99775642 -0.031220987
334965.43915783 0.97785592 -0.19197099 -3.0908315e-005 3.9337716e-005 0.00061711017 0.0039774408
-3.4417582e-005 2.9532386e-005 -0.99107248 -0.09923923 9.7903887e-007 1.3760696e-005
0.00061841164 0.0039843922 -3.251017e-006 9.9548179e-006 0.99753118 -0.032810971
354813.38923358 0.9756664 -0.20295684 -3.7104994e-005 4.6019897e-005 0.00067916804 0.0041882629
-2.9521363e-005 3.3901273e-005 -0.99173814 -0.093382619 -7.0017304e-006 2.3763989e-005
0.00066847162 0.0041765212 1.437641e-005 1.4075476e-005 0.99758977 -0.034889095
375837.40428844 0.97316098 -0.21463938 -3.7765072e-005 5.4977903e-005 0.00073322217 0.0044195908
-3.1174193e-005 4.1185838e-005 -0.99210668 -0.087940142 -9.8609353e-006 3.5019879e-005
0.00072160771 0.0044371001 1.0467661e-006 1.3290982e-005 0.99744213 -0.036813047
398107.1705535 0.97020066 -0.22713092 -3.9892984e-005 4.8056951e-005 0.00080760423 0.0046437052
-3.8032864e-005 4.8238726e-005 -0.99263352 -0.082656898 -8.9242649e-006 2.6238864e-005
0.00081249821 0.0046774442 -1.3302229e-005 3.0700296e-005 0.99716938 -0.039008126
421696.50342858 0.96701866 -0.24017665 -4.5280536e-005 4.8541122e-005 0.00088534463 0.004906476
-4.8037859e-005 4.7927904e-005 -0.99280715 -0.077498965 -4.8536258e-006 2.3521836e-005
0.00088254706 0.0049027796 5.9937065e-006 3.8195722e-005 0.99699599 -0.04118342
446683.59215096 0.96335089 -0.25400555 -6.3887914e-005 5.4519453e-005 0.00098260795 0.005177822
-5.5470889e-005 4.2073661e-005 -0.99288273 -0.073779583 7.0533538e-006 1.8638524e-005
0.00099648302 0.0051956233 8.8477318e-006 3.9343377e-006 0.99668521 -0.043348562
473151.25896148 0.95954031 -0.2684451 -5.8991274e-005 3.0002866e-005 0.0011020659 0.0054446505
-5.9416969e-005 5.5081659e-005 -0.99363744 -0.069553562 -2.4552555e-005 3.18237e-005
0.0010958746 0.0054809749 -2.4457024e-006 3.1043157e-005 0.99658036 -0.045870978
501187.23362727 0.95483524 -0.28365296 -7.752185e-005 5.8431342e-005 0.0011893609 0.0057718768
-7.1397422e-005 7.2038449e-005 -0.99397206 -0.065324962 -1.780421e-005 2.1136855e-005
0.0012152073 0.0057862559 -1.9871492e-005 2.5920239e-005 0.99626237 -0.048466235
530884.44423099 0.94978368 -0.29959804 -8.4046704e-005 4.4136363e-005 0.0013399302 0.0060654804
-7.4446412e-005 6.8129666e-005 -0.99432003 -0.061319862 -8.4802032e-006 3.6717047e-005
0.0013244302 0.0060885637 4.8287707e-006 1.3764814e-005 0.99625027 -0.051168911
562341.32519035 0.94439954 -0.31644702 -9.0195332e-005 5.9441842e-005 0.0014504152 0.0064008851
-8.6955704e-005 6.5985529e-005 -0.99465317 -0.057564024 -1.9709625e-005 3.859428e-005
0.0014530766 0.0064050565 -1.8515952e-005 3.8101913e-005 0.99593776 -0.054093651
595662.14352901 0.93829703 -0.33382094 -9.5711512e-005 8.4901731e-005 0.0016310745 0.0067267655
-9.5218791e-005 7.7798111e-005 -0.99482226 -0.053981993 -2.9875897e-005 3.5068409e-005
0.0016361533 0.0067411084 -8.5632682e-006 3.6684953e-005 0.99580944 -0.057345111
630957.34448019 0.93157995 -0.35258058 -0.00010139535 6.6729772e-005 0.0017859335 0.0070744958
-0.00010849351 7.514163e-005 -0.99498928 -0.050656032 -9.7205939e-006 3.8610535e-005
0.0017959884 0.0070986147 -2.4360637e-005 3.5898101e-005 0.99548256 -0.060534444
668343.91756861 0.92382365 -0.37185347 -9.8712619e-005 7.6307399e-005 0.0019659258 0.0074590463
