!Keysight Technologies,E5080A,MY55100144,A.11.70.03
!Date: Monday, November 13, 2017 17:23:55
!Correction: S11(Full 3 Port(1,2,3)) 
!S12(Full 3 Port(1,2,3)) 
!S13(Full 3 Port(1,2,3)) 
!S21(Full 3 Port(1,2,3)) 
!S22(Full 3 Port(1,2,3)) 
!S23(Full 3 Port(1,2,3)) 
!S31(Full 3 Port(1,2,3)) 
!S32(Full 3 Port(1,2,3)) 
!S33(Full 3 Port(1,2,3)) 
!S3P File: Measurements: <S11,S12,S13>,
!<S21,S22,S23>,
!<S31,S32,S33>:Log Frequency Sweep
# Hz S  RI   R 50
10000 0.9967041 -0.0016270066 2.226664e-006 0.00041466791 6.5253033e-008 0.00018524849
-1.528149e-006 0.00038649322 0.9988606 -0.0037711547 2.2292787e-005 0.0007153991
4.3129476e-006 0.00019278366 6.02716e-006 0.0007072899 0.9999643 -0.0023866876
10592.537251773 0.99684525 -0.0018510825 1.1412798e-005 0.00039905857 1.9651126e-005 0.00015653402
2.3395285e-006 0.00041710178 0.99870962 -0.0038636688 -8.2448705e-006 0.00076947844
-8.1321168e-006 0.00015787654 -6.901992e-006 0.00076265883 1.0000608 -0.0022292361
11220.18454302 0.99709982 -0.0019842025 -1.2937723e-005 0.00043586196 8.4086496e-006 0.00016776612
4.8259144e-006 0.00041797914 0.99893975 -0.003945733 -2.8228732e-007 0.00079608784
1.060726e-006 0.00017322724 1.7002458e-006 0.0007980243 1.0001847 -0.0023333374
11885.02227437 0.99682468 -0.0020259232 1.5585912e-005 0.00046488235 -2.6123523e-006 0.00018626107
-5.6058741e-007 0.00047332118 0.99887842 -0.0040569352 2.3384589e-005 0.00085722678
-3.6598858e-006 0.00018982042 -1.3402891e-005 0.00085826055 1.0001421 -0.0023605621
12589.254117942 0.99684072 -0.0023192966 -4.0712066e-006 0.00049139 -6.6113985e-006 0.00021987148
-8.1067865e-006 0.0004902581 0.99900371 -0.0044010379 1.4285881e-005 0.000898247
-1.062239e-005 0.00019411574 8.3409022e-006 0.00090643769 0.99998951 -0.0025039806
13335.214321633 0.99703294 -0.0020969487 2.9948886e-005 0.00052731362 -1.237168e-005 0.00021317397
1.3356815e-005 0.00052521238 0.99890667 -0.0045720004 2.8491246e-005 0.00094158627
-1.2183363e-009 0.0002007735 -3.4170714e-006 0.00097666925 0.99992102 -0.0024277847
14125.375446228 0.9969849 -0.0025775686 -1.845115e-006 0.00056341628 -1.330414e-005 0.00021409182
-6.1538444e-006 0.00055185286 0.99900937 -0.0046642693 1.1757081e-005 0.00098905782
-4.4604813e-006 0.00022009716 1.3440284e-005 0.0010241917 1.0000205 -0.0023797015
14962.356560944 0.99693143 -0.0026622273 -2.365981e-005 0.00057981932 -6.7619258e-006 0.00023900977
-4.9183604e-006 0.00056406244 0.99898028 -0.0048992285 3.2696709e-005 0.0010655622
6.134124e-007 0.00024128813 4.3311266e-007 0.0010762593 1.0000601 -0.0026471154
15848.931924611 0.99707687 -0.0028505146 -2.4665685e-008 0.00063091639 7.9285373e-006 0.00026518395
-4.1616981e-006 0.00061725266 0.99880922 -0.0049724774 1.4079536e-005 0.0011451014
-2.8755026e-006 0.00024647301 2.9806793e-007 0.0011400635 1.0001106 -0.0023790516
16788.040181226 0.997024 -0.0029617928 -1.9529243e-005 0.00066694384 -1.998124e-005 0.00026901453
2.9642702e-006 0.00064922957 0.99895597 -0.0053775543 5.1363691e-006 0.0012030478
5.437777e-006 0.0002706323 -9.0803869e-006 0.0011881654 1.0000588 -0.0028359534
17782.794100389 0.9969666 -0.0030168875 -1.2122435e-005 0.00070114189 1.3909633e-005 0.00028406727
1.5086996e-005 0.00069502997 0.99901712 -0.0057166037 1.7934732e-005 0.0012837567
2.9542734e-005 0.00028165276 1.2978997e-005 0.0012751651 0.99989903 -0.0026784402
18836.490894898 0.99697322 -0.003236223 1.478601e-006 0.00075463316 1.1366742e-005 0.00029411993
1.1328455e-005 0.00072799268 0.99918944 -0.0058743092 1.9917556e-005 0.001340949
1.5762707e-005 0.00030118652 1.8131941e-005 0.0013356584 0.99981195 -0.0028579545
19952.623149689 0.99701935 -0.0035453779 4.892338e-006 0.00079884287 -1.1366194e-005 0.00030937916
3.7733946e-006 0.00076871284 0.99904466 -0.0061440314 2.114615e-005 0.0014264899
6.0409639e-006 0.0003119637 8.3484974e-006 0.0014013962 0.99992573 -0.0029758587
21134.890398366 0.9969877 -0.0037643556 -4.0004279e-006 0.00081663625 1.3992034e-005 0.00034913656
7.37218e-008 0.0008328486 0.99898493 -0.0066574807 1.8381534e-005 0.0015097196
-2.0823609e-005 0.00032957725 1.7633074e-005 0.0015052513 0.99988008 -0.0031580532
22387.211385683 0.996984 -0.0039679292 2.9846153e-006 0.00088763103 -1.0805215e-005 0.00033969182
-3.7959746e-006 0.00087440392 0.99900794 -0.0068707024 2.6679078e-005 0.0015819301
1.4928422e-006 0.00035624835 4.0030909e-006 0.0015780063 0.99992406 -0.0031075196
23713.737056617 0.99703848 -0.0043443744 7.7669074e-006 0.00092705939 1.349131e-005 0.00037809814
1.7908946e-005 0.00090952043 0.99904996 -0.0074912002 1.8725255e-005 0.0016854233
-1.2266235e-005 0.00038496469 4.0044259e-005 0.0016985616 0.99978155 -0.0031679773
25118.864315096 0.99701887 -0.0044073365 -1.652835e-006 0.00097750349 2.5821637e-005 0.00040218045
1.5706506e-005 0.0010095468 0.99914479 -0.0076487977 1.3001268e-005 0.0017743949
2.320606e-006 0.0004131342 1.6751299e-005 0.0017690113 0.99970633 -0.0033879026
26607.250597988 0.99707359 -0.0045447708 -2.0391774e-006 0.0010343574 -3.850656e-006 0.00046609723
1.1949853e-005 0.0010312883 0.99911034 -0.0080658374 2.8415212e-005 0.0019035053
7.3096953e-006 0.00042564701 2.5795696e-005 0.001883336 0.99992532 -0.0035804012
28183.829312645 0.99703085 -0.0050626267 3.4578238e-006 0.0011064259 2.5905552e-005 0.00045232603
8.9861242e-006 0.0011014015 0.99918276 -0.008426832 3.5170764e-005 0.0020064393
6.3964148e-006 0.00045256823 1.4562285e-005 0.0020167197 0.99983561 -0.0036155549
29853.82618918 0.99707049 -0.0051546693 1.726251e-005 0.0011689385 -6.1178753e-007 0.0004717258
8.3330688e-006 0.00115746 0.9991228 -0.0089134155 3.934047e-005 0.0021406258
1.4082444e-005 0.00049699115 5.4684864e-005 0.0021142829 0.99988961 -0.0035858676
31622.776601684 0.99705833 -0.0056047933 -2.1520889e-006 0.0012446267 -4.047969e-006 0.00050290162
3.1226095e-006 0.0012247801 0.99904627 -0.0094895447 2.5532219e-005 0.0022485114
4.234179e-006 0.00050944998 3.6103189e-005 0.0022633316 0.99974287 -0.0040847478
33496.543915783 0.99695235 -0.0057479162 -2.3153257e-006 0.0013063452 3.0841718e-005 0.00053408579
1.266551e-005 0.0013071471 0.99917281 -0.010014865 4.136494e-005 0.0023940268
1.1981511e-008 0.00055099849 3.2874032e-005 0.0023548082 0.99979097 -0.0041447226
35481.338923358 0.99688542 -0.0062269261 -5.1269558e-006 0.0013918425 2.0002873e-005 0.0005662723
1.1242615e-005 0.001398796 0.99920958 -0.010618783 3.2378219e-005 0.0025260372
8.8246879e-006 0.00057120109 4.7563517e-005 0.0025156362 0.99975365 -0.0043006041
37583.740428844 0.9968974 -0.0065500443 1.6581491e-005 0.0014768791 7.5326043e-006 0.0006186837
1.0279052e-005 0.0014641475 0.99907702 -0.011180878 3.8168502e-005 0.002647439
-1.1155021e-005 0.00061453314 4.5815385e-005 0.0026443151 0.99957937 -0.0045388597
39810.71705535 0.99711591 -0.0069100205 4.0378112e-005 0.0015440128 8.2637871e-006 0.00063575449
1.960169e-005 0.0015643804 0.9992469 -0.011946918 3.7265781e-005 0.0028325692
3.1635618e-006 0.0006436595 3.4388759e-005 0.002833673 0.99967045 -0.0047002886
42169.650342858 0.99701315 -0.0072260736 9.934618e-006 0.0016496828 3.2812237e-005 0.00067910616
2.7949791e-005 0.0016459519 0.99904603 -0.01254599 3.5501034e-005 0.0029980254
1.899791e-006 0.00067457574 4.0962284e-005 0.0029983937 0.99948126 -0.0048852619
44668.359215096 0.99700356 -0.0077278679 1.0637867e-005 0.0017391901 1.1037024e-005 0.00072252599
1.7972678e-005 0.0017418554 0.99908531 -0.013265366 7.3773757e-005 0.0031684698
4.7271824e-006 0.0007123918 5.6042514e-005 0.0031712127 0.99942219 -0.0052109882
47315.125896148 0.99706262 -0.0081959013 2.4369401e-005 0.0018607399 -6.5436957e-006 0.00076423021
1.6096559e-005 0.001852398 0.99898326 -0.014104495 6.8215086e-005 0.0033492853
-3.0106758e-006 0.00077131169 5.1773757e-005 0.0033694713 0.99942541 -0.00551133
50118.723362727 0.99694002 -0.0086473143 2.0858641e-005 0.0019357774 -9.0112917e-007 0.00081256509
5.3088656e-006 0.0019578857 0.99895215 -0.014950141 6.5603126e-005 0.0035551058
6.3199025e-008 0.00079508801 6.5510474e-005 0.0035649864 0.99936867 -0.0056810845
53088.444423099 0.9970535 -0.009265122 3.4730427e-005 0.0020800172 2.8923596e-005 0.00087012083
3.2289474e-005 0.0020597617 0.99898261 -0.015720075 7.9494072e-005 0.0037524425
2.072025e-005 0.00086761912 5.3725282e-005 0.003764926 0.99952155 -0.005939669
56234.132519035 0.99693835 -0.0098041417 1.3932904e-005 0.0022030494 3.2922235e-005 0.00088847103
9.2428509e-006 0.0021960123 0.99896961 -0.016792916 7.0574933e-005 0.0039873756
2.5692072e-005 0.0009105769 6.6201857e-005 0.0040155859 0.99933594 -0.0062594935
59566.214352901 0.99697727 -0.010351175 2.8666625e-005 0.0023267569 6.0370439e-006 0.00095185125
1.0783424e-005 0.0023332392 0.99887365 -0.017761502 9.0030524e-005 0.0042336402
1.9397376e-005 0.00097464817 8.9602348e-005 0.0042418339 0.99928719 -0.0066275047
63095.734448019 0.99689442 -0.010797941 3.4174398e-005 0.002453916 -3.837617e-006 0.0010352022
3.0427645e-005 0.0024665359 0.99880898 -0.018884929 0.00010201828 0.0044819349
2.4474552e-005 0.0010012112 9.9175013e-005 0.0044723456 0.99927557 -0.0068432121
66834.391756861 0.99687493 -0.011437604 1.6520602e-005 0.0026133002 9.7363022e-007 0.0010661985
2.7856096e-005 0.0026020776 0.99878037 -0.019959612 0.00015843257 0.0047221109
1.4232794e-005 0.0010723177 0.00012801834 0.0047374647 0.99937701 -0.0073163384
70794.578438414 0.99682701 -0.012248907 3.4753946e-005 0.0027680609 2.8705035e-005 0.0011513819
5.4524797e-005 0.0027493141 0.99861193 -0.021063402 0.00015203936 0.0050038341
2.0970741e-005 0.0011396473 0.00016446828 0.0050254259 0.99907309 -0.0078381244
74989.420933246 0.99699318 -0.013006539 3.7727677e-005 0.002922043 1.4544449e-005 0.0011847682
3.9100276e-005 0.0029208909 0.99867964 -0.022244947 0.00014666759 0.0053148242
2.4962943e-005 0.0012137138 0.00014859971 0.0053065578 0.99913454 -0.0080655674
79432.823472428 0.99686158 -0.013648022 4.5269055e-005 0.0030900205 2.7689321e-005 0.0012677185
2.8188755e-005 0.0031102297 0.9985193 -0.023483504 0.00017479027 0.0056308275
3.2828386e-005 0.0012687696 0.00019389164 0.0056203264 0.99896997 -0.0085082054
84139.514164519 0.99686646 -0.014365392 8.2438819e-005 0.0032747695 1.5681177e-005 0.0013438353
4.9207709e-005 0.0032685373 0.99861175 -0.024742221 0.00019809177 0.005944863
2.2629309e-005 0.0013562462 0.00019307273 0.0059625376 0.99903286 -0.0088371066
89125.093813375 0.99684435 -0.015235697 4.8159196e-005 0.0034765848 2.8007247e-005 0.001415426
5.9470913e-005 0.0034798915 0.99846274 -0.026130304 0.00020892324 0.0063242326
4.9965751e-005 0.0014294585 0.00020979486 0.0063259769 0.9990977 -0.0093639055
94406.087628592 0.99679697 -0.016073499 5.8057805e-005 0.0036853098 2.5186269e-005 0.0015361618
5.8505011e-005 0.0036736878 0.99838859 -0.02754372 0.00026143325 0.0066758557
3.4302844e-005 0.0015221802 0.00024055451 0.0066857026 0.99912757 -0.0097394679
100000 0.99676496 -0.016949803 7.7334742e-005 0.0039052698 9.511723e-006 0.0015895909
0.00010047214 0.00390701 0.99816763 -0.029347179 0.00025965829 0.0070709609
2.8231383e-005 0.0015968542 0.00027893196 0.0070725875 0.99905783 -0.01030234
105925.37251773 0.99695605 -0.018024536 7.8243e-005 0.004118463 5.0798939e-005 0.0016926033
7.6751698e-005 0.0041435487 0.99832189 -0.031027701 0.00030825968 0.0074781873
2.5909536e-005 0.0016956422 0.00028502409 0.007466366 0.99883467 -0.010936637
112201.8454302 0.99698591 -0.019150047 7.6628261e-005 0.0043744952 4.4597444e-005 0.0018080914
9.0060756e-005 0.004386113 0.99816519 -0.032948669 0.00032862613 0.007929692
5.2473606e-005 0.0018137135 0.00031100016 0.0078951502 0.99907696 -0.011584278
118850.2227437 0.9968695 -0.020263296 0.00011258954 0.0046281107 4.8576887e-005 0.001904221
9.4749681e-005 0.0046479041 0.99840981 -0.03472086 0.00034375573 0.0083715301
3.1762007e-005 0.0019170665 0.00034393038 0.0083953766 0.99908477 -0.012172461
125892.54117942 0.99703574 -0.021433255 0.00011659404 0.0049011726 4.6331155e-005 0.0020101455
0.00010443709 0.0048928065 0.99823356 -0.036928192 0.00041007882 0.0088567026
6.5997207e-005 0.0020295985 0.00038394119 0.0088714641 0.99905902 -0.012849212
133352.14321633 0.99686295 -0.022620799 0.00013827506 0.0052124606 5.0197552e-005 0.002121181
0.00013004159 0.0051833279 0.99817747 -0.039124988 0.00043868177 0.0093916571
6.1472252e-005 0.0021153812 0.00044762297 0.0094095655 0.99887419 -0.01361313
141253.75446228 0.99686486 -0.024113156 0.00014282702 0.0055048303 6.1539875e-005 0.0022664163
0.00014752807 0.0055141049 0.99793303 -0.041331012 0.00048730429 0.0099210832
5.9514321e-005 0.0022722101 0.0005066187 0.0099490378 0.99905246 -0.014240867
149623.56560944 0.99686486 -0.025496099 0.00015059784 0.0058300956 8.2930033e-005 0.0023754088
0.00016444927 0.0058147917 0.99769837 -0.043764111 0.00056355877 0.01049897
7.5730713e-005 0.002387455 0.00055823225 0.010494642 0.9988395 -0.015246549
158489.31924611 0.99683028 -0.02696728 0.00019079958 0.0061884299 8.8496548e-005 0.0025387907
0.00017745109 0.0061648563 0.99769157 -0.046412177 0.00059949356 0.011120611
7.5175012e-005 0.0025255356 0.00060777733 0.011115339 0.99897695 -0.015930464
167880.40181226 0.99660885 -0.028800609 0.00020840802 0.0065255323 7.5192132e-005 0.002676633
0.00020423662 0.0065533817 0.99737 -0.04915154 0.00068699126 0.011753203
0.00011410793 0.0026564638 0.00067702326 0.011742676 0.99884415 -0.017070334
177827.94100389 0.99661338 -0.030363563 0.00024017271 0.0069485623 6.7715846e-005 0.0028168825
0.00022681065 0.0069354824 0.99729908 -0.052086353 0.00077223137 0.012451285
8.760918e-005 0.0028375066 0.00075776677 0.012437255 0.99871862 -0.017829318
188364.90894898 0.99641889 -0.032136187 0.00026372794 0.0073423465 0.00011191663 0.0029880528
0.00026280893 0.0073647951 0.9969942 -0.055087086 0.00086352089 0.01316305
0.00011503247 0.0029813095 0.00084564672 0.013184168 0.9985038 -0.018988248
199526.23149689 0.99636936 -0.034027986 0.00029149046 0.0077991579 9.1059344e-005 0.0031723494
0.00030783532 0.0077962927 0.99689913 -0.058306478 0.00093927706 0.013930277
0.00011259574 0.0031845451 0.00095304777 0.013918575 0.99849755 -0.020090939
211348.90398366 0.99625361 -0.036023375 0.00032984192 0.0082519781 0.00012316367 0.0033452213
0.00031793895 0.0082389498 0.99649572 -0.06177336 0.001050188 0.014713445
0.00014571514 0.003350327 0.0010160039 0.01472127 0.99851406 -0.021130277
223872.11385683 0.99624318 -0.038071319 0.00037203956 0.0087553989 0.0001346284 0.0035337585
0.00034305023 0.0087276474 0.99633622 -0.065427616 0.0011520826 0.015576169
0.0001440036 0.003545474 0.001140781 0.015575709 0.99846381 -0.022384377
237137.37056617 0.99624026 -0.040457744 0.00041779247 0.00925826 0.00016322212 0.0037369472
0.00042104188 0.0092626642 0.99587172 -0.069444813 0.0012935034 0.016471995
0.00016536328 0.003753558 0.0012548589 0.016478574 0.99838656 -0.02347751
251188.64315096 0.99614066 -0.042765245 0.00047390989 0.0097947689 0.00014773465 0.0039769867
0.00045188956 0.0098350467 0.99575973 -0.073485866 0.001408234 0.01740546
0.00017595256 0.0039581009 0.0014263998 0.017404785 0.99838454 -0.02500301
266072.50597988 0.99575394 -0.045285426 0.00052321167 0.0103845 0.00019865856 0.0041782353
0.00052101235 0.010413702 0.99530876 -0.07772287 0.0015643633 0.018422965
0.00018680043 0.0042044697 0.0015556425 0.018414363 0.99802434 -0.026388256
281838.29312645 0.99580675 -0.048132647 0.0005990045 0.011019804 0.00020136904 0.0044174241
0.00059245183 0.011018284 0.99484032 -0.082182497 0.0017102178 0.019448014
0.00020812931 0.0044257776 0.0017433686 0.019440955 0.99803257 -0.027752556
298538.2618918 0.99553365 -0.050841101 0.00066698081 0.011673016 0.00022556471 0.0047067245
0.0006721844 0.011677751 0.99440587 -0.086988792 0.0018693188 0.020546796
0.00021329224 0.0046765562 0.0018849387 0.020553393 0.99783492 -0.029606828
316227.76601684 0.99549401 -0.053822771 0.00074344955 0.012375626 0.00024584116 0.0049535236
0.00075445918 0.01237547 0.99386257 -0.092244387 0.0020972257 0.021709286
0.00023951038 0.0049467562 0.0021005005 0.021723635 0.997513 -0.031217037
334965.43915783 0.99510485 -0.057023514 0.00084973621 0.013089841 0.00026131116 0.0052370732
0.00084688375 0.013115257 0.9932735 -0.09764681 0.0023070094 0.022932349
0.00026082384 0.0052371291 0.0022965777 0.022958251 0.99748439 -0.032845095
354813.38923358 0.9949674 -0.060339436 0.00091867178 0.013874153 0.00030987689 0.0055118278
0.00095409353 0.013884448 0.99247038 -0.10335719 0.0024941748 0.024251811
0.00029614437 0.0055293185 0.0025436678 0.024258709 0.99729025 -0.034835976
375837.40428844 0.99478638 -0.063946046 0.0010861742 0.014671123 0.00032297792 0.0058368435
0.0010696246 0.014692386 0.99174839 -0.10938454 0.0027814659 0.025625739
0.00030021759 0.0058429181 0.0027748249 0.025614353 0.99720943 -0.03673156
398107.1705535 0.99443775 -0.067786552 0.0012054073 0.015551066 0.00034049293 0.006168331
0.0012076398 0.015534618 0.99085522 -0.115646 0.0030494425 0.027047943
0.00034280797 0.0061724107 0.0030640208 0.027062587 0.99694562 -0.038820505
421696.50342858 0.99421519 -0.071663044 0.0013635677 0.01647147 0.00036753679 0.0065284045
0.0013931192 0.016486265 0.99016166 -0.12246567 0.0033293192 0.028559279
0.00038579662 0.0065331329 0.0033778271 0.028579773 0.99673951 -0.041077249
446683.59215096 0.99383682 -0.075924478 0.0015404323 0.017456496 0.00039332669 0.006909627
0.0015635132 0.017447975 0.98905402 -0.12964815 0.0036774797 0.030171903
0.00039449579 0.006911471 0.0036965485 0.030216806 0.99632972 -0.043340083
473151.25896148 0.99340785 -0.080344021 0.0017713027 0.018483732 0.00041155849 0.0072801784
0.0017598671 0.018465653 0.98791653 -0.13706316 0.004045215 0.031883348
0.00042493775 0.0073099546 0.0040567517 0.031895183 0.99622351 -0.045787804
501187.23362727 0.99282002 -0.085112393 0.0019740434 0.019565718 0.00046523969 0.0077132531
0.0019873821 0.019570833 0.9866209 -0.14525449 0.0044474262 0.033659913
0.00046742515 0.0077175647 0.0044757221 0.033683516 0.99595886 -0.048391402
530884.44423099 0.99213058 -0.09016525 0.0022251927 0.020714296 0.00048473798 0.0081590638
0.0022298945 0.02067052 0.9855659 -0.15332465 0.004876568 0.035532828
0.00051459158 0.008189314 0.0049035284 0.035561018 0.99588138 -0.051063713
562341.32519035 0.99185437 -0.095344938 0.002502026 0.021917637 0.00054497988 0.0086022392
0.0025062023 0.021913227 0.98363298 -0.1623161 0.0053779543 0.03752974
0.00055816554 0.0086380076 0.0054141609 0.037544142 0.99531054 -0.054066569
595662.14352901 0.99140072 -0.10077444 0.0028397676 0.023195609 0.00058851106 0.0091252942
0.0028381678 0.023214588 0.98184496 -0.1718162 0.0058921082 0.039615933
0.00061896123 0.0091305738 0.0059143743 0.039626542 0.99505901 -0.05699027
630957.34448019 0.99081862 -0.10669736 0.003193686 0.024537569 0.00062683463 0.009650602
0.0031858711 0.024543369 0.97992104 -0.18171641 0.0065005817 0.041848015
0.00063841511 0.0096621746 0.0065052696 0.041843344 0.99459845 -0.060470611
668343.91756861 0.98996019 -0.11308581 0.003592134 0.025946133 0.00066974107 0.010224835
0.0036133924 0.025952954 0.97768307 -0.19202614 0.0071191937 0.044154406
0.00067143363 0.010219263 0.0071396381 0.044187281 0.9942162 -0.063536778
707945.78438414 0.98911375 -0.11969461 0.0040482967 0.027458603 0.00073490426 0.01082219
0.0040653413 0.027433146 0.9749347 -0.20311347 0.0078629488 0.046599306
0.00073259708 0.01079983 0.0078775082 0.046621207 0.99379039 -0.06739302
749894.20933246 0.98822182 -0.12683964 0.0045580473 0.028984671 0.00078261952 0.011409663
0.0045708134 0.02903321 0.97191048 -0.21471527 0.0086220708 0.049200278
0.0008001005 0.011451513 0.0086539863 0.049185462 0.99322373 -0.071249858
794328.23472428 0.98693275 -0.13427091 0.0051181205 0.030665556 0.00081721914 0.01209341
0.0051503461 0.030672377 0.96960622 -0.22644553 0.0094962213 0.051907014
0.00084785296 0.012097359 0.0095313126 0.05192766 0.99280936 -0.075234845
841395.14164519 0.98564434 -0.14189672 0.0057596676 0.032389563 0.0009055289 0.012792785
0.0057590976 0.032387819 0.96644849 -0.2400867 0.0104454 0.054793153
