!Keysight Technologies,E5080A,MY55100144,A.11.70.03
!Date: Monday, November 13, 2017 17:22:37
!Correction: S11(Full 3 Port(1,2,3)) 
!S12(Full 3 Port(1,2,3)) 
!S13(Full 3 Port(1,2,3)) 
!S21(Full 3 Port(1,2,3)) 
!S22(Full 3 Port(1,2,3)) 
!S23(Full 3 Port(1,2,3)) 
!S31(Full 3 Port(1,2,3)) 
!S32(Full 3 Port(1,2,3)) 
!S33(Full 3 Port(1,2,3)) 
!S3P File: Measurements: <S11,S12,S13>,
!<S21,S22,S23>,
!<S31,S32,S33>:Log Frequency Sweep
# Hz S  RI   R 50
10000 0.99686491 -0.0015013774 1.6674039e-005 0.00023685239 4.4262615e-005 0.00016263145
-1.4259041e-005 0.0002335897 0.99888963 -0.0035866625 1.3759742e-006 0.00069054175
7.1496524e-006 0.00018344283 -1.3121123e-005 0.00073171378 0.99981296 -0.0022795205
10592.537251773 0.99689448 -0.0017266441 6.315709e-006 0.0002548958 -2.6551384e-006 0.00014895041
8.0714935e-006 0.00024731254 0.9986347 -0.003636905 -7.3375222e-006 0.00074256444
1.5836617e-005 0.00018286538 8.7448984e-007 0.00073644723 1.0000236 -0.0022014268
11220.18454302 0.99704409 -0.0017667033 -3.5520977e-006 0.00027123097 -3.1108139e-006 0.00017591286
-8.2485294e-006 0.00025447222 0.99877799 -0.0038225867 1.2328703e-006 0.00082184095
2.0413703e-005 0.00018657021 7.0089908e-007 0.00079498044 0.99999589 -0.0024463418
11885.02227437 0.99684173 -0.0017254495 -1.5227158e-005 0.00027091111 -1.5844195e-006 0.00018989414
-2.6722662e-006 0.00028942624 0.99884421 -0.0039050803 -6.04155e-006 0.00085797498
1.1415005e-005 0.00019626254 2.0527343e-005 0.00084584084 0.99999905 -0.0023326478
12589.254117942 0.99696523 -0.0020540417 -1.6458778e-005 0.00028490872 7.2130538e-006 0.00023514821
1.3546384e-005 0.00031485269 0.99901074 -0.0041089198 1.3841213e-005 0.00090468215
2.2622109e-005 0.000216495 1.1081329e-005 0.00090252719 1.0001309 -0.0025280174
13335.214321633 0.99709094 -0.0019652373 -1.1971021e-005 0.00029972004 -8.6518949e-006 0.00021671117
1.2275367e-005 0.00029555365 0.99886274 -0.0043127416 2.7962345e-005 0.00095122529
6.5391368e-006 0.00023273595 3.7314952e-005 0.00094635953 0.99997032 -0.0024485635
14125.375446228 0.99683797 -0.0021047418 -1.3371698e-005 0.00031129917 5.8726314e-006 0.00023024846
-3.8978033e-006 0.00031816692 0.99887073 -0.0043887217 6.220454e-006 0.001015742
6.0116081e-006 0.00024711012 4.0430397e-005 0.0010036161 1.000164 -0.0023681226
14962.356560944 0.99700332 -0.0022757419 -1.8844623e-005 0.00036193672 -5.596708e-006 0.00024862259
-1.385479e-005 0.00035610431 0.99912471 -0.0046532466 1.4941445e-005 0.0010498677
2.5043819e-006 0.00023679658 5.6338658e-006 0.0010708559 0.99999332 -0.0026996513
15848.931924611 0.99701613 -0.0024062577 1.2549539e-007 0.00036759267 1.6681961e-005 0.00025791075
-4.4912008e-006 0.00036936067 0.99883527 -0.0048252293 -8.6128521e-006 0.0011369366
-1.0252304e-005 0.00025854059 -6.125881e-008 0.0011167161 1.0001317 -0.0025590716
16788.040181226 0.99703652 -0.0026270729 2.585077e-005 0.00039958002 -1.0173975e-005 0.00026871631
2.2673419e-006 0.00040397787 0.99900019 -0.0050495937 1.6747386e-005 0.0011929107
1.9236953e-005 0.00028380062 1.2388403e-005 0.0011912079 0.99997449 -0.0026901998
17782.794100389 0.99715018 -0.002533607 -6.5115273e-006 0.00042833944 -1.7340853e-005 0.00030897278
-7.6987653e-006 0.00043917261 0.99903351 -0.0054183733 1.8787568e-005 0.0012575027
7.872768e-006 0.00029965671 1.6102358e-005 0.0012557136 1.0000067 -0.0027435422
18836.490894898 0.99700308 -0.00269917 -1.027232e-005 0.00045858815 -1.0845738e-006 0.00029858275
1.1204385e-005 0.00045657676 0.99913287 -0.0058060265 1.6253396e-005 0.0013361938
4.9385516e-008 0.00031817923 -7.1528933e-007 0.0013286649 1.0000187 -0.0027418747
19952.623149689 0.99713135 -0.0029337236 2.2302069e-005 0.00047115004 1.6881046e-005 0.00033364026
2.7182714e-006 0.00045765805 0.99909937 -0.0059988881 1.115843e-005 0.0014238323
1.8379608e-006 0.00032814033 3.7524669e-006 0.0014219717 0.99998111 -0.0029444043
21134.890398366 0.99700242 -0.0031811972 1.634651e-005 0.00048269483 4.9340615e-006 0.00035417784
-1.7342963e-005 0.00050397118 0.99907523 -0.0062236576 1.2387337e-005 0.0014823074
6.8799372e-006 0.00033643318 1.5402769e-005 0.0014855895 0.9998576 -0.0031160191
22387.211385683 0.99710369 -0.003297678 6.2226113e-006 0.00054352963 1.2425298e-005 0.0003821901
3.2714856e-006 0.0005254412 0.99907196 -0.006389251 8.3935743e-007 0.0015953213
1.0685914e-005 0.0003668406 3.0701467e-005 0.0015911113 0.99989235 -0.0031939519
23713.737056617 0.99706227 -0.0036335427 -8.4172234e-006 0.00056911941 6.2491254e-006 0.000378203
4.9332166e-006 0.00057902542 0.99906027 -0.0068540969 2.8775312e-005 0.0016860709
1.2914613e-005 0.00039540566 -6.0799534e-006 0.0016855153 0.99979657 -0.0031112316
25118.864315096 0.99712908 -0.0036907634 -6.9611519e-006 0.00059148809 1.0634808e-006 0.00042861523
3.0070939e-006 0.00061741087 0.99903625 -0.0072145881 1.1762247e-005 0.0017788126
1.8166e-005 0.00041012821 1.886795e-005 0.001792682 0.99998367 -0.0033298323
26607.250597988 0.99711365 -0.0037158965 5.7672773e-006 0.00065190654 1.3989754e-005 0.0004581711
7.8691837e-006 0.00064270524 0.99906975 -0.0076935799 1.6319655e-005 0.0018798613
-1.2391554e-005 0.00043327149 2.35481e-005 0.001889158 0.99987411 -0.0034461829
28183.829312645 0.99706841 -0.0041907597 1.5269778e-005 0.00066842005 1.7143602e-006 0.00045637108
1.7354798e-005 0.00067556329 0.99897432 -0.0081370752 1.970327e-005 0.0019897153
1.545313e-005 0.00044916396 3.4858789e-005 0.001989227 0.99989623 -0.0036841566
29853.82618918 0.99722844 -0.0043738331 -2.2036509e-006 0.00070658268 -2.8478466e-006 0.00049598579
1.6794382e-005 0.0007089611 0.99908984 -0.0086233253 2.7335274e-005 0.002104714
-7.8030289e-006 0.00048791175 2.8682887e-005 0.0021275184 0.99994951 -0.0036765351
31622.776601684 0.99698955 -0.0047375676 1.6719421e-005 0.00076030759 -8.3249306e-006 0.00053721864
1.8391311e-005 0.0007446463 0.99910724 -0.0088733798 1.8457753e-005 0.0022460909
-7.6412243e-006 0.00052753562 4.2685224e-005 0.0022621767 0.99989223 -0.0040616603
33496.543915783 0.99714845 -0.0048746215 -1.155509e-005 0.00082742819 8.2905135e-006 0.0005545679
2.1411157e-005 0.00081704761 0.99920994 -0.0095405634 2.7541186e-005 0.002367432
1.8209656e-005 0.00055298582 2.2382541e-005 0.0023706413 0.99983388 -0.0042112446
35481.338923358 0.99698138 -0.0051087253 -2.7828037e-006 0.00085178518 3.7198852e-006 0.0005966883
1.9923256e-005 0.00085026334 0.99925745 -0.010014258 2.8392911e-005 0.002508902
-2.6060079e-007 0.00057821046 5.8593971e-005 0.0025316733 0.99978107 -0.0042385319
37583.740428844 0.99707168 -0.0054263663 2.5715824e-006 0.00091131398 1.0900761e-005 0.00062562287
-7.0646388e-006 0.00090402592 0.9991836 -0.010580066 5.2127187e-005 0.002663939
6.8794357e-006 0.00062416925 4.1514162e-005 0.0026606892 0.99971414 -0.0046530715
39810.71705535 0.99710894 -0.0057396316 -2.6537997e-005 0.00095800695 6.0925288e-007 0.00066933385
-8.5408161e-008 0.00095993612 0.99923599 -0.011135994 3.6662877e-005 0.0028156408
2.0170215e-005 0.00064753834 3.336895e-005 0.0028189968 0.99960625 -0.0047347355
42169.650342858 0.99702919 -0.0060624802 8.7483641e-006 0.0010116958 3.5237983e-006 0.00070170622
1.1921728e-005 0.00099551224 0.99916631 -0.011804081 5.5778797e-005 0.0029743037
1.3680721e-005 0.0006882943 6.1513034e-005 0.002987375 0.99959213 -0.0049830964
44668.359215096 0.99711186 -0.006423756 6.6714038e-006 0.0010707631 -1.0821245e-006 0.00072107732
-8.658194e-007 0.0010694941 0.99908978 -0.012604889 4.5967667e-005 0.0031450537
2.8778104e-005 0.0007464331 5.7747297e-005 0.0031507195 0.9995203 -0.0052056704
47315.125896148 0.99716806 -0.0068194056 1.7068456e-005 0.0011264605 6.2235481e-006 0.00077791908
6.0344173e-006 0.0011350727 0.99903816 -0.013289521 7.1404262e-005 0.0033480162
8.0349473e-006 0.00078770187 6.0887061e-005 0.0033265415 0.99962378 -0.0052531804
50118.723362727 0.99699765 -0.0071362914 2.2619818e-006 0.0011815407 9.7457614e-006 0.00084008282
5.7651114e-006 0.0012039026 0.999107 -0.014038551 6.3791151e-005 0.0035279572
1.5326594e-005 0.00082299707 5.4411579e-005 0.0035306581 0.99953562 -0.0057104989
53088.444423099 0.99698287 -0.0077515831 1.2436561e-005 0.0012745816 1.4675657e-005 0.00088176888
1.137882e-005 0.0012620245 0.99901479 -0.014915905 6.9132162e-005 0.0037516081
6.5802083e-006 0.00089906529 9.7951815e-005 0.0037510514 0.99964499 -0.0060012024
56234.132519035 0.99702191 -0.0080848252 1.3115241e-005 0.0013724074 1.1477941e-005 0.00093577319
1.5550608e-005 0.001352845 0.998869 -0.015796633 8.4224048e-005 0.0039721164
1.3838061e-005 0.00093181641 8.9802714e-005 0.0039723166 0.99937898 -0.0062339013
59566.214352901 0.99696118 -0.0086148493 -5.3608046e-006 0.001423305 2.0869804e-005 0.0009872485
-1.8486229e-006 0.0014448761 0.99879098 -0.016849829 0.00010330496 0.0042055356
2.5187446e-005 0.0009863755 9.5185562e-005 0.0042124488 0.99918568 -0.0065286686
63095.734448019 0.99707282 -0.0091312528 1.8570279e-005 0.0015137154 1.6625319e-005 0.0010609402
2.8209904e-005 0.0015196302 0.99884999 -0.017891726 0.0001015394 0.0044545201
3.1797939e-005 0.001044062 0.00012747833 0.0044524213 0.99938232 -0.0067862868
66834.391756861 0.99700397 -0.0095467269 6.7870924e-006 0.0016142263 2.9424185e-005 0.0011123251
6.6723305e-006 0.0016074827 0.99877554 -0.018833453 0.00012541757 0.004712658
1.2525014e-005 0.0011118052 0.00012166282 0.0047378549 0.99949896 -0.0073366663
70794.578438414 0.99693102 -0.010100822 2.236508e-005 0.0016749618 2.6615036e-005 0.0011767587
4.0882918e-005 0.0017040506 0.99862903 -0.019863799 0.00013765026 0.005010989
1.6519054e-005 0.0011754391 0.00013926817 0.0050015477 0.999295 -0.0076535163
74989.420933246 0.99699932 -0.010720457 2.9210618e-005 0.0018070757 1.6096827e-005 0.0012280812
1.4845782e-005 0.0017831733 0.99865979 -0.020926405 0.00015183362 0.0052623344
2.9592225e-005 0.0012217253 0.00016906908 0.0052703428 0.99914926 -0.0079469839
79432.823472428 0.99687511 -0.011269273 3.0885065e-005 0.0019109732 2.636574e-005 0.001320008
2.1439411e-005 0.0019122177 0.99881089 -0.022009322 0.00017180375 0.0056076986
2.6943982e-005 0.0013206154 0.00015568892 0.0056042699 0.99895525 -0.0084226253
84139.514164519 0.99695343 -0.01188567 1.2762005e-005 0.0020234187 2.4566512e-005 0.00139587
1.340213e-005 0.0020192296 0.99859315 -0.023407938 0.00019130249 0.0059313173
4.157966e-005 0.0013948041 0.00018847721 0.0059514381 0.99896085 -0.0088444632
89125.093813375 0.99688947 -0.012597491 4.2161566e-005 0.0021263992 2.4738269e-005 0.0014641016
2.035615e-005 0.0021402757 0.9986093 -0.024720119 0.0002026874 0.0062749311
3.8779017e-005 0.0014734271 0.00020681674 0.0062904572 0.99914128 -0.0093994187
94406.087628592 0.99689454 -0.013220059 1.1874312e-005 0.0022686278 5.1135907e-005 0.0015512798
1.7977438e-005 0.002269008 0.99849117 -0.026277183 0.00021731512 0.0066501242
5.0628067e-005 0.0015456612 0.00018770226 0.0066535734 0.99907076 -0.0096771428
100000 0.99692279 -0.014011584 4.1464507e-005 0.002368259 4.5326102e-005 0.0016221041
4.5977213e-005 0.0024011557 0.99842024 -0.027874602 0.00025677818 0.0070605767
4.9603077e-005 0.0016430925 0.00028143422 0.0070557524 0.99911737 -0.010348265
105925.37251773 0.99704182 -0.014947422 4.0814561e-005 0.002551394 6.6876557e-005 0.0017376848
2.5295074e-005 0.0025578132 0.99844587 -0.029356904 0.00028908657 0.0074634035
4.0820811e-005 0.001739545 0.00026930391 0.0074577997 0.99900275 -0.010882077
112201.8454302 0.9970569 -0.015736563 3.3464661e-005 0.0026856447 7.9784098e-005 0.0018463625
3.7472906e-005 0.0026806798 0.99845219 -0.031058829 0.00030896396 0.0078691598
6.4159824e-005 0.0018364826 0.00030846641 0.007884413 0.9990316 -0.011506677
118850.2227437 0.99704385 -0.016670374 6.1360806e-005 0.0028699585 7.6777913e-005 0.001936287
2.4646635e-005 0.0028470296 0.99837852 -0.032680411 0.00034163069 0.0083524007
3.8750619e-005 0.0019598992 0.00034919768 0.0083598141 0.99911422 -0.012155019
125892.54117942 0.99697274 -0.01770789 3.592718e-005 0.0030369835 5.2962048e-005 0.0020767956
4.341203e-005 0.0030322981 0.99834126 -0.034855567 0.00036768528 0.0088596223
4.0781862e-005 0.0020670954 0.00039245648 0.0088494169 0.99926442 -0.012813414
133352.14321633 0.9969821 -0.018815126 6.4895139e-005 0.003201589 8.5759326e-005 0.0021901166
3.7134534e-005 0.0032061213 0.99820191 -0.036931034 0.00043679625 0.0093567381
7.7891898e-005 0.002186104 0.00044113651 0.0093426676 0.99897712 -0.013400233
141253.75446228 0.99687696 -0.019962307 6.8760404e-005 0.0033996121 8.5623666e-005 0.0023162588
7.9856494e-005 0.003410049 0.99802262 -0.039038789 0.00050243677 0.0098956246
6.4292042e-005 0.002318044 0.00047677488 0.0098973559 0.99906653 -0.014345273
149623.56560944 0.99692702 -0.021085622 7.9646234e-005 0.0035906837 7.6027973e-005 0.002444176
6.5625551e-005 0.0035878234 0.99790227 -0.041432317 0.00053364167 0.010494447
7.6293523e-005 0.0024391653 0.000542116 0.010469868 0.99892074 -0.01525649
158489.31924611 0.99684244 -0.022251736 8.8985857e-005 0.0038189285 0.00010251816 0.0025769875
9.8847362e-005 0.0038167967 0.99776697 -0.043737493 0.00059643533 0.011092546
9.023193e-005 0.0025788515 0.00059893448 0.011075327 0.99903893 -0.015984477
167880.40181226 0.99678409 -0.023672601 7.5101249e-005 0.0040469128 9.3150215e-005 0.0027679771
7.8241079e-005 0.0040375283 0.9975602 -0.046282906 0.00065216928 0.011713593
0.00010995543 0.0027440947 0.00068057817 0.011732816 0.99891955 -0.017039174
177827.94100389 0.99668878 -0.024929304 7.3131174e-005 0.0042694812 9.98123e-005 0.0029073888
7.8473699e-005 0.0042646951 0.99754959 -0.049056947 0.00072827592 0.012419407
0.00011369975 0.0029081285 0.00074721582 0.012411989 0.99886 -0.018041372
188364.90894898 0.99654543 -0.026458504 0.00012144876 0.0045444728 0.00013053158 0.0031020823
0.00011328033 0.0045097233 0.99738121 -0.051934622 0.00083124853 0.013138412
0.00012295459 0.0030768402 0.00082435465 0.013126194 0.99856067 -0.018970747
199526.23149689 0.99651384 -0.028113512 0.00012015687 0.0048001069 0.00016177868 0.0032333406
0.00012344072 0.0048087928 0.99716949 -0.055101238 0.00090770714 0.013858885
0.00014508498 0.0032291175 0.00091150269 0.013906362 0.99863148 -0.019922793
211348.90398366 0.99656016 -0.0297809 0.00012291009 0.0051061292 0.00014492041 0.0034327647
0.00014794551 0.0050901715 0.99674553 -0.058298301 0.0010105276 0.014668842
0.00014293594 0.0034523613 0.0010124354 0.014665867 0.99848098 -0.021214692
223872.11385683 0.9965027 -0.03143407 0.00015984516 0.0053959372 0.00015644993 0.0036170399
0.00014100999 0.005377105 0.99654275 -0.061823674 0.0011189295 0.015531864
0.00015102471 0.0036581939 0.0011073388 0.015531164 0.99840188 -0.022265239
237137.37056617 0.99640226 -0.033350926 0.0001834537 0.0057248669 0.0001728114 0.003856549
0.00018173657 0.0057230354 0.996198 -0.065487191 0.0012782724 0.016445285
0.00017631403 0.0038545507 0.0012670689 0.01639495 0.99830621 -0.02354661
251188.64315096 0.99641681 -0.035341516 0.00019512438 0.0060485229 0.0001850105 0.00405468
0.00021233692 0.006054794 0.99614823 -0.069239557 0.0013580025 0.017358465
0.00021549598 0.0040723104 0.0013854211 0.017352834 0.99846697 -0.024991721
266072.50597988 0.99625248 -0.037445348 0.0002224489 0.0064226892 0.00020983913 0.0042991946
0.00024026657 0.0064158859 0.99574834 -0.073215447 0.0015196324 0.018326309
0.00022269475 0.0042986143 0.0015218783 0.018345146 0.99813968 -0.026325429
281838.29312645 0.9960345 -0.039857626 0.00026995491 0.006810064 0.00026606722 0.0045524719
0.00025701677 0.0068034749 0.99525899 -0.077619426 0.0016517801 0.019402249
0.00024379212 0.0045723384 0.001681837 0.019395169 0.99801719 -0.027836006
298538.2618918 0.99594915 -0.041925106 0.00030008866 0.0072170557 0.0002612182 0.004820433
0.00029266858 0.0072001726 0.99479693 -0.082087405 0.0018613711 0.020472944
0.00027155771 0.0047974172 0.0018400019 0.020477634 0.99780059 -0.029493295
316227.76601684 0.99591488 -0.04438667 0.0003306974 0.0076416349 0.00030199278 0.0050572259
0.00034500333 0.0076273815 0.99441326 -0.087079011 0.0020300767 0.021639038
0.00028557397 0.0050738072 0.0020446333 0.02168493 0.99757779 -0.031090369
334965.43915783 0.99569231 -0.047184847 0.00039538206 0.0080933217 0.00031620203 0.0053459364
0.00037700395 0.008098268 0.99390942 -0.092094861 0.0022431184 0.02286987
0.0003195855 0.0053693154 0.0022210376 0.022872116 0.99743205 -0.032957569
354813.38923358 0.99561191 -0.049854174 0.00044008074 0.008585833 0.00032331501 0.0056817145
0.00044327625 0.0085690385 0.99315685 -0.097495764 0.0024644886 0.024197735
0.0003435399 0.0056846631 0.0024587691 0.024179768 0.99730313 -0.034792103
375837.40428844 0.9955073 -0.052754492 0.00047893391 0.0090969587 0.00036573422 0.0060225753
0.00049650413 0.0091083609 0.99243903 -0.10312337 0.0027175767 0.025536962
0.0003495765 0.006024777 0.0027231495 0.025561063 0.99725735 -0.036793645
398107.1705535 0.99529499 -0.055980105 0.00056218944 0.0096078943 0.0004105281 0.0063381959
0.00057163055 0.0096309762 0.99169779 -0.10923583 0.0029653944 0.026980923
0.00040341858 0.0063401111 0.0029685046 0.027003005 0.99690896 -0.038977534
421696.50342858 0.99509436 -0.059125569 0.00064872688 0.010211249 0.00041929996 0.0066973516
0.00066573877 0.010234496 0.99098724 -0.11543395 0.003270854 0.028492829
0.00043145992 0.0067105158 0.0032688433 0.028486311 0.99678379 -0.041155487
446683.59215096 0.99504876 -0.062767141 0.00075110834 0.010852695 0.00048754338 0.0070811543
0.00074387185 0.010823565 0.99002665 -0.12232246 0.0035917242 0.030068303
0.00046731721 0.0070947353 0.0036036652 0.030101269 0.9964304 -0.043371987
473151.25896148 0.99453181 -0.066375934 0.00083753205 0.011475589 0.00052306056 0.007474036
0.0008522151 0.011468463 0.98904365 -0.12952976 0.0039337617 0.031804256
0.00050981273 0.0075211278 0.0039530587 0.031812079 0.99624819 -0.045781653
501187.23362727 0.99412668 -0.070318267 0.0009729861 0.012168349 0.00056589145 0.0079310397
0.00095712242 0.012138858 0.98792374 -0.13692705 0.0043220455 0.033556834
0.00055529794 0.0079297516 0.0043376833 0.03357511 0.99585545 -0.048135035
530884.44423099 0.99373317 -0.07443513 0.0010991802 0.012885949 0.00060820568 0.0083749872
0.0010990672 0.012873749 0.98698515 -0.14469166 0.0047717923 0.035445541
0.00059961132 0.0083876085 0.0047535771 0.035482034 0.99582219 -0.051136654
562341.32519035 0.99345976 -0.078890517 0.0012181069 0.013625206 0.00064174557 0.0088547785
0.0012255086 0.013601393 0.98530436 -0.15325697 0.0052397032 0.037427284
0.00064145029 0.0088616973 0.0052281525 0.037431136 0.9953534 -0.054002035
595662.14352901 0.99311143 -0.083155893 0.0013929371 0.014409317 0.00072215096 0.009323325
0.0014004012 0.014438454 0.98368484 -0.16215762 0.0057276608 0.039513756
0.00070255698 0.0093769962 0.005737219 0.039548494 0.99492431 -0.057309564
630957.34448019 0.99274135 -0.088263802 0.0016045287 0.015290587 0.00075631926 0.0099002579
0.0016028141 0.015283442 0.98202425 -0.17153765 0.0062928763 0.041725617
0.00077792146 0.0099031841 0.0063013886 0.041743845 0.99469221 -0.060338721
668343.91756861 0.99224555 -0.093387552 0.0017917767 0.016175402 0.00082149863 0.010461233
0.0017828061 0.016185015 0.97993881 -0.18145266 0.0069023748 0.044064041
0.00082444109 0.01045246 0.0069198636 0.044091474 0.99437749 -0.063599586
707945.78438414 0.99172151 -0.098953813 0.0020357852 0.017120926 0.00086888118 0.011064666
0.0020287517 0.017109705 0.97736192 -0.19189738 0.0076210783 0.046500862
0.00089090125 0.011065173 0.0076336376 0.046515375 0.99386066 -0.067314208
749894.20933246 0.99107051 -0.1048218 0.0023008387 0.018098952 0.0009639854 0.011701767
0.0023282254 0.018115824 0.97477484 -0.2026597 0.0083624478 0.049067497
0.00097722595 0.011719228 0.0083882874 0.049097933 0.99319118 -0.071118318
794328.23472428 0.99025446 -0.11112156 0.0026211357 0.019173492 0.0010453227 0.012361932
0.0026162015 0.01918315 0.97275758 -0.21376111 0.0092043336 0.051832926
0.0010606167 0.01239084 0.0092117842 0.05184098 0.99265957 -0.075226307
841395.14164519 0.98938394 -0.11739074 0.0029686843 0.020228524 0.0011307312 0.01311236
