!Keysight Technologies,E5080A,MY55100144,A.11.70.03
!Date: Monday, November 13, 2017 17:26:10
!Correction: S11(Full 3 Port(1,2,3)) 
!S12(Full 3 Port(1,2,3)) 
!S13(Full 3 Port(1,2,3)) 
!S21(Full 3 Port(1,2,3)) 
!S22(Full 3 Port(1,2,3)) 
!S23(Full 3 Port(1,2,3)) 
!S31(Full 3 Port(1,2,3)) 
!S32(Full 3 Port(1,2,3)) 
!S33(Full 3 Port(1,2,3)) 
!S3P File: Measurements: <S11,S12,S13>,
!<S21,S22,S23>,
!<S31,S32,S33>:Log Frequency Sweep
# Hz S  RI   R 50
10000 0.99398017 -0.0056638485 1.1810482e-005 -1.0810368e-005 -2.3056143e-006 0.00013477617
5.0142721e-006 -1.515888e-006 0.47078544 -0.87587357 -1.9639134e-005 -1.5632551e-005
-5.1152933e-006 0.00012636065 3.2258883e-006 5.6324975e-006 0.99983263 -0.0023898631
10592.537251773 0.99422705 -0.0061335177 -7.2466773e-006 -5.0883277e-006 -2.3242419e-006 0.00013085477
-8.1157594e-007 1.0470992e-005 0.42556038 -0.89851534 -1.7194463e-005 -3.7341417e-006
1.0541829e-005 0.00014538867 2.256885e-006 -3.2693467e-006 0.99998492 -0.0022966296
11220.18454302 0.9942432 -0.0063661835 1.4363914e-005 -2.2469269e-006 -8.5268886e-007 0.00015283895
1.5769601e-005 -1.8130964e-006 0.37743175 -0.91925275 4.5195407e-006 -8.3893528e-006
2.4111309e-006 0.00013323039 -6.6157113e-006 6.7423798e-007 1.0000393 -0.0024883379
11885.02227437 0.99427211 -0.0066175847 2.6493694e-006 -1.12073e-006 8.1461121e-006 0.00015647215
1.2547243e-006 -1.430878e-005 0.32776862 -0.93802887 -6.8510167e-006 -7.0681772e-006
-8.4357989e-006 0.00014817333 -4.9014017e-007 2.0464529e-005 1.0001105 -0.002449001
12589.254117942 0.99424964 -0.006928165 8.2478819e-006 1.1660362e-006 -1.5637852e-005 0.00016585964
2.0481591e-006 -1.4205776e-005 0.27620903 -0.95422912 -8.6030095e-006 -1.7316319e-005
-8.2620136e-006 0.00014799267 -6.0161742e-006 4.4202698e-006 1.0000235 -0.0024908257
13335.214321633 0.99452555 -0.0072230902 1.3340285e-005 -1.3080422e-005 5.0929784e-006 0.00016826678
-1.9416735e-005 -1.0627041e-006 0.22285809 -0.96808958 8.0935633e-006 1.1348348e-005
3.6604865e-006 0.00017434699 6.8866916e-006 -1.6800122e-005 0.99981052 -0.0025796941
14125.375446228 0.99428654 -0.0080004213 -7.8907551e-006 -4.0140139e-006 5.2271657e-006 0.00015547921
-1.8294846e-005 -6.8749214e-006 0.16823772 -0.97845662 -1.4080161e-005 1.8469586e-006
1.5346205e-006 0.00017359985 -2.6348027e-005 9.0653941e-007 1.00002 -0.0024961538
14962.356560944 0.99421352 -0.0082257064 -1.6751347e-006 1.0715677e-005 1.4838949e-005 0.00018718961
9.7077982e-006 -4.4194903e-006 0.11242968 -0.98693824 1.4634516e-005 -8.2395463e-006
1.566341e-006 0.00018403231 1.0307702e-005 5.9284221e-006 0.99998856 -0.0027611868
15848.931924611 0.99443841 -0.0089242337 -1.7282968e-005 1.5121801e-005 -3.0112185e-006 0.00021924816
-1.1240187e-006 5.7929669e-006 0.05576675 -0.99116802 -6.8900977e-006 3.6931631e-006
-4.5793581e-006 0.00019703206 7.5987946e-006 -1.3015586e-005 0.99994117 -0.0025802932
16788.040181226 0.99428397 -0.0094246054 2.8743707e-006 1.4936691e-005 -4.5653965e-006 0.00020657167
6.3614389e-006 -1.1292192e-005 -0.00072367006 -0.99252796 2.4922292e-006 7.6824526e-006
-1.5807158e-005 0.00023308399 4.91523e-006 1.5569178e-005 1.0000652 -0.0027931549
17782.794100389 0.99445438 -0.0097225802 -8.4398416e-006 -5.0485723e-006 -1.0465402e-005 0.00022493671
-6.1902306e-006 5.0670328e-006 -0.057701364 -0.99054503 -3.7117854e-008 1.0679617e-005
-4.4994549e-006 0.00021597365 -1.6853111e-006 3.1021314e-006 0.99997252 -0.0028054318
18836.490894898 0.99431127 -0.010269662 3.6667307e-006 1.835924e-005 1.5713156e-005 0.00025350825
7.8561925e-006 -4.4769668e-006 -0.11423537 -0.98578507 -8.3431005e-006 1.1743094e-006
-1.0653069e-005 0.00020868567 1.8472729e-005 7.1558597e-006 0.9998436 -0.0027582499
19952.623149689 0.994241 -0.01095938 -1.3417726e-005 -1.4404245e-005 1.9401709e-006 0.00024884377
8.0237842e-006 6.3260495e-006 -0.16952491 -0.97776186 1.1735862e-005 -8.747129e-007
2.2501335e-007 0.00024412303 -5.6292183e-006 5.0950132e-007 0.99990112 -0.002895081
21134.890398366 0.99449801 -0.011569059 -7.3448641e-006 -3.8041214e-006 1.1345234e-005 0.00025588548
-1.3558263e-005 1.2127302e-006 -0.22419606 -0.96667522 -1.3230264e-005 1.5627662e-006
1.563132e-005 0.00026796694 1.3432417e-006 -2.3809507e-006 0.99981099 -0.0031417462
22387.211385683 0.9942016 -0.012130225 5.1408388e-006 2.322653e-005 -2.5132028e-006 0.00027519773
-3.2579139e-006 -3.3126069e-006 -0.27753952 -0.95275867 -2.7347678e-006 -2.1809326e-006
8.8734232e-006 0.00028039384 -1.722231e-006 1.1547479e-005 0.99983603 -0.003089882
23713.737056617 0.9940722 -0.013058389 -5.0385584e-006 1.8730567e-006 -1.3681129e-005 0.00028068319
1.1917082e-005 -5.9439799e-006 -0.3290109 -0.93606168 -4.6230857e-006 -9.0642043e-006
2.4453441e-006 0.00030240722 4.8069287e-006 -2.7970189e-006 0.99975175 -0.0032261519
25118.864315096 0.99430221 -0.013812445 -8.3302966e-006 -2.0058716e-005 7.7617176e-007 0.000290747
-5.0281428e-006 3.7119601e-006 -0.37857318 -0.91718072 8.597317e-006 7.2658563e-006
-2.9160497e-006 0.00032104313 1.5987087e-005 1.6853188e-005 0.99981087 -0.0033915984
26607.250597988 0.99421173 -0.014321618 -7.9289799e-007 8.6117479e-006 -2.1774966e-005 0.00032694772
-4.4562789e-006 -8.4648582e-006 -0.42616719 -0.89620954 1.0122822e-005 -1.6132741e-007
5.9480071e-006 0.00033419547 -7.3774031e-006 1.033204e-005 0.99984926 -0.0035002986
28183.829312645 0.994223 -0.015402165 4.4733811e-006 3.0630547e-006 7.8943876e-006 0.000341148
4.1109606e-006 4.6890682e-006 -0.47157398 -0.87331814 4.3232114e-007 5.5377736e-006
-6.4527803e-006 0.00034756638 1.7559454e-005 1.4398566e-005 0.99983561 -0.0035318518
29853.82618918 0.99425471 -0.016279388 1.6258563e-006 5.9610302e-006 -6.3444154e-006 0.00038690842
4.369429e-006 -4.499712e-007 -0.51437736 -0.84879827 1.608985e-006 -4.3183391e-006
9.0020458e-006 0.00038078183 -4.8156194e-006 -6.1230585e-006 0.99981135 -0.0036951618
31622.776601684 0.99410093 -0.017193172 -1.3449759e-006 1.6008975e-005 2.2558157e-005 0.00036727911
9.3810422e-006 -8.6402224e-006 -0.55467504 -0.82311827 -3.402356e-006 -1.1542471e-005
-2.6133141e-006 0.00037932489 -4.673388e-006 -1.2362612e-005 0.99986082 -0.0040904325
33496.543915783 0.99419689 -0.018089743 -5.3850367e-006 6.8255254e-006 -7.3109131e-006 0.00041962368
-7.836913e-006 8.0431009e-006 -0.59262049 -0.79627579 1.0904399e-005 1.3431026e-005
-5.0225722e-006 0.00040196851 -1.6820131e-005 -1.1681698e-005 0.99988616 -0.0042891838
35481.338923358 0.99399745 -0.019109584 3.6570473e-006 -4.2664251e-006 -6.046817e-007 0.00042159154
-2.5766947e-006 5.5981118e-006 -0.62806374 -0.76868969 5.1213265e-006 -1.3591792e-005
1.0140274e-005 0.00042709272 3.8779481e-006 -4.7718136e-006 0.99981278 -0.004272114
37583.740428844 0.99418664 -0.020359546 -1.7762703e-006 -1.5449563e-005 2.1205609e-005 0.00046297957
-5.7686416e-006 1.3086751e-005 -0.66104835 -0.74068195 2.9777559e-006 1.0898571e-005
6.818696e-006 0.00046080022 -1.2897804e-005 2.6800877e-005 0.99962807 -0.0044875117
39810.71705535 0.99413288 -0.021572664 1.8654873e-005 2.0542306e-005 7.3472465e-006 0.00049107539
-4.8783141e-007 1.3819135e-005 -0.69158423 -0.71245527 -7.4278769e-006 -7.3544726e-007
1.4762835e-005 0.00047089992 1.5785952e-005 2.0823009e-006 0.99948871 -0.0046897354
42169.650342858 0.99393094 -0.022661455 1.819755e-006 4.5083064e-007 1.368849e-005 0.00055059348
-1.2406181e-005 8.3225705e-006 -0.7199319 -0.68412745 1.2626796e-006 3.8372641e-006
8.705143e-006 0.00054173375 -1.0155785e-005 -3.8404473e-006 0.9995895 -0.0049615763
44668.359215096 0.99412823 -0.024087412 4.4289959e-006 4.348798e-006 9.0168687e-006 0.00056818034
-4.6346613e-006 1.7327844e-006 -0.74584424 -0.65592521 1.3356258e-007 1.0855246e-005
5.9866925e-006 0.00055938121 9.048631e-006 -8.2785618e-006 0.99946934 -0.0051388438
47315.125896148 0.99395442 -0.025385104 -1.6591445e-006 -5.1760026e-006 1.2489677e-005 0.00060277001
4.0069978e-007 5.3019147e-007 -0.76973784 -0.62778848 -2.9569624e-006 -6.7029309e-006
1.2977258e-005 0.00058924645 -2.6252221e-006 3.692641e-006 0.99953836 -0.0055165254
50118.723362727 0.99394202 -0.026927605 -2.9960986e-005 -1.0976517e-005 -1.8458033e-005 0.00061434717
-5.1269294e-006 -6.8433296e-006 -0.79167402 -0.60014492 -3.9314787e-006 -5.1229295e-006
4.5428792e-006 0.00061412092 -1.9136431e-005 1.7903485e-005 0.99940276 -0.0057474812
53088.444423099 0.99396861 -0.028580396 -7.9078482e-006 1.8385868e-005 5.6476442e-006 0.00065374526
5.4078287e-006 -1.1346275e-005 -0.81166321 -0.57308292 -8.7633498e-006 -7.1899749e-006
3.2415217e-005 0.00064667314 -1.6085671e-005 1.0278554e-005 0.99948835 -0.0059756641
56234.132519035 0.99377769 -0.030288342 2.6041105e-006 -3.9257036e-005 3.6164947e-006 0.00069858332
-5.5174235e-007 -4.7085356e-007 -0.82977587 -0.54666972 4.6367295e-006 6.1323277e-007
3.7366208e-005 0.0007060417 1.7360517e-005 -6.9072175e-006 0.99942833 -0.0063237762
59566.214352901 0.99368048 -0.031971361 -2.2055278e-006 -1.3830345e-005 2.8666544e-005 0.00072706415
-8.6445871e-006 2.789192e-006 -0.84639633 -0.52088654 2.3116454e-006 5.6183012e-006
1.6098602e-005 0.00073176034 -9.3055678e-006 1.2541757e-005 0.99922103 -0.0066733975
63095.734448019 0.99360889 -0.033937607 -1.6355516e-005 1.8148856e-005 3.7629961e-005 0.00076901761
-9.134011e-007 1.1187894e-005 -0.86142999 -0.49593467 1.3574528e-006 -1.0456779e-005
3.9701947e-005 0.00077393302 1.3372763e-005 1.8481154e-005 0.99937606 -0.0069757341
66834.391756861 0.99355942 -0.035860289 -9.4352727e-006 -4.526994e-006 3.1184074e-005 0.00082216854
1.0266602e-005 4.5328129e-006 -0.87507498 -0.47157618 6.230372e-006 -4.4181515e-006
3.1547399e-005 0.00082015799 -5.5760661e-006 -1.0703736e-005 0.99944651 -0.0073017413
70794.578438414 0.99349636 -0.037968893 2.5000347e-006 6.1305894e-007 3.2997192e-005 0.00087743154
6.3948869e-006 5.0847007e-006 -0.88738942 -0.44848621 -6.9263665e-006 2.1030357e-005
2.2513021e-005 0.00088265265 1.5437246e-005 1.9503937e-005 0.99913067 -0.0076919463
74989.420933246 0.99334431 -0.040281709 5.9402601e-006 -1.4682732e-005 3.8013699e-005 0.00093503721
3.8753947e-006 1.1836346e-005 -0.89852715 -0.42595926 -5.5908495e-006 7.010608e-006
2.5711881e-005 0.00094120315 -1.9393701e-005 9.2659338e-006 0.999165 -0.0079007186
79432.823472428 0.99331409 -0.04249537 -1.7610304e-005 5.5721043e-006 4.1827625e-005 0.00098470203
-7.206253e-006 -1.7835555e-005 -0.90864164 -0.40417132 -3.393246e-007 8.731643e-006
5.09407e-005 0.00096446427 -9.2040904e-007 1.4476407e-006 0.99905998 -0.0085007939
84139.514164519 0.99316984 -0.045027133 -1.3782704e-005 -1.2061215e-005 5.2382296e-005 0.0010682038
5.792665e-006 7.2071994e-006 -0.91763812 -0.38355404 7.3396059e-006 1.1575466e-005
3.3564727e-005 0.0010544545 6.9536159e-006 -5.794886e-006 0.99909508 -0.0088791167
89125.093813375 0.99306512 -0.047602542 -1.0003885e-005 2.0733632e-006 3.5182475e-005 0.0011167703
-1.2416643e-005 -7.2369917e-006 -0.92590004 -0.36371043 6.1630573e-007 9.8115561e-006
7.0779992e-005 0.0010952813 5.9981153e-006 4.9627474e-006 0.99912161 -0.0095148599
94406.087628592 0.9929446 -0.050445355 -4.6440468e-006 8.8712895e-006 5.3408654e-005 0.0011515482
-1.1978107e-005 1.3241493e-006 -0.93325961 -0.34474137 -4.0686305e-006 -6.617925e-006
5.0574195e-005 0.001176209 -4.4969174e-006 -4.1487857e-007 0.99918306 -0.0098330546
100000 0.99282193 -0.053257812 1.1236892e-005 -9.8188748e-006 5.302329e-005 0.001237606
-6.2660101e-006 9.2476275e-006 -0.93981946 -0.32652375 -5.6335384e-006 3.401482e-006
3.8009875e-005 0.0012237839 -1.0730944e-005 -6.8594277e-006 0.99898332 -0.010394375
105925.37251773 0.99258536 -0.056548622 -7.5409876e-006 -3.0131438e-005 6.3202162e-005 0.0013090606
2.1385918e-006 1.4923799e-005 -0.94579673 -0.30936283 2.2974148e-006 3.4211016e-006
8.8659966e-005 0.0013051137 -3.6929719e-006 -1.1696754e-005 0.99898893 -0.010747964
112201.8454302 0.99245274 -0.059848547 -1.4549442e-005 1.7074603e-005 9.0786496e-005 0.0013742946
5.3890318e-007 6.2346885e-007 -0.95114642 -0.29281995 -5.9225192e-007 1.2439396e-007
7.9660378e-005 0.0013767205 4.1166098e-007 -1.6142963e-007 0.99899161 -0.011562482
118850.2227437 0.99226034 -0.0633104 -8.6401842e-006 1.5334545e-006 9.3221184e-005 0.0014547553
-1.0387045e-005 1.0164392e-005 -0.9559083 -0.277073 -1.6447236e-006 2.4096338e-005
7.3710362e-005 0.0014449634 -1.3249938e-005 6.5154941e-006 0.99898988 -0.012031115
125892.54117942 0.99210972 -0.067205928 -1.4261024e-006 3.2090851e-005 0.00010108144 0.0015581334
-1.486892e-005 1.8363142e-005 -0.96021014 -0.2621873 -3.0894148e-006 8.3650002e-006
0.00011565178 0.0015251272 4.5164797e-006 4.5036907e-007 0.99899298 -0.012783418
133352.14321633 0.99184799 -0.071066782 4.9995988e-006 1.7727018e-005 9.3903691e-005 0.001610804
-5.6184845e-006 4.4292028e-006 -0.96405607 -0.24798338 -1.5978943e-005 -7.4925094e-007
0.00011757922 0.0016261132 -5.3438762e-006 1.4986705e-007 0.99908817 -0.013497102
141253.75446228 0.9914611 -0.07538005 2.0494748e-005 1.6339902e-005 0.00012484814 0.0017219483
-6.6234743e-006 1.0667036e-005 -0.96746874 -0.2344802 -8.3215781e-008 1.4785335e-006
0.00011919988 0.0017345193 -1.7038965e-005 1.0468004e-005 0.99899364 -0.014413689
149623.56560944 0.99112785 -0.079718642 -2.3838611e-005 2.5318435e-005 0.00014394452 0.0018311616
-7.601906e-006 8.9710966e-006 -0.97058398 -0.22171012 7.9408238e-007 4.0185778e-006
0.00012754269 0.0018109779 4.257123e-007 1.2822517e-005 0.99906218 -0.015160893
158489.31924611 0.99069709 -0.084328562 -2.78554e-005 1.4617561e-005 0.00013887492 0.0019344061
-1.8332928e-005 1.4007644e-005 -0.97334892 -0.20948133 -3.7564694e-006 3.25628e-006
0.00013343721 0.0019337807 -7.132418e-006 6.8341456e-006 0.9988566 -0.016133571
167880.40181226 0.99019593 -0.08946602 -2.6461287e-006 1.7060631e-005 0.00017866051 0.0020173532
-9.0116446e-006 1.513956e-005 -0.97583008 -0.19785325 7.4340778e-006 1.8405486e-006
0.0001666552 0.0020227025 1.2883008e-005 1.3489507e-005 0.99902099 -0.017040705
177827.94100389 0.98971313 -0.094715759 -1.2268325e-005 1.9630249e-006 0.00019522529 0.0021762731
-1.4807847e-005 9.138128e-006 -0.97745353 -0.18590887 2.2102016e-007 1.9202829e-005
0.00016842192 0.0021548984 -1.0771868e-006 2.5794532e-005 0.99890751 -0.017928284
188364.90894898 0.98889023 -0.10023144 7.6085039e-006 1.9579029e-005 0.00021045857 0.0022757626
-1.1714959e-005 1.5780901e-005 -0.97995275 -0.17711499 -7.029862e-006 -9.3244608e-007
0.00021828186 0.002287772 -1.3427712e-005 -1.6409853e-005 0.99867958 -0.019121552
199526.23149689 0.98839939 -0.10613161 -2.1937309e-005 8.4692128e-006 0.00023277424 0.0024220385
-1.1063987e-005 1.8696206e-005 -0.98177254 -0.16721383 2.0239293e-006 2.7613167e-005
0.00021625051 0.002421591 1.0684151e-005 -1.1633581e-006 0.99867415 -0.020142313
211348.90398366 0.98770219 -0.11242075 -1.5077238e-005 1.2384758e-005 0.00025053381 0.0025490886
-1.7107099e-005 1.4646605e-005 -0.98339683 -0.15782019 3.3475047e-007 1.0164715e-006
0.00025533888 0.0025690794 -3.0054268e-006 3.0281224e-006 0.99840581 -0.021360634
223872.11385683 0.98694044 -0.11885126 -2.8462518e-005 2.2998067e-005 0.00026276527 0.0027173455
-1.3200827e-005 1.0920884e-005 -0.98479766 -0.1489871 -1.8104123e-006 1.7556942e-005
0.00027274946 0.0026918789 -1.9445695e-005 3.5127974e-005 0.99856555 -0.022367992
237137.37056617 0.98601711 -0.12602295 -2.2372431e-005 3.3887911e-005 0.00032818867 0.0028495749
-2.5881316e-005 1.6805125e-005 -0.98601133 -0.14060539 -1.5687316e-005 7.4096183e-006
0.0003005162 0.002863548 1.311755e-006 6.3691527e-006 0.99842519 -0.023606218
251188.64315096 0.98524141 -0.13333765 -3.6962563e-005 3.1343181e-005 0.0003707826 0.0030096453
-1.1281077e-005 2.3140403e-005 -0.98725414 -0.13265598 1.3124228e-006 4.777698e-006
0.00035823075 0.0030097519 -6.627125e-006 3.1782e-007 0.99832398 -0.025079243
266072.50597988 0.98394704 -0.1411294 3.8322396e-006 5.435304e-006 0.00039147216 0.0031800698
-2.1893469e-005 7.4776681e-006 -0.98828137 -0.12522265 -2.1429958e-006 1.6552574e-005
0.00036730545 0.0031906941 -1.6380791e-005 2.1169273e-005 0.9983387 -0.026425041
281838.29312645 0.98265654 -0.14943705 -1.9081281e-005 3.8797451e-005 0.00042790154 0.0033587965
-2.489844e-005 1.8381341e-005 -0.98919529 -0.11816904 4.292275e-007 1.931841e-005
0.00039054255 0.0033682925 4.4664594e-006 8.2210045e-006 0.99817348 -0.0279739
298538.2618918 0.98123837 -0.15819702 -2.2026239e-005 2.8890934e-005 0.00047086048 0.0035596157
-2.5694244e-005 1.6625663e-005 -0.98999226 -0.11135478 -3.5317667e-006 3.3935245e-005
0.00044034774 0.0035603077 -1.0290978e-005 2.390489e-005 0.99790019 -0.029590759
316227.76601684 0.97965425 -0.16748899 -3.0761228e-005 2.6625301e-005 0.00053575251 0.0037560987
-2.1288788e-005 1.8621806e-005 -0.9906674 -0.10505835 -7.7120121e-006 3.1366715e-005
0.00050656137 0.0037566104 6.5891136e-006 3.8985404e-006 0.99783814 -0.031111019
334965.43915783 0.97777456 -0.17722663 -3.5552399e-005 2.8183165e-005 0.00057049782 0.0039971536
-4.0348408e-005 2.5912997e-005 -0.99138302 -0.09918388 -1.3521347e-006 1.9916482e-005
0.00054538605 0.0039787013 -1.5466885e-005 1.9530173e-006 0.99759179 -0.032944072
354813.38923358 0.97608894 -0.18748018 -2.4237832e-005 1.7435594e-005 0.00063016079 0.004188024
-2.1616615e-005 1.3774553e-005 -0.99200189 -0.093421847 -1.3191998e-005 1.6300673e-005
0.00063674891 0.0041785487 7.9650175e-007 1.4670738e-005 0.99748993 -0.034771822
375837.40428844 0.97383684 -0.19822048 -5.4234788e-005 3.6939397e-005 0.00071342022 0.0044078697
-2.7200002e-005 3.3288201e-005 -0.99244362 -0.087892167 -6.8272593e-006 2.1089123e-005
0.00070680835 0.0044215512 -2.9711504e-005 3.2841755e-005 0.99745071 -0.036815669
398107.1705535 0.97136021 -0.20973271 -5.4909709e-005 2.5946679e-006 0.00078961841 0.0046695732
-3.895285e-005 2.9169249e-005 -0.99300641 -0.082684033 -1.3008437e-005 1.9566285e-005
0.00073810475 0.0046736575 -7.9474003e-006 4.4523622e-005 0.99722606 -0.038953923
421696.50342858 0.96878666 -0.22185215 -5.0616196e-005 2.7437896e-005 0.00084483769 0.004911121
-4.1738898e-005 3.067451e-005 -0.99316245 -0.077493146 6.0914664e-007 2.65977e-005
0.00083892082 0.0049301852 1.2400315e-006 3.3710254e-005 0.99702394 -0.04105721
446683.59215096 0.96566725 -0.23472506 -5.4249831e-005 4.4193457e-005 0.00095269945 0.0051808776
-3.8002574e-005 4.8337934e-005 -0.99319786 -0.073791213 3.5669476e-007 2.0663796e-005
0.00095126312 0.0052095843 -1.8595543e-006 -1.4754571e-006 0.99675173 -0.043272201
473151.25896148 0.96213758 -0.24804914 -5.5265969e-005 3.1998865e-005 0.0010335882 0.0054649562
-5.3939617e-005 4.0388728e-005 -0.99391246 -0.069563091 -1.7880709e-005 2.987112e-005
0.001035824 0.0054865377 -3.5189973e-005 1.3909797e-005 0.99669349 -0.045792866
501187.23362727 0.95817804 -0.26215255 -6.6885535e-005 2.7048352e-005 0.0011339777 0.0057682414
-6.8753681e-005 2.4143614e-005 -0.99428672 -0.065323703 -9.482761e-006 2.4315133e-005
0.0011404745 0.0057719103 -9.9088429e-006 3.9733495e-005 0.99649185 -0.048465393
530884.44423099 0.9537757 -0.27710402 -4.9935883e-005 3.844059e-005 0.0012570985 0.0060872994
-8.1563296e-005 5.508406e-005 -0.99457628 -0.061321568 -6.6706484e-006 3.0450408e-005
0.0012649656 0.0060917293 -6.1110422e-006 1.7492795e-005 0.99641216 -0.051319107
562341.32519035 0.9492113 -0.29273206 -6.0402588e-005 5.3268534e-005 0.0013872487 0.0063929888
-7.0983464e-005 5.0239491e-005 -0.9949261 -0.057582911 -1.2807548e-005 2.906077e-005
0.0013943936 0.0064044697 -1.3793098e-005 1.7851185e-005 0.99602383 -0.054145161
595662.14352901 0.94405091 -0.30902505 -7.0866787e-005 5.2274623e-005 0.0015317685 0.0067604878
-7.7768855e-005 4.535148e-005 -0.99516481 -0.053995941 -1.8689105e-005 3.1130316e-005
0.0015084391 0.0067475117 -1.7434226e-005 2.4562984e-005 0.99581623 -0.057333667
630957.34448019 0.93819463 -0.32644039 -9.4842209e-005 3.6447513e-005 0.0016861102 0.0071303211
-9.9267068e-005 5.5084191e-005 -0.99527496 -0.050577249 -2.4241774e-005 3.2772215e-005
0.0017225437 0.00710714 -1.4860906e-005 4.0776973e-005 0.99560493 -0.060613085
668343.91756861 0.93152219 -0.34456405 -0.00010584349 5.6248082e-005 0.0018393728 0.0074931812
