!Keysight Technologies,E5080A,MY55100144,A.11.70.03
!Date: Monday, November 13, 2017 17:24:24
!Correction: S11(Full 3 Port(1,2,3)) 
!S12(Full 3 Port(1,2,3)) 
!S13(Full 3 Port(1,2,3)) 
!S21(Full 3 Port(1,2,3)) 
!S22(Full 3 Port(1,2,3)) 
!S23(Full 3 Port(1,2,3)) 
!S31(Full 3 Port(1,2,3)) 
!S32(Full 3 Port(1,2,3)) 
!S33(Full 3 Port(1,2,3)) 
!S3P File: Measurements: <S11,S12,S13>,
!<S21,S22,S23>,
!<S31,S32,S33>:Log Frequency Sweep
# Hz S  RI   R 50
10000 0.99670196 -0.0034447084 -3.1836797e-005 -5.5282476e-006 -1.5603369e-005 0.00014428704
-2.9125185e-005 7.7956633e-005 0.45669451 -0.8463093 -2.0148284e-005 1.4387833e-005
-4.131402e-006 0.00012843421 -5.2120686e-005 1.8557989e-006 0.99990416 -0.002386736
10592.537251773 0.99682397 -0.0036648249 -2.3106064e-005 6.4116671e-006 -3.1212708e-006 0.00013946029
-3.5740883e-005 7.4761461e-005 0.41194442 -0.86570406 -2.1491633e-005 1.873058e-006
-3.4920861e-006 0.00014053576 -2.7981107e-005 2.7493023e-005 1.0001572 -0.00221154
11220.18454302 0.99691051 -0.0039568734 -4.8693317e-005 3.1494859e-005 -3.8702156e-006 0.00015641663
-4.3229229e-005 8.4093714e-005 0.36463001 -0.88301718 -1.9328367e-005 2.3907372e-005
-5.4503803e-006 0.00014214459 -1.9400401e-005 1.1691023e-005 1.0000645 -0.0025130904
11885.02227437 0.99686098 -0.0041323286 -4.5985962e-005 3.7718462e-005 8.3118894e-006 0.00016818709
-5.7959038e-005 9.4451279e-005 0.31598917 -0.89827073 -9.9791459e-006 1.3377678e-005
3.8862618e-006 0.00017689458 -2.4992951e-005 2.4630684e-005 1.0000955 -0.0022190404
12589.254117942 0.99703342 -0.0044855289 -3.3335164e-005 3.1925669e-005 -2.645383e-005 0.00016336869
-4.6877387e-005 0.00012104724 0.26574913 -0.91084296 -1.9887932e-005 2.0041087e-005
-1.7850865e-006 0.0001881746 -3.0071662e-005 2.3215131e-005 1.000151 -0.0026685901
13335.214321633 0.99694514 -0.0044355029 -3.7379174e-005 1.7901082e-005 8.051431e-006 0.00018555786
-2.6326303e-005 0.00012245036 0.21447752 -0.92099541 -3.2077765e-005 1.196729e-005
8.3413051e-006 0.00020295341 -3.4828692e-005 3.648697e-005 0.99984181 -0.0025259482
14125.375446228 0.99688256 -0.0049718018 -4.817636e-005 3.3195669e-005 4.0680516e-006 0.00023867621
-4.5683792e-005 0.00014253973 0.16190805 -0.92791605 -4.3817778e-005 2.4659481e-005
-2.4865972e-008 0.00019133723 -3.6823716e-005 4.7637772e-005 1.0001533 -0.0026625567
14962.356560944 0.99690151 -0.0052087279 -3.3103399e-005 6.7040834e-005 8.1252856e-006 0.00022999452
-3.2545537e-005 0.00015674873 0.10885926 -0.93259817 -2.3597624e-005 3.6731777e-005
5.8292329e-007 0.00022506464 -5.3880136e-005 1.9246423e-005 1.0000852 -0.0026128036
15848.931924611 0.99709833 -0.0056787636 -6.2128485e-005 4.8042304e-005 9.3573317e-006 0.00022259621
-3.6411846e-005 0.00016935731 0.055271864 -0.93342459 -2.0700307e-005 4.011819e-005
7.1991562e-006 0.00021932671 -3.5060242e-005 2.616146e-005 1.0001985 -0.0023981526
16788.040181226 0.99693382 -0.0059132227 -7.1566465e-005 5.601615e-005 1.7786887e-006 0.00022824219
-6.5041662e-005 0.00018987989 0.0018686428 -0.93147367 -4.3096308e-005 4.4620418e-005
-6.00161e-006 0.00024997158 -2.9934959e-005 4.4166882e-005 0.99997008 -0.002834843
17782.794100389 0.997168 -0.0061769253 -5.7619407e-005 6.7260044e-005 1.0861622e-005 0.00026602074
-5.0279221e-005 0.00018512603 -0.051126599 -0.92634881 -3.9550927e-005 4.9864389e-005
6.3538705e-006 0.00024794432 -2.653141e-005 3.4595858e-005 1.0000218 -0.0027733159
18836.490894898 0.99698484 -0.0065610935 -7.18519e-005 7.1580289e-005 1.5789267e-006 0.00026407358
-4.6682075e-005 0.00021448809 -0.10363732 -0.91867924 -3.0623982e-005 4.3871638e-005
-7.4252034e-006 0.00027412164 -6.7033237e-005 4.7157573e-005 1.0000182 -0.0028204252
19952.623149689 0.99697101 -0.0069072596 -4.4778106e-005 7.2990297e-005 9.0580288e-006 0.00029671393
-3.7657777e-005 0.00022727389 -0.15448712 -0.9082644 -4.2661457e-005 5.5843389e-005
-1.0666464e-005 0.00028286953 -4.9758924e-005 3.8135284e-005 0.99993128 -0.0031173758
21134.890398366 0.99716365 -0.0073932363 -7.4712101e-005 8.8733956e-005 4.8378729e-006 0.00030386719
-6.7264729e-005 0.00024070175 -0.20451279 -0.89496005 -3.8233778e-005 5.2236126e-005
3.98047e-006 0.00029010634 -3.4491964e-005 7.274378e-005 0.99990863 -0.0031480181
22387.211385683 0.99694186 -0.0078881886 -6.7703753e-005 9.7037773e-005 1.8447152e-005 0.00033626647
-6.7186702e-005 0.00026014994 -0.25287417 -0.87924403 -3.3996206e-005 6.2726533e-005
-7.5574267e-006 0.00033141157 -4.5134257e-005 4.5970191e-005 0.99997163 -0.0030987659
23713.737056617 0.99691796 -0.0084933359 -7.2538634e-005 0.00011131851 8.7054741e-006 0.00035130547
-6.4860229e-005 0.0002856534 -0.29948309 -0.86120653 -4.6184225e-005 7.4637799e-005
1.461503e-005 0.00035683985 -3.1337499e-005 7.7844779e-005 0.99984866 -0.00315041
25118.864315096 0.99694151 -0.0088031879 -9.1223701e-005 0.00010038093 5.6036242e-006 0.00037730284
-5.3161737e-005 0.00030284392 -0.34387186 -0.8414824 -4.4248183e-005 6.85915e-005
1.228526e-005 0.00035693942 -6.8235706e-005 6.0697486e-005 0.99984848 -0.0033496504
26607.250597988 0.99698687 -0.0092167621 -8.3022496e-005 0.00013528694 2.3968535e-006 0.00036679802
-6.3035026e-005 0.00033027772 -0.38640159 -0.81996995 -4.6309269e-005 7.6689052e-005
-2.3447569e-008 0.00038594598 -5.3269436e-005 8.340786e-005 0.99990177 -0.0034764733
28183.829312645 0.99698979 -0.01007112 -8.4672341e-005 0.00011046771 3.7170771e-006 0.00041027353
-6.3387524e-005 0.00035457921 -0.42686099 -0.79689723 -5.9102895e-005 9.1169095e-005
8.2961842e-006 0.00039393766 -3.3696691e-005 9.7611497e-005 0.99988127 -0.003643899
29853.82618918 0.99706966 -0.010430297 -7.130373e-005 0.00014044982 3.1015893e-006 0.0004299267
-6.7482004e-005 0.00038288307 -0.46447274 -0.77252913 -6.2497427e-005 0.00010327235
1.280691e-005 0.00043573845 -4.6235557e-005 0.0001175074 0.99977565 -0.0037020964
31622.776601684 0.99694878 -0.01127073 -9.0599395e-005 0.00017303004 -3.8435878e-006 0.0004754492
-4.9453265e-005 0.00041126407 -0.49991512 -0.74740463 -5.0884046e-005 0.00010456925
1.0476063e-005 0.00043352836 -6.0296814e-005 0.00011133107 0.99995887 -0.0040658196
33496.543915783 0.99689841 -0.011596492 -8.3267609e-005 0.0001882389 8.5919637e-006 0.00048746262
-4.2214309e-005 0.00041831212 -0.53313506 -0.7213527 -4.7940997e-005 0.00012445525
2.3914594e-005 0.00049752026 -7.3201147e-005 0.00013271104 0.99974459 -0.0042222431
35481.338923358 0.99686539 -0.012493191 -9.0074034e-005 0.00017957904 -4.435969e-006 0.00052072399
-4.7830799e-005 0.00044426697 -0.56407559 -0.69496143 -6.0319027e-005 0.00013321658
2.1757601e-006 0.00051644311 -6.1433675e-005 0.00013868701 0.99972546 -0.0043510846
37583.740428844 0.9968648 -0.013197093 -9.8365395e-005 0.00020313387 1.5054447e-005 0.00055331615
-4.7586582e-005 0.00048661666 -0.59260494 -0.66835052 -6.3182983e-005 0.00013298624
6.9093057e-006 0.00053852861 -6.8422873e-005 0.00015880189 0.99961203 -0.0045388769
39810.71705535 0.99706686 -0.013849529 -6.1585481e-005 0.00022780876 -3.0955455e-006 0.00058213237
-2.9321556e-005 0.00050763739 -0.61909926 -0.64175427 -5.3960579e-005 0.00014701714
1.6480484e-005 0.00057941588 -4.8520851e-005 0.00018124387 0.99956399 -0.0047484166
42169.650342858 0.99680126 -0.014663416 -0.00010327076 0.00022244312 3.1461197e-005 0.00063145324
-2.934775e-005 0.00054297154 -0.643435 -0.61526793 -4.8357124e-005 0.00015383821
7.9317497e-006 0.00063153467 -5.4163502e-005 0.00015245845 0.99958968 -0.005042295
44668.359215096 0.99697965 -0.015540242 -7.7616613e-005 0.00026753332 2.2490922e-005 0.00063476257
-2.2991331e-005 0.00057983852 -0.66584307 -0.58888543 -6.6619752e-005 0.00015979851
2.5208628e-005 0.00064090628 -4.7993017e-005 0.00015791749 0.99947417 -0.0052042073
47315.125896148 0.99698919 -0.016530124 -7.7530123e-005 0.00028670431 9.0904077e-006 0.00068758562
-2.679586e-005 0.00061549409 -0.68634206 -0.56298888 -4.0597311e-005 0.00017596259
1.4905269e-005 0.00069648831 -6.7173612e-005 0.00017034396 0.99954498 -0.0054395464
50118.723362727 0.99693024 -0.017389167 -3.7282221e-005 0.00030213958 2.0306532e-005 0.00071284117
-1.9575682e-005 0.0006513921 -0.70503718 -0.53751671 -5.510839e-005 0.00019883907
1.0106543e-005 0.00073266955 -5.0743776e-005 0.00021149724 0.99937057 -0.0056801797
53088.444423099 0.99691164 -0.018449889 -8.7569104e-005 0.00033075333 2.2975484e-005 0.00077892793
-1.7946015e-005 0.00069343863 -0.72215801 -0.51276928 -5.4102409e-005 0.00021292722
3.28153e-005 0.00076991046 -9.2216447e-005 0.00021633737 0.99948758 -0.0059817811
56234.132519035 0.99689883 -0.019643703 -9.9608762e-005 0.00033957587 1.6796148e-005 0.00081870321
-9.3991166e-006 0.00072254607 -0.73757064 -0.4886232 -5.3148844e-005 0.00020102372
8.783064e-006 0.00081886939 -4.0567331e-005 0.00024188115 0.99950594 -0.0063765193
59566.214352901 0.99682051 -0.020822948 -7.813819e-005 0.00035528629 1.9277677e-005 0.00085104193
-1.3178469e-005 0.00076000957 -0.75173175 -0.46517664 -5.7101497e-005 0.00022861526
1.3741852e-005 0.00086410297 -7.0709946e-005 0.00025107438 0.99913955 -0.0065417737
63095.734448019 0.996665 -0.022014076 -0.00011681678 0.00040967646 7.6593742e-006 0.00091296184
1.3875418e-006 0.00080133433 -0.76438338 -0.442431 -6.6919209e-005 0.00024826033
1.1699618e-005 0.0009147845 -6.406341e-005 0.00027508341 0.99941248 -0.0069039585
66834.391756861 0.99662906 -0.023205895 -7.9530822e-005 0.00038647166 4.8951675e-005 0.00095535041
-2.6445707e-006 0.00084274082 -0.77597272 -0.42049471 -5.786847e-005 0.00026769313
2.1274705e-005 0.00096061965 -8.0659345e-005 0.00028443322 0.99932146 -0.0072417338
70794.578438414 0.9966808 -0.024561543 -7.9045043e-005 0.00041676237 3.3736727e-005 0.0010394192
1.5246172e-005 0.00088697334 -0.78632826 -0.39956254 -6.2526924e-005 0.00027365974
3.1167467e-005 0.0010257615 -6.91565e-005 0.00029383457 0.99921542 -0.0078266962
74989.420933246 0.99652505 -0.025982033 -8.6383006e-005 0.0004909907 3.2051987e-005 0.0010939823
2.7846434e-005 0.00093382527 -0.79577416 -0.37924194 -6.9082336e-005 0.00030762528
3.0779622e-005 0.0010926087 -5.2123116e-005 0.00030654905 0.99919975 -0.0079951892
79432.823472428 0.99654067 -0.027502809 -0.00010069404 0.00052103889 3.255895e-005 0.0011639973
2.6600275e-005 0.00097967032 -0.80432427 -0.35974997 -6.2740648e-005 0.00033371494
2.0496753e-005 0.0011544141 -5.3488155e-005 0.00033614339 0.99897623 -0.0084493468
84139.514164519 0.99637812 -0.029072192 -9.2803311e-005 0.00050736393 2.2558574e-005 0.0012317679
3.3124245e-005 0.0010471924 -0.81189823 -0.34120664 -5.5295157e-005 0.00031420638
5.133736e-005 0.001231958 -6.9454196e-005 0.00037413149 0.99906963 -0.0088449372
89125.093813375 0.99633491 -0.030779563 -8.0045742e-005 0.00056597055 4.9487026e-005 0.0012877292
4.6189973e-005 0.0010932807 -0.8189097 -0.32334328 -6.256804e-005 0.00035889196
4.3773456e-005 0.0013062716 -5.9198916e-005 0.00037629085 0.9991346 -0.0093637677
94406.087628592 0.99625361 -0.032584421 -9.2332673e-005 0.00059943512 5.9119619e-005 0.0013778518
5.0345549e-005 0.0011479361 -0.82500863 -0.30642948 -5.9426769e-005 0.00037086476
3.7569625e-005 0.0013622622 -4.1871954e-005 0.00039836162 0.99907386 -0.0096773226
100000 0.99647397 -0.034366705 -8.8220622e-005 0.00063294888 5.2185504e-005 0.0014446727
6.1628169e-005 0.0012025686 -0.83063573 -0.29010886 -5.0985233e-005 0.00040073929
5.6911245e-005 0.0014580666 -8.7200271e-005 0.00040429679 0.99908537 -0.010407835
105925.37251773 0.99645567 -0.036406845 -0.00010630699 0.00066754688 8.0492457e-005 0.0015253909
6.1509796e-005 0.0012765648 -0.83563876 -0.27482629 -5.2471329e-005 0.00042182117
6.2794628e-005 0.0015505251 -5.364115e-005 0.00043099205 0.99897319 -0.010936648
112201.8454302 0.99623603 -0.038612816 -9.1125738e-005 0.00071298284 6.7047426e-005 0.0016469301
7.9777303e-005 0.0013237485 -0.84015298 -0.2600863 -5.9545317e-005 0.00044804713
5.9388582e-005 0.0016367954 -5.4701974e-005 0.00046263981 0.99925387 -0.011528839
118850.2227437 0.99625903 -0.040913448 -9.1332004e-005 0.00076094182 7.9222213e-005 0.0017081292
8.7306304e-005 0.0014035002 -0.84422022 -0.24606682 -4.7388665e-005 0.00048011268
4.8708633e-005 0.0017278583 -5.1024075e-005 0.00049971027 0.9991138 -0.012256574
125892.54117942 0.99618489 -0.043276139 -7.1957802e-005 0.00082699803 9.9665631e-005 0.0018215532
8.1686085e-005 0.0014592326 -0.84782898 -0.2327833 -4.729785e-005 0.00050957967
8.895222e-005 0.0018375694 -7.4514901e-005 0.00051005912 0.99913579 -0.012879348
133352.14321633 0.99596262 -0.045813702 -8.3960826e-005 0.00083031511 7.4520496e-005 0.0019239312
8.2041057e-005 0.001553314 -0.85109389 -0.22014213 -4.7887999e-005 0.00054592348
8.531662e-005 0.0019444331 -6.4055515e-005 0.00055476074 0.99895883 -0.013634953
141253.75446228 0.99571067 -0.048586074 -7.5729615e-005 0.00089835102 9.3058588e-005 0.0020336171
0.00010182657 0.001622836 -0.85392523 -0.20813389 -4.3974713e-005 0.00055899913
8.7367465e-005 0.0020458736 -4.639701e-005 0.00059576589 0.99903858 -0.014379147
149623.56560944 0.99557906 -0.051523101 -9.1448412e-005 0.00096825848 0.00010153183 0.0021465356
0.00011653257 0.0017239337 -0.85654521 -0.19680877 -5.2547846e-005 0.0006075243
0.00010836861 0.0021672822 -4.2225893e-005 0.00064610783 0.9989652 -0.015311643
158489.31924611 0.99541104 -0.054464705 -6.7576751e-005 0.0010213623 0.00011488507 0.0023144204
0.00012212651 0.0018198927 -0.85893142 -0.18601361 -4.8851005e-005 0.00063956168
0.00012056225 0.0022875029 -5.2975396e-005 0.00067934708 0.999008 -0.015947076
167880.40181226 0.99512929 -0.057772275 -8.5606502e-005 0.0010785202 0.00014356026 0.0024010187
0.0001252064 0.0019111804 -0.86097801 -0.17563234 -4.0324561e-005 0.00068482279
0.00014116211 0.0024499241 -5.5043201e-005 0.00068626337 0.99877882 -0.017030669
177827.94100389 0.99491686 -0.06117731 -6.6269757e-005 0.0011201267 0.0001627708 0.0025750173
0.00015332511 0.0020097662 -0.86228728 -0.16500735 -3.4619243e-005 0.00071092002
0.00017835834 0.0025715898 -3.6631223e-005 0.00074143923 0.99885958 -0.017967837
188364.90894898 0.99469608 -0.064504676 -4.65142e-005 0.0012151201 0.00016540698 0.0027086725
0.00014499819 0.0021324197 -0.86447525 -0.1572374 -3.6861711e-005 0.00076183467
0.00017821434 0.0027205639 -4.8945934e-005 0.00080586743 0.99867666 -0.018982811
199526.23149689 0.99433452 -0.068381041 -7.424604e-005 0.0012843285 0.0002188122 0.0028645345
0.00017091549 0.0022464793 -0.86597681 -0.14843895 -4.3454998e-005 0.00080009707
0.00017489823 0.0028836913 -3.3583736e-005 0.00085191824 0.99866259 -0.020101927
211348.90398366 0.99413884 -0.072649814 -4.631561e-005 0.0013413222 0.00020310871 0.0030351521
0.00017072135 0.0023911591 -0.86744469 -0.14019705 -3.7887294e-005 0.0008567482
0.00021812718 0.0030465175 -2.4843608e-005 0.00089881103 0.99845606 -0.021243967
223872.11385683 0.99366653 -0.076712243 -5.3412812e-005 0.0014443926 0.00023654176 0.0032037727
0.00018797252 0.0025214732 -0.86863178 -0.13237146 -2.2660592e-005 0.00090004294
0.00021922441 0.0032290926 -6.2399071e-005 0.00089944009 0.99857169 -0.022413509
237137.37056617 0.99323457 -0.081225201 -4.3387125e-005 0.0014967319 0.00027089386 0.0033977807
0.00020878276 0.0026579513 -0.8697232 -0.12492534 -2.8764458e-005 0.00096829981
0.00023677759 0.0033823112 -3.8040689e-005 0.0010108824 0.99849653 -0.023573741
251188.64315096 0.99300212 -0.086020499 -4.2985263e-005 0.0016061906 0.00030499516 0.0035731539
0.00022647728 0.0028079029 -0.87068027 -0.11793929 -2.6532758e-005 0.001005925
0.00029331568 0.0035933901 -1.9242356e-005 0.0010390892 0.99847585 -0.02499567
266072.50597988 0.9924193 -0.091015086 -3.3662047e-005 0.0017265689 0.00032422421 0.0037902724
0.00024701669 0.002972092 -0.87153715 -0.1113615 -2.1853797e-005 0.0010695591
0.00031507591 0.0037880454 -8.0283398e-006 0.0011095157 0.99830288 -0.026418649
281838.29312645 0.99175787 -0.096534394 -1.2206692e-005 0.0018334572 0.00036100188 0.0040030219
0.00026360067 0.0031352735 -0.87235516 -0.10505833 -1.4025262e-005 0.0011372096
0.00036767713 0.004006038 -5.5174114e-006 0.0011848785 0.9981364 -0.027893646
298538.2618918 0.9911893 -0.10197531 -1.9608786e-005 0.0019179612 0.00041142918 0.0042208275
0.00028649854 0.0033404387 -0.8729893 -0.099104255 -2.4834095e-005 0.0011848146
0.00038190908 0.004229262 8.5804813e-006 0.0012550345 0.99797577 -0.029596768
316227.76601684 0.99053913 -0.10804372 6.4213441e-006 0.0020104023 0.00043175113 0.0044805421
0.00030673938 0.0035297421 -0.87359875 -0.093496293 4.110233e-006 0.0012570951
0.00044048051 0.0044686124 1.4807273e-005 0.0013047189 0.99788046 -0.031027757
334965.43915783 0.98961967 -0.11440185 4.2252536e-006 0.0021495856 0.00050841901 0.0047301101
0.00034704004 0.0037235299 -0.87417328 -0.088369496 -7.2358762e-006 0.0013403364
0.00048539802 0.004748642 -2.0914581e-006 0.0013937932 0.99765998 -0.032965969
354813.38923358 0.9887684 -0.12093943 2.8524191e-005 0.0022778683 0.00053761771 0.0049853385
0.00036875106 0.0039375257 -0.87475097 -0.083268374 8.1116214e-006 0.0014198662
0.00052400312 0.0050141574 1.5530331e-005 0.001489198 0.9977029 -0.034884781
375837.40428844 0.98783654 -0.12802413 4.8130871e-005 0.0024291673 0.00058645423 0.0052639903
0.00042080952 0.004164855 -0.87517071 -0.078406721 5.2835262e-006 0.0014942962
0.00056658301 0.0052530291 3.3163775e-005 0.0015719802 0.99756366 -0.036887433
398107.1705535 0.98666501 -0.13549824 6.3683874e-005 0.0025425772 0.00067523203 0.0055835838
0.00046767859 0.0043949988 -0.87568504 -0.073750101 1.5225419e-005 0.0015802713
0.0006428553 0.0055676256 1.9908201e-005 0.0016556215 0.99711961 -0.03903193
421696.50342858 0.9853282 -0.14340183 8.0933045e-005 0.0027259807 0.00071773113 0.0058644922
0.00052899437 0.004655662 -0.87578768 -0.069226421 2.6548278e-005 0.001671933
0.00068356702 0.0059003783 3.3674456e-005 0.0017272884 0.99715501 -0.041104443
446683.59215096 0.98408258 -0.15181993 8.2649516e-005 0.0028647876 0.00081823504 0.0062160236
0.00058448303 0.0049289409 -0.87591785 -0.065958463 4.1877342e-005 0.0017609999
0.00076822966 0.0062315208 3.7334859e-005 0.0018153896 0.99674577 -0.043505047
473151.25896148 0.98260903 -0.16054259 0.00011722976 0.0030534714 0.00089120492 0.0065336032
0.00064116064 0.0052194409 -0.87651581 -0.062282868 3.8796756e-005 0.0018691606
0.00083282794 0.0065635596 4.0291656e-005 0.001933172 0.99672687 -0.045877781
501187.23362727 0.98064178 -0.16981022 0.00015721 0.0032199007 0.00097021728 0.0069348118
0.00072144438 0.005513621 -0.87690473 -0.058531638 5.049941e-005 0.0019653814
0.00092598289 0.0069440692 8.1141181e-005 0.0020545751 0.99647599 -0.048341729
530884.44423099 0.9787066 -0.17985706 0.00019350972 0.0034046378 0.0010400322 0.0073209419
0.00079602591 0.0058172457 -0.8771776 -0.055007309 4.4757046e-005 0.0020867356
0.0010146776 0.0073215188 6.0539867e-005 0.0022063791 0.99647105 -0.051152576
562341.32519035 0.97665882 -0.18997477 0.00020990595 0.0035916409 0.0011726782 0.0077127721
0.00088431645 0.0061719394 -0.87746274 -0.051719617 5.8022717e-005 0.002209574
0.0011014309 0.0077389851 8.8299828e-005 0.0022735021 0.9959656 -0.054203484
595662.14352901 0.97455853 -0.20078769 0.00025294104 0.0038089228 0.001290143 0.008164946
0.00097433379 0.0065096673 -0.87765539 -0.04864341 6.1866129e-005 0.0023329679
0.0012192397 0.0081506278 0.00010866197 0.0024374449 0.99579793 -0.057292636
630957.34448019 0.97177887 -0.21243231 0.00031035082 0.0040225717 0.0013954719 0.0086099217
0.0010989588 0.006875373 -0.87778085 -0.045726821 8.5279891e-005 0.0024741958
0.0013594107 0.0086186538 0.00010406741 0.0025564816 0.99542111 -0.060501587
668343.91756861 0.96887434 -0.22446735 0.00036540703 0.0042788927 0.0015624334 0.0090852836
0.0012301131 0.007279289 -0.87798679 -0.043018136 8.5049993e-005 0.0026062196
0.0014681008 0.0091065709 0.00011434303 0.0027281307 0.99519938 -0.063837171
707945.78438414 0.96544313 -0.23717198 0.00040710819 0.0045146183 0.0017215551 0.0095718568
0.0013818638 0.0076821717 -0.87819171 -0.040404864 0.0001012797 0.0027695019
0.0016227743 0.0096182451 0.00011536253 0.0028974984 0.99492216 -0.067628495
