!Keysight Technologies,E5080A,MY55100144,A.11.70.03
!Date: Monday, November 13, 2017 17:24:37
!Correction: S11(Full 3 Port(1,2,3)) 
!S12(Full 3 Port(1,2,3)) 
!S13(Full 3 Port(1,2,3)) 
!S21(Full 3 Port(1,2,3)) 
!S22(Full 3 Port(1,2,3)) 
!S23(Full 3 Port(1,2,3)) 
!S31(Full 3 Port(1,2,3)) 
!S32(Full 3 Port(1,2,3)) 
!S33(Full 3 Port(1,2,3)) 
!S3P File: Measurements: <S11,S12,S13>,
!<S21,S22,S23>,
!<S31,S32,S33>:Log Frequency Sweep
# Hz S  RI   R 50
10000 0.99673939 -0.0055439314 -1.4498032e-006 4.8000693e-006 2.4378789e-007 0.00012154858
8.5488837e-006 1.3330839e-005 0.47059789 -0.87503707 -9.0782678e-006 2.4613897e-005
2.1360578e-005 0.00013145217 7.3085012e-006 1.5241112e-005 0.9997583 -0.0023510822
10592.537251773 0.99670959 -0.0062171756 4.5836227e-006 -9.4821426e-006 7.9398768e-007 0.00013927328
9.9283761e-006 -1.112808e-005 0.42549559 -0.8975212 -1.1181303e-006 -7.2023404e-006
2.6582204e-006 0.00013272253 -5.6749905e-006 5.1757538e-006 0.99981242 -0.002301116
11220.18454302 0.99701786 -0.0064585391 -2.7634462e-006 5.9252943e-006 -4.1862027e-006 0.00011430107
1.0969377e-006 2.9232435e-006 0.37733781 -0.91812378 -8.3652749e-006 1.8426639e-005
-8.34394e-006 0.00014048543 -1.0374421e-005 4.5799557e-006 1.0000532 -0.002445596
11885.02227437 0.99699473 -0.006806382 -1.4798119e-005 -4.0760165e-006 2.5385796e-006 0.00014379596
-1.0311786e-005 -7.812554e-006 0.32781035 -0.93683499 -1.0530706e-005 -5.740847e-006
-7.6948299e-006 0.00014479655 -1.6072599e-005 1.1969698e-005 1.0001427 -0.0023771189
12589.254117942 0.9969117 -0.007193462 1.0674503e-005 1.2468457e-005 6.3057737e-006 0.00015819696
-1.7880848e-005 -2.8057577e-006 0.27613226 -0.95298272 -4.7861236e-006 2.1626668e-006
-7.858458e-006 0.0001591107 -2.7609731e-005 1.623768e-005 1.00018 -0.0025160084
13335.214321633 0.99715507 -0.0074984166 5.9808217e-006 -6.7153933e-006 4.9107257e-006 0.0001614839
7.4939953e-006 1.2397862e-005 0.22294749 -0.96675205 -1.4047721e-005 5.4730417e-006
5.2882624e-006 0.00016309122 -1.1444949e-005 2.4963339e-005 0.99998361 -0.0023580492
14125.375446228 0.99691612 -0.0081613753 1.9951976e-006 5.1280506e-007 1.4307022e-005 0.00016719285
-2.2957107e-005 8.4174353e-006 0.168312 -0.9769845 -1.8630122e-005 1.8380351e-005
9.721939e-006 0.00017423792 -1.7469643e-005 1.3017145e-005 1.0000975 -0.0023177133
14962.356560944 0.99678403 -0.0084666703 6.626281e-006 1.6522867e-005 -7.6097031e-006 0.00018578794
1.6814014e-005 2.5296479e-006 0.11266819 -0.98544872 1.2961988e-005 -2.9145172e-006
3.6811996e-006 0.0001829978 -1.1784586e-005 1.4164456e-005 1.0000145 -0.0025304658
15848.931924611 0.99704087 -0.0090094702 -3.0725603e-006 2.8126578e-006 1.4335795e-005 0.00020578102
-3.5678545e-006 6.0766838e-006 0.05607466 -0.98952663 -2.7075062e-006 -2.3571868e-006
-7.2416873e-007 0.00020730816 7.6126066e-006 -6.5499203e-006 1.0000623 -0.0026014501
16788.040181226 0.9969281 -0.0096357772 -1.1993307e-005 -1.2736868e-005 7.1636291e-006 0.00021422177
1.0257376e-005 -1.0482651e-005 -0.00052944606 -0.99091601 1.0955983e-005 7.083367e-007
5.2845812e-006 0.00020885038 2.6781812e-005 -1.3103915e-005 1.0000863 -0.002672899
17782.794100389 0.99703264 -0.0099999821 -1.0060824e-005 1.1743282e-005 1.8343822e-005 0.00021997192
-1.0472171e-005 1.7917306e-006 -0.057257939 -0.98889172 1.2378475e-005 8.0275358e-006
-1.1834561e-005 0.00023107555 -1.5885364e-006 2.3473887e-005 0.99999815 -0.0027191397
18836.490894898 0.99701411 -0.010596808 1.6246788e-005 1.1183811e-005 -1.1424182e-005 0.00023348203
-6.8603796e-008 3.6455219e-006 -0.11356545 -0.98410964 -3.1181087e-006 2.6000273e-006
-1.9565427e-005 0.00024904695 -1.4772834e-005 -1.7133671e-005 1.0000197 -0.0028274243
19952.623149689 0.99698734 -0.011440936 -6.9263383e-006 3.1410432e-006 -1.1324153e-005 0.00024976442
-7.0917217e-006 -5.3045405e-006 -0.16893694 -0.97590572 1.214994e-005 1.1692039e-005
2.2209359e-005 0.00026804229 -1.3418375e-005 5.3239573e-006 1.0000069 -0.0028606155
21134.890398366 0.99703038 -0.011959384 -1.2383591e-006 1.09476e-006 1.3115584e-005 0.00025769009
1.895653e-006 2.9279208e-005 -0.22349946 -0.9647119 -3.8247817e-006 -2.4068793e-005
-1.1756163e-005 0.0002736047 8.1624667e-006 1.2953267e-005 0.99992347 -0.0030541585
22387.211385683 0.9969632 -0.012759935 -1.5373338e-005 1.0619759e-005 1.1161161e-005 0.00029922806
-6.1252836e-006 9.6361937e-006 -0.27652106 -0.95073736 -4.2569213e-006 9.4675052e-006
2.0480736e-006 0.00030112072 4.0142854e-006 2.1661825e-005 0.99984866 -0.0031191823
23713.737056617 0.99695045 -0.013433353 7.2130291e-007 4.462112e-005 1.569461e-005 0.00030351052
-1.0836887e-005 7.1707727e-006 -0.32810116 -0.93406063 -2.7440205e-008 -1.1096326e-006
1.6739121e-005 0.00029040038 -1.7512844e-005 -1.9279529e-005 0.99973589 -0.0031085834
25118.864315096 0.99704862 -0.014126966 1.3083434e-005 1.682528e-006 7.182593e-006 0.00032284917
-6.8495847e-006 4.9208052e-006 -0.37747574 -0.91531867 1.2906487e-005 1.7610682e-006
-9.1577049e-006 0.00032860489 -5.5101968e-006 -2.6354041e-006 0.99991089 -0.0033658422
26607.250597988 0.99692649 -0.014955794 -6.7069491e-006 1.7747272e-005 8.1189355e-006 0.00034328082
-8.0769687e-006 8.7923108e-006 -0.42477959 -0.89436466 -2.6090752e-006 -1.020031e-006
1.3278929e-005 0.00035019385 -1.9769233e-005 1.9841582e-005 1.0000137 -0.0035298234
28183.829312645 0.99684584 -0.016012855 -7.7384203e-007 1.1034367e-005 3.6858639e-006 0.00037626471
-8.4513667e-006 9.9337094e-006 -0.47024071 -0.8713569 -6.3463102e-007 -2.2589386e-006
1.2261719e-006 0.00034388722 4.5026418e-006 1.7200631e-005 0.99976557 -0.0036129893
29853.82618918 0.9969455 -0.016957149 -2.1537462e-005 7.4186732e-006 4.9834111e-006 0.00037133912
-8.4825189e-007 1.4541589e-005 -0.51278621 -0.84676021 2.9140022e-006 1.6893133e-005
6.3493135e-006 0.00036015734 -9.2551236e-006 -4.4988014e-006 1.0000136 -0.0038335279
31622.776601684 0.9968583 -0.017979616 -9.9204672e-006 1.0031468e-005 7.2034386e-006 0.00041982709
-4.3170298e-006 4.8029483e-006 -0.55299348 -0.82110959 -5.8782248e-006 4.6172559e-006
8.3878158e-006 0.00040830014 -3.0045232e-005 -1.493013e-005 0.99985898 -0.0040757782
33496.543915783 0.99687654 -0.018972751 6.8000795e-006 2.0542468e-005 -1.1674125e-005 0.00041268073
7.0448405e-006 6.2632425e-006 -0.59091717 -0.79440767 -9.1755959e-007 -9.5899595e-006
9.5671567e-007 0.00043857188 -4.6679233e-006 -1.5511427e-005 0.99975771 -0.0041601253
35481.338923358 0.99676955 -0.020067008 -2.9572391e-005 8.7475819e-006 7.792567e-006 0.00045922332
4.6271198e-006 1.797129e-005 -0.62619251 -0.76672906 1.7148335e-005 -2.4809949e-006
1.9628809e-005 0.00046126763 1.3607888e-005 -1.4790902e-006 0.99984193 -0.0042557353
37583.740428844 0.9968496 -0.021135552 -3.7215427e-006 -2.1080821e-006 2.2885501e-005 0.00045920367
-4.4266335e-006 2.0680369e-005 -0.65905631 -0.73881805 3.2291055e-007 1.8026381e-006
1.6953274e-005 0.00048482022 2.3585239e-005 -1.0459456e-005 0.99956459 -0.0044738729
39810.71705535 0.99676156 -0.022380769 -2.5951989e-005 9.7171387e-006 -5.5058615e-007 0.00051459338
-1.5265774e-005 2.8435845e-005 -0.68954855 -0.71065968 -1.1295054e-005 8.2175611e-006
2.5739077e-005 0.00051625806 -2.0109866e-005 -3.4474581e-007 0.99956346 -0.0046481993
42169.650342858 0.99661744 -0.023834728 -6.2818623e-007 2.6397724e-005 1.0131706e-006 0.00052290905
-7.4432342e-006 2.6634321e-005 -0.71774751 -0.68240339 -4.708038e-006 9.6265821e-006
2.0745714e-005 0.00052942935 -5.936799e-006 2.4790204e-005 0.99967146 -0.0048929774
44668.359215096 0.99684238 -0.025187742 -2.1413294e-005 3.1821783e-005 2.1675289e-005 0.00056966336
-7.3427436e-006 2.2769465e-005 -0.74359238 -0.65413648 -9.9122299e-006 5.8801224e-006
2.7999951e-005 0.00058922835 1.2366268e-005 4.3256405e-006 0.9996056 -0.0051939441
47315.125896148 0.99682099 -0.026555883 -9.1512102e-006 5.3777235e-006 2.6400807e-005 0.00059983612
6.9860812e-006 1.5559946e-005 -0.76746553 -0.62616909 1.6787725e-006 2.0378553e-007
2.3740067e-005 0.00060865795 8.4978683e-006 -3.0361227e-006 0.99956614 -0.0054509239
50118.723362727 0.99655527 -0.028216023 1.3331205e-005 2.3245899e-005 1.5266844e-005 0.00063997816
-7.9614019e-006 2.0071744e-005 -0.78923374 -0.59854037 -1.0319161e-005 6.9124208e-006
1.0795308e-005 0.00065825513 -1.9094e-006 1.6764148e-005 0.99945587 -0.0057471604
53088.444423099 0.99663156 -0.029865883 -1.5405314e-005 1.0424328e-005 3.2668395e-005 0.00068664842
-7.6264423e-006 2.2477901e-005 -0.80918419 -0.57152683 1.2223561e-005 -8.5951243e-008
1.7405579e-005 0.00067857263 6.8144273e-006 2.5007594e-005 0.99964637 -0.0060547628
56234.132519035 0.99656844 -0.031784125 -9.5713831e-006 4.1718136e-005 2.7882525e-005 0.00071853807
-8.0724758e-006 2.4658397e-005 -0.82726437 -0.54512233 6.3816697e-006 1.056946e-005
2.1453927e-005 0.00072751311 2.4297016e-005 1.7534951e-005 0.99946713 -0.0063896249
59566.214352901 0.99654591 -0.033563428 -2.2267695e-006 2.9005332e-005 3.1209995e-005 0.00074232515
-1.0159754e-006 1.749997e-005 -0.84377617 -0.51957393 -9.2420314e-006 1.4312851e-005
2.1197562e-005 0.00076556543 5.5950763e-006 1.8985076e-005 0.99922192 -0.0066256034
63095.734448019 0.99638391 -0.035613827 -7.3964979e-006 6.1849637e-006 1.9408888e-005 0.00080294872
-4.3635487e-006 2.2135055e-005 -0.85879987 -0.49455363 -2.1526469e-006 1.7613867e-005
2.8553603e-005 0.00082179857 -5.5547366e-006 3.2589262e-006 0.99946725 -0.0069518434
66834.391756861 0.99628443 -0.037576362 -1.1241264e-005 7.1583764e-007 3.9465678e-005 0.00087413401
6.1934506e-006 2.796099e-005 -0.87230593 -0.47037545 -2.3162261e-006 7.7805244e-006
3.5565503e-005 0.00086702436 1.7389984e-005 1.3479844e-005 0.99946326 -0.0072399364
70794.578438414 0.99601668 -0.039914746 9.3462486e-006 3.412896e-005 2.65444e-005 0.0008874397
-9.1380571e-006 3.0557549e-005 -0.88460654 -0.44721776 -1.4549415e-006 1.8339477e-005
3.6447444e-005 0.000900994 -9.0947051e-006 1.9855313e-005 0.9992004 -0.0078263413
74989.420933246 0.99594539 -0.042139214 -2.7462813e-005 2.5698071e-005 5.7243018e-005 0.00097137532
-1.4668344e-005 3.475367e-005 -0.89574409 -0.42475984 -3.0276772e-006 2.1232423e-005
5.8406011e-005 0.00095743453 -1.130932e-005 1.3490673e-005 0.99930352 -0.0081806481
79432.823472428 0.99589872 -0.04466261 5.9343353e-007 4.9095033e-005 3.6693906e-005 0.0010089391
-3.0130905e-006 3.4400458e-005 -0.90584171 -0.40309945 6.2643403e-006 1.9571464e-005
3.5827794e-005 0.0010123417 -5.2971673e-006 2.4611913e-005 0.99908215 -0.0084797312
84139.514164519 0.99572104 -0.047181252 2.5958759e-006 5.4801993e-005 1.7847287e-005 0.0010627963
-1.7044676e-005 3.9857296e-005 -0.91470683 -0.38249111 -1.8802003e-006 -7.3562496e-006
5.8137259e-005 0.0010847183 -4.5709653e-006 1.5869342e-005 0.99897552 -0.0087695196
89125.093813375 0.99572408 -0.050023835 -2.2784907e-006 6.0521332e-005 4.1783893e-005 0.0011233717
-3.4844271e-007 4.0994211e-005 -0.92288852 -0.36271432 -9.6116912e-007 4.931358e-006
4.2563966e-005 0.0011459632 1.0106854e-005 2.6744319e-005 0.9990893 -0.0092645669
94406.087628592 0.99551094 -0.052988432 -1.3528253e-005 3.2071559e-005 4.1202973e-005 0.0011804554
-1.4695854e-005 4.6443147e-005 -0.93026137 -0.34378716 -1.2472802e-005 2.8102535e-005
6.1637067e-005 0.0012143513 3.2013129e-005 9.9189238e-006 0.99914104 -0.0098624788
100000 0.99541515 -0.056097701 -5.7790442e-007 3.6248948e-005 7.2006347e-005 0.0012737501
-1.8368419e-005 5.2182557e-005 -0.93681741 -0.32559654 -5.8044538e-006 2.0406633e-005
7.2079609e-005 0.0012733925 -1.8077973e-005 1.4996888e-005 0.99907106 -0.010368655
105925.37251773 0.99515271 -0.059394974 3.2393159e-006 4.2517127e-005 6.9367947e-005 0.0013403569
-9.3153067e-006 5.4075543e-005 -0.94270271 -0.30844042 3.6452354e-006 1.2711605e-005
4.5962192e-005 0.0013358663 -6.6441048e-006 2.4633449e-005 0.99887407 -0.010901216
112201.8454302 0.99501777 -0.063040085 -3.8522532e-005 5.5792378e-005 9.096045e-005 0.0014443074
-1.078601e-005 6.1723484e-005 -0.94811153 -0.29202187 -1.809738e-006 1.3138695e-005
9.9022545e-005 0.001428462 -1.3913461e-005 2.287936e-005 0.99909294 -0.011566046
118850.2227437 0.99467397 -0.066626482 -3.8996452e-005 5.9768656e-005 9.5024647e-005 0.0015028425
-1.0487106e-005 5.879291e-005 -0.95284349 -0.27631375 -7.0118631e-006 1.7273336e-005
7.5654731e-005 0.0014991477 -6.5333147e-006 1.6063883e-005 0.99916172 -0.012062813
125892.54117942 0.99464166 -0.070567437 -7.725419e-006 6.325193e-005 0.00010894501 0.001588776
-2.2022597e-005 6.0575887e-005 -0.95714796 -0.26143271 -1.1338049e-005 2.7772379e-005
0.00010100254 0.0016006527 -2.2007844e-005 4.0089257e-005 0.99908531 -0.012797151
133352.14321633 0.99434412 -0.074810728 -7.214549e-006 5.5746281e-005 0.00010026564 0.0016839212
-7.271231e-006 6.6933579e-005 -0.96097392 -0.24725632 1.4376546e-005 2.4792262e-005
0.00010329315 0.0016910882 3.7795387e-006 2.2782366e-005 0.99905699 -0.013421172
141253.75446228 0.99394798 -0.079207473 -4.8278889e-007 4.2442691e-005 0.00013760795 0.0017762765
-1.579841e-005 5.6980989e-005 -0.96439904 -0.23386098 -9.1686325e-006 2.1820342e-005
0.00011641668 0.0017909862 2.2230743e-005 2.3457134e-005 0.99915195 -0.014285832
149623.56560944 0.99340963 -0.083863817 -4.0955842e-006 7.0102455e-005 0.00013978318 0.0018848322
1.5530344e-006 6.7234505e-005 -0.96752083 -0.22105655 -8.5933716e-006 2.636598e-005
0.00015077616 0.001900651 -2.0402371e-005 2.2639058e-005 0.99897319 -0.015184062
158489.31924611 0.99307913 -0.088841923 -1.0754216e-005 8.5197556e-005 0.00017366826 0.0019915288
-2.2521843e-005 8.3925552e-005 -0.97024113 -0.20891376 -1.1819976e-005 3.0768904e-005
0.00016677065 0.0020047987 -1.4783896e-005 2.1597925e-005 0.99897319 -0.015901178
167880.40181226 0.99250877 -0.094143607 1.5944979e-006 6.5378299e-005 0.00015014675 0.0021132855
-1.7921964e-005 8.1735445e-005 -0.97273993 -0.19733077 -2.9692336e-008 2.7503324e-005
0.0001651583 0.0021000514 -2.9056439e-006 4.0003903e-005 0.99893188 -0.017032193
177827.94100389 0.99192613 -0.099651881 -9.7363045e-006 8.6340471e-005 0.00018198074 0.00223025
-7.9382262e-006 8.2723906e-005 -0.97424185 -0.18537042 9.6160975e-006 3.5343633e-005
0.00020269272 0.0022422073 -1.6659857e-005 3.4029679e-005 0.9988603 -0.017899182
188364.90894898 0.99125147 -0.1054743 -4.6354521e-006 8.1025952e-005 0.00020892714 0.0023488924
-8.9918231e-006 8.8843903e-005 -0.97680128 -0.17658848 -7.7136847e-006 2.3527084e-005
0.00022278991 0.0023579237 -2.1481226e-005 2.0265139e-005 0.99872911 -0.018933751
199526.23149689 0.99059153 -0.11163818 -2.7733035e-005 8.9134075e-005 0.00023672667 0.0025116347
-2.4040824e-005 8.2238315e-005 -0.97859126 -0.16666782 -7.3566607e-006 2.8716648e-005
0.00023241401 0.0025093469 -2.6402471e-005 4.4029406e-005 0.99867654 -0.020022932
211348.90398366 0.98978609 -0.11829848 -8.8499919e-006 9.2789334e-005 0.00024022233 0.0026239573
-1.8442252e-005 9.6209376e-005 -0.9802705 -0.15742561 -8.5524634e-006 1.9244595e-005
0.00026944591 0.0026360238 -7.6993474e-006 3.6669378e-005 0.99849945 -0.021220038
223872.11385683 0.98891914 -0.12519297 -1.8749975e-005 9.9433113e-005 0.00028173273 0.0027849334
-1.9681656e-005 9.723469e-005 -0.98167592 -0.14858402 8.1869448e-006 3.7366302e-005
0.00029646474 0.002789787 -2.733437e-005 4.0495241e-005 0.99841118 -0.022348393
237137.37056617 0.98796636 -0.1325426 -1.5696434e-005 0.00010443393 0.00035443393 0.0029405777
-1.4795361e-005 9.3209499e-005 -0.98293328 -0.14021161 -6.6964089e-006 5.6269942e-005
0.00031726464 0.002961312 -3.2022165e-006 3.2042873e-005 0.99846303 -0.023595272
251188.64315096 0.98706305 -0.14031179 -7.0290544e-006 9.4324583e-005 0.00035309949 0.0031327736
-1.6210737e-005 0.00012119985 -0.98407227 -0.1323003 -7.8474395e-006 3.5003683e-005
0.00033984223 0.0031600806 -5.4998159e-006 1.8421901e-005 0.99837929 -0.025205351
266072.50597988 0.98559821 -0.14861251 -3.6084224e-005 9.4060655e-005 0.00039988066 0.0032796469
-1.911184e-005 0.00012194298 -0.98510331 -0.1248904 1.6402049e-006 3.8499722e-005
0.00040421006 0.0033051488 1.8024621e-005 7.0188515e-005 0.99818152 -0.026443508
281838.29312645 0.98419124 -0.15731925 -1.9769048e-005 0.00012415575 0.0004383137 0.0034950441
-1.935324e-005 0.00013546174 -0.98596025 -0.11786765 4.1879571e-006 4.7940666e-005
0.0004306279 0.0034847057 7.8648429e-007 4.9544567e-005 0.99824011 -0.027888935
298538.2618918 0.98275733 -0.16642343 -1.1026533e-005 0.00012643909 0.00049694208 0.0036893142
-6.6963194e-006 0.00013889198 -0.9867695 -0.11104415 -1.3682867e-005 6.1192964e-005
0.00051021954 0.0036718841 4.1075336e-006 6.6940695e-005 0.99804592 -0.029497474
316227.76601684 0.98090696 -0.1761239 -1.3910669e-005 0.00014262932 0.00055553793 0.0038777685
-9.4143388e-006 0.0001491117 -0.98747015 -0.1047722 -8.7477847e-006 3.5464345e-005
0.00053658296 0.0038852827 -2.2350846e-006 4.1313062e-005 0.99797738 -0.031155765
334965.43915783 0.97908831 -0.18640675 -9.6136882e-006 0.0001307208 0.00059679238 0.0040618577
-2.1269276e-005 0.00015914842 -0.98815233 -0.098883376 -9.282222e-006 5.4542175e-005
0.00059866527 0.0041039162 -1.2361307e-005 4.4050201e-005 0.99771386 -0.032958154
354813.38923358 0.97692108 -0.19715671 -2.0377249e-005 0.00014096413 0.00067660946 0.0043204962
-2.2909233e-005 0.00016971167 -0.98878878 -0.09313421 -1.5657304e-005 5.2544863e-005
0.00066648715 0.0043336218 -1.004658e-005 7.3925803e-005 0.99781525 -0.03488788
375837.40428844 0.97447604 -0.20858112 -2.3229682e-005 0.00017161688 0.00073883962 0.004541174
-2.3411723e-005 0.00016907917 -0.98919731 -0.087704808 -1.8852163e-006 6.6852612e-005
0.00072366971 0.004576033 -9.9853314e-006 8.7650864e-005 0.99762446 -0.036922071
398107.1705535 0.97163099 -0.22067693 -3.7690279e-005 0.00018257214 0.00080067042 0.0048025884
-2.9943692e-005 0.00018706228 -0.98976952 -0.082392819 -9.6771337e-006 6.3112224e-005
0.00083596306 0.0048484155 9.2458786e-006 4.7377689e-005 0.99725109 -0.039045803
421696.50342858 0.96873903 -0.23337241 -3.3199482e-005 0.00017938022 0.00088658894 0.0050604194
-3.2793407e-005 0.00019636942 -0.98994565 -0.077252924 1.247223e-005 8.1538004e-005
0.0008988445 0.005075132 -9.9514837e-006 8.5529973e-005 0.9970777 -0.041173115
446683.59215096 0.96521276 -0.24679801 -4.4217792e-005 0.0001950624 0.00097834005 0.0053545628
-4.0480161e-005 0.00020238046 -0.98996764 -0.073615022 1.7286104e-005 6.6084416e-005
0.00099131966 0.005355238 1.202897e-005 7.6919554e-005 0.99669641 -0.043458141
473151.25896148 0.96154189 -0.26076245 -5.2190782e-005 0.00021173846 0.0011079964 0.0056198696
-4.465237e-005 0.00022417607 -0.99069262 -0.06935557 -9.8556075e-006 8.7195993e-005
0.0011149507 0.0056613246 -3.8638195e-006 7.8657271e-005 0.99662113 -0.045817014
501187.23362727 0.95711637 -0.27549541 -5.2577041e-005 0.00022202605 0.0012169725 0.0059541808
-4.8382732e-005 0.0002453395 -0.99109459 -0.065164089 3.0153211e-007 9.100834e-005
0.0012194436 0.0059662797 6.3896136e-006 8.8036366e-005 0.99659622 -0.048450995
530884.44423099 0.95245045 -0.29110533 -2.245906e-005 0.00023315138 0.0013429056 0.0062406133
-4.9954906e-005 0.00024244754 -0.99138141 -0.061095592 8.1634244e-006 8.0771482e-005
0.0013319845 0.0062885643 -3.6118283e-005 8.5221342e-005 0.99638999 -0.051256292
562341.32519035 0.94727337 -0.30772546 -5.8327387e-005 0.00024023786 0.0014981277 0.0065901815
-5.3844851e-005 0.0002610551 -0.99175322 -0.057432372 -1.4665084e-005 9.397418e-005
0.0014847603 0.0066176294 -8.2045399e-006 0.0001040891 0.99618876 -0.054301709
595662.14352901 0.9415133 -0.32466948 -7.6469827e-005 0.00025064938 0.0016408483 0.0069407276
-4.7060686e-005 0.00028386372 -0.99194473 -0.053894687 -1.6955981e-005 0.00010508909
0.0016424651 0.0069715772 -1.0563321e-005 0.00011308604 0.99584591 -0.05742532
630957.34448019 0.93507642 -0.34270826 -8.6910957e-005 0.00024487788 0.0018068306 0.007315082
-7.0093171e-005 0.00030397566 -0.99207777 -0.050467927 6.2320009e-006 0.00010273445
0.0017744089 0.007333538 -3.6571968e-005 9.3063114e-005 0.99568594 -0.06066386
668343.91756861 0.9277705 -0.36168483 -5.8609428e-005 0.00028311618 0.0020046611 0.007683937
-6.3904532e-005 0.00032561153 -0.99229908 -0.047375992 -1.1167792e-005 0.00010195835
