!Keysight Technologies,E5080A,MY55100144,A.11.70.03
!Date: Monday, November 13, 2017 17:25:11
!Correction: S11(Full 3 Port(1,2,3)) 
!S12(Full 3 Port(1,2,3)) 
!S13(Full 3 Port(1,2,3)) 
!S21(Full 3 Port(1,2,3)) 
!S22(Full 3 Port(1,2,3)) 
!S23(Full 3 Port(1,2,3)) 
!S31(Full 3 Port(1,2,3)) 
!S32(Full 3 Port(1,2,3)) 
!S33(Full 3 Port(1,2,3)) 
!S3P File: Measurements: <S11,S12,S13>,
!<S21,S22,S23>,
!<S31,S32,S33>:Log Frequency Sweep
# Hz S  RI   R 50
10000 0.99667066 -0.0057044737 6.0939656e-006 -3.990101e-006 1.7444696e-005 0.00012960052
1.9682286e-006 -1.1963401e-006 0.47081971 -0.87580746 -8.902929e-006 -4.0498958e-006
1.741206e-005 0.00012529209 -1.221947e-005 -1.475486e-006 0.99974829 -0.0023832661
10592.537251773 0.99684262 -0.0062451293 5.4663647e-006 -9.3682155e-007 2.2413811e-005 0.00015239419
-2.1137907e-005 -5.7665461e-006 0.42582306 -0.89837396 6.8187355e-006 3.051111e-006
-3.4125576e-006 0.00013955064 -3.8050207e-006 7.9345746e-006 0.99996871 -0.0022509203
11220.18454302 0.99697465 -0.0066128895 -4.0215391e-006 1.0165987e-005 2.0096451e-005 0.00012348012
1.9208398e-006 -6.4482665e-006 0.37755895 -0.91909641 1.1910885e-005 5.9300914e-006
-9.8826567e-006 0.00014614225 1.1031074e-005 -6.6845846e-006 1.0001504 -0.0024637762
11885.02227437 0.99671125 -0.0070084287 -2.0502162e-006 -6.5847001e-007 -8.1409835e-006 0.00014752528
-7.2751359e-006 4.8499869e-006 0.32790834 -0.93786603 2.250707e-006 -6.9634766e-006
-4.0833934e-006 0.00014578841 -1.3534997e-005 -1.2939603e-005 0.99993581 -0.0023349423
12589.254117942 0.99689555 -0.0073026917 1.0832485e-005 -1.210915e-006 -1.3890268e-005 0.00015381389
-1.2570982e-005 -8.0975415e-006 0.27618659 -0.9539988 -1.4999688e-005 1.7926963e-006
5.9299464e-006 0.00012918051 1.1621406e-005 4.7977956e-006 0.99996632 -0.0024762149
13335.214321633 0.99698949 -0.0075870347 -1.3768296e-005 -3.7105772e-005 1.9223593e-005 0.00013840817
-5.4637076e-006 9.6409089e-008 0.22305456 -0.96787661 -1.2278394e-006 4.9866221e-006
1.5639096e-005 0.0001762532 -1.5808217e-005 -6.7433384e-006 0.99987161 -0.0024503518
14125.375446228 0.9968608 -0.0082367221 4.1722433e-006 6.0924276e-006 -5.7689772e-006 0.00017941986
3.2754069e-006 3.7406494e-006 0.16841747 -0.97831929 -1.2255098e-005 -1.2008819e-005
2.7311164e-005 0.00018733094 4.7084332e-006 7.7179993e-006 1.0000843 -0.0023956634
14962.356560944 0.9968071 -0.0085974336 2.2233039e-006 -3.6967106e-006 7.3304263e-006 0.00017936369
-6.1782571e-006 8.7511498e-006 0.11270856 -0.98671281 8.3045143e-007 9.6753447e-006
8.058867e-006 0.00018357487 1.6273993e-005 -2.2417844e-005 0.99991578 -0.0025865673
15848.931924611 0.99695492 -0.0091850273 -4.5168044e-006 4.536299e-006 3.5327626e-005 0.00019332991
1.176449e-005 -6.4485048e-006 0.056092594 -0.99103892 -1.8394129e-006 1.102797e-005
1.579224e-005 0.00019604704 -2.0461333e-005 9.0849062e-006 1.0000854 -0.0024799111
16788.040181226 0.99681032 -0.009742233 1.0409442e-005 2.1145841e-005 -4.0162395e-006 0.00020542725
-5.7732541e-006 6.4695251e-007 -0.0005994722 -0.9924531 -9.9593808e-006 1.1120356e-006
-1.3970051e-005 0.00019999292 9.8349246e-006 -1.0699729e-005 1.0000383 -0.0027581798
17782.794100389 0.9968192 -0.010172533 -9.9800636e-006 1.6731423e-006 -1.859869e-005 0.00020912942
-1.333329e-005 2.096323e-006 -0.057471089 -0.99049491 -2.4043713e-006 -1.8287446e-005
7.9938382e-006 0.00023048825 9.1632292e-006 -9.5582309e-006 0.99984109 -0.0027232575
18836.490894898 0.99674809 -0.010877414 -3.1441294e-005 1.321985e-005 4.052521e-006 0.00024656614
9.0514156e-008 2.8454278e-006 -0.11395098 -0.98566139 4.9521913e-007 4.1361209e-006
1.8638777e-005 0.00023287206 -4.2786214e-006 -6.6207042e-007 0.99978209 -0.0027910019
19952.623149689 0.99694073 -0.011560103 1.8867805e-006 1.8253263e-006 1.1533059e-005 0.0002510582
-1.0085474e-005 1.3139251e-006 -0.16935657 -0.9775902 6.751709e-007 -2.1772685e-005
2.2354598e-005 0.00024980074 1.6524118e-006 5.0456424e-006 0.99983567 -0.0029768297
21134.890398366 0.99676466 -0.012171953 -1.009436e-005 -2.1697959e-005 -5.6705512e-006 0.00025586778
-1.168472e-005 6.0878092e-006 -0.22421259 -0.96641845 1.2119616e-005 -2.3491341e-006
6.8800305e-006 0.00027645711 -1.6350707e-005 -7.466957e-006 0.99971443 -0.0031837206
22387.211385683 0.99681181 -0.01305116 4.3311525e-006 7.7610139e-006 -7.9689653e-006 0.00029680636
-3.3247773e-006 4.1067715e-006 -0.27721757 -0.95259935 6.0488378e-006 -3.7830833e-007
1.9049665e-005 0.00028505115 1.3229879e-006 -2.5775067e-005 0.99978393 -0.0030510754
23713.737056617 0.99675584 -0.013770884 -4.0751422e-007 -6.9777493e-006 -1.1135584e-006 0.00028376436
2.2094287e-005 2.0973478e-006 -0.32877842 -0.93585438 2.5518198e-006 -3.9728889e-006
7.868387e-006 0.00029173715 -2.157095e-005 1.5109622e-006 0.99977958 -0.0033540714
25118.864315096 0.99683088 -0.014592567 -1.8822167e-005 1.2110211e-005 6.7182855e-006 0.0003182012
-2.9851678e-006 -1.3116165e-006 -0.37825087 -0.91714573 -4.8241527e-006 1.546026e-005
-1.1814308e-005 0.00030651191 2.4648496e-005 -1.9507193e-005 0.99977958 -0.0033822383
26607.250597988 0.99668318 -0.015186768 1.2892175e-005 -6.6747712e-006 1.885756e-005 0.00032924381
1.0241132e-005 1.0807705e-005 -0.42589283 -0.89612192 -1.0090997e-005 2.031953e-007
2.4236842e-005 0.00032612093 1.1254035e-005 -1.8640831e-005 0.99976414 -0.0034738181
28183.829312645 0.99685407 -0.016423916 -9.1567154e-007 -2.7761082e-006 5.1718912e-006 0.000341796
-1.6921129e-005 1.1586992e-005 -0.47138935 -0.873276 -1.8250012e-006 2.5303466e-006
1.6420916e-005 0.00036239575 2.781258e-006 -8.1543558e-006 0.9998191 -0.0037078578
29853.82618918 0.99685282 -0.017287841 -1.6010148e-005 1.8618166e-005 5.5887335e-006 0.00036625363
-9.2029077e-006 -1.1396578e-005 -0.51404834 -0.84868342 6.7829683e-007 -6.1212027e-008
1.4831683e-005 0.00036732518 -9.5578753e-007 -2.79261e-005 0.99978441 -0.0037301884
31622.776601684 0.99677026 -0.018405315 -4.6182313e-006 1.0920971e-006 1.3908327e-005 0.00039389104
-5.8906576e-006 1.1139869e-005 -0.55434388 -0.82298791 -1.1939288e-006 -1.3530665e-005
1.3383797e-005 0.00038630347 -1.6025604e-005 9.1382208e-006 0.99977332 -0.0040823491
33496.543915783 0.99677604 -0.019331381 -2.031877e-005 -2.795359e-006 1.1028692e-005 0.0003933151
1.061977e-005 8.0582104e-006 -0.59239185 -0.79618376 1.1337636e-006 1.262374e-005
1.2390502e-005 0.00041278888 1.7500811e-006 2.9085181e-006 0.99975479 -0.0041737328
35481.338923358 0.99666798 -0.020536691 5.8622086e-006 -2.7636206e-006 3.6906513e-006 0.0004420999
2.2277829e-006 1.1745145e-006 -0.6277436 -0.76861721 -3.5324797e-006 5.2523541e-007
2.8569615e-005 0.00042340872 -1.986467e-005 1.9906113e-006 0.99977106 -0.0042393277
37583.740428844 0.9966712 -0.021669438 6.1964788e-006 -1.4575964e-005 2.3249188e-005 0.00045171604
2.2842571e-006 2.3135021e-006 -0.66073692 -0.74065596 3.9230269e-008 1.2034263e-005
-1.1231713e-005 0.00045855646 9.3299695e-006 -1.075617e-005 0.99965501 -0.0045120562
39810.71705535 0.9966898 -0.022924324 -1.7960036e-005 -1.7091228e-005 -4.1053936e-006 0.0004754535
-5.090129e-006 8.3376617e-006 -0.69131202 -0.71237922 6.0440643e-006 -1.0045899e-005
1.9919697e-005 0.00049136003 -1.3049784e-006 -8.13928e-006 0.9995867 -0.0046727723
42169.650342858 0.99664837 -0.024282757 -3.1623418e-005 1.2808422e-005 -2.3446664e-006 0.00053294218
-7.1499944e-006 1.2122582e-005 -0.71962547 -0.68407577 -1.7301794e-006 1.925132e-006
2.8566865e-006 0.00055252027 -2.7549411e-005 9.2016398e-006 0.9996134 -0.0050369287
44668.359215096 0.99672502 -0.025727961 -4.9314326e-006 1.5662654e-005 -3.3205804e-006 0.00055399392
-8.206569e-006 -1.0450815e-007 -0.74565548 -0.65581298 -2.1204518e-007 -1.7136696e-005
8.9055047e-006 0.00052324851 -4.7403319e-006 1.5171942e-005 0.99944401 -0.0051015117
47315.125896148 0.99672836 -0.027228298 1.089559e-005 1.2278677e-005 -1.4551255e-006 0.00059482234
-1.2125218e-005 -2.868969e-006 -0.76950723 -0.62776607 -8.0080299e-006 1.5014401e-005
2.0900938e-005 0.00060859037 1.4116498e-005 6.2237427e-006 0.99964213 -0.005306927
50118.723362727 0.99650127 -0.028861197 1.9133855e-005 9.7711372e-006 1.9955876e-005 0.0006090955
3.4280602e-006 1.9583542e-006 -0.79139423 -0.60010505 1.8101488e-006 6.983978e-006
1.8129334e-005 0.00061299192 3.6570952e-006 5.3503377e-006 0.99926955 -0.0056742202
53088.444423099 0.99648595 -0.030697685 3.6412587e-006 1.1376999e-005 -7.5594839e-006 0.00066213671
-2.3567361e-006 -5.0786712e-006 -0.81145579 -0.57304102 1.3258755e-006 9.3901854e-006
2.2662318e-005 0.00066398596 6.6574698e-006 2.5622132e-005 0.99957699 -0.0059493314
56234.132519035 0.9964506 -0.032535017 -3.6306162e-006 2.7724738e-005 4.2009422e-005 0.00071121502
-7.2048942e-006 1.0773334e-005 -0.82958829 -0.54655588 -5.1357811e-006 -2.824425e-007
3.5086119e-005 0.00069138041 3.6743729e-006 -3.484362e-006 0.99942577 -0.0063502365
59566.214352901 0.99633044 -0.034373406 2.5781179e-005 -3.344866e-007 1.0129007e-005 0.00071818708
7.7654895e-006 4.8752909e-006 -0.84620816 -0.52089769 2.4999943e-007 5.5305827e-006
2.9243278e-005 0.00072252087 -5.2377227e-006 2.2524153e-005 0.99921697 -0.0065953298
63095.734448019 0.99609655 -0.036381282 1.4507634e-005 -3.031302e-006 3.161134e-005 0.0007648571
4.3333825e-006 3.6893887e-006 -0.86116165 -0.49580634 -3.1129991e-006 7.4499967e-006
3.3326705e-005 0.00078556297 2.2617985e-005 -1.1741435e-005 0.99936563 -0.0069391248
66834.391756861 0.99615228 -0.038413443 -3.436995e-006 -1.4458482e-005 3.5142824e-005 0.00082009175
-1.616253e-005 1.1855174e-005 -0.87479854 -0.47160473 -8.2247152e-006 5.1601143e-007
4.2440053e-005 0.00083037186 8.8911438e-006 -3.2935043e-006 0.9994629 -0.0072858119
70794.578438414 0.99602151 -0.04081523 -7.4156821e-007 -3.1752101e-005 1.8599769e-005 0.00086186553
-1.2809142e-005 2.9376854e-006 -0.88712633 -0.44847018 4.1199696e-006 1.0886167e-006
4.1852214e-005 0.00087959657 1.3643734e-005 1.1111184e-005 0.99918067 -0.0077534886
74989.420933246 0.99585301 -0.043199405 1.2951856e-005 -2.8488592e-005 3.4181106e-005 0.00092836481
-4.3333848e-006 3.4034172e-006 -0.89826548 -0.42589882 -1.3694448e-005 2.4048859e-006
4.2114687e-005 0.00092582894 1.1098411e-005 8.3946115e-006 0.99925351 -0.0080409525
79432.823472428 0.9957183 -0.045604315 -2.7966043e-005 -1.3563699e-006 5.192776e-005 0.00099419279
-6.6959592e-006 1.0833704e-005 -0.90837288 -0.40426433 -1.0597009e-005 1.7462078e-005
5.602224e-005 0.00098048022 1.1972704e-005 -1.2030853e-005 0.99902809 -0.0085596582
84139.514164519 0.99566466 -0.048346188 8.3353998e-006 -4.8217853e-006 4.6005396e-005 0.0010171008
1.452242e-006 6.8526519e-006 -0.91734886 -0.38353384 7.6660349e-008 1.2439239e-005
3.0041154e-005 0.0010477025 2.9676946e-006 1.8940069e-005 0.99897951 -0.0088024279
89125.093813375 0.99554795 -0.051079609 -9.7268603e-006 1.2166314e-005 5.6989535e-005 0.0011032765
3.5358009e-006 6.941119e-006 -0.92562312 -0.36366528 8.3499526e-006 9.1455877e-006
3.9894967e-005 0.0010865075 5.5669608e-007 -1.4650341e-006 0.99916041 -0.0094344858
94406.087628592 0.99547821 -0.054165106 -1.8562709e-005 -5.9978697e-006 6.0448907e-005 0.0011542452
-5.4202856e-006 1.9804052e-005 -0.93296939 -0.34473994 -2.3367256e-005 5.7386399e-007
3.9154609e-005 0.0011327323 -1.6460266e-005 2.6915992e-005 0.99912852 -0.0098146768
100000 0.99522144 -0.057400197 9.2107239e-006 1.613331e-005 6.665277e-005 0.0012243851
-1.6494081e-005 4.6602313e-006 -0.93950635 -0.32653639 -2.4822207e-006 1.6227379e-005
4.5968489e-005 0.0012255141 1.861577e-005 2.0152606e-006 0.99887973 -0.010400007
105925.37251773 0.99507272 -0.060752198 -1.1675627e-006 -6.4239666e-006 7.8460194e-005 0.0012998872
-4.9884206e-006 5.4351804e-006 -0.94548267 -0.30934817 -8.0687096e-006 1.9552414e-005
8.1618142e-005 0.0013098503 -3.0321855e-005 8.9557843e-006 0.99902099 -0.010865049
112201.8454302 0.9948175 -0.064395666 5.7217394e-006 1.7618346e-005 0.00011834226 0.0013966555
2.2119652e-006 2.088979e-007 -0.95083648 -0.29280365 1.0171801e-005 9.5549867e-006
0.00010057773 0.0013913841 1.0086601e-005 1.2797099e-005 0.99901903 -0.011558073
118850.2227437 0.9944849 -0.068038419 -4.0691943e-005 9.3136005e-006 6.4719228e-005 0.0014444476
-1.5383943e-005 1.2649351e-005 -0.95564467 -0.27710614 9.2163441e-007 4.755248e-006
8.1171893e-005 0.0014382234 1.9299994e-006 9.1078555e-006 0.99901158 -0.012138998
125892.54117942 0.99440867 -0.07212963 -1.9660934e-005 -9.8741175e-006 7.4133808e-005 0.0015198775
-1.2196891e-005 3.9130218e-006 -0.95991558 -0.26225922 -6.3991979e-007 1.384411e-005
8.7981411e-005 0.001547578 -1.3418261e-006 1.4356576e-005 0.99917555 -0.012853906
133352.14321633 0.99406648 -0.076348506 4.6068891e-008 2.3927478e-005 9.932126e-005 0.0016533695
-2.5662835e-006 9.9719537e-006 -0.96378934 -0.24791683 -1.2264722e-005 8.251026e-006
0.00010375403 0.0016378992 -3.9756014e-006 3.8130825e-006 0.99903995 -0.013521373
141253.75446228 0.99371183 -0.081000976 3.1523786e-007 7.4530453e-006 0.00011520631 0.0017261701
-6.4637829e-006 1.4962144e-005 -0.96718895 -0.23449737 1.322783e-006 1.7343394e-006
0.00013747698 0.0017374119 -1.0501854e-005 -1.4082532e-006 0.99915332 -0.014349721
149623.56560944 0.99326539 -0.085705101 1.4483668e-006 1.9448555e-005 0.00014552478 0.0018419416
-6.7124647e-006 1.4647692e-005 -0.97031856 -0.22170456 -9.1478087e-006 1.2739775e-005
0.00012017985 0.0018396288 -1.5880154e-005 2.2326412e-005 0.99891776 -0.015195178
158489.31924611 0.99286252 -0.090824589 -2.9459126e-005 1.1835824e-005 0.00015199727 0.0019394165
-1.6378228e-005 7.8222899e-007 -0.97313046 -0.2094707 -4.0800169e-006 9.0049107e-006
0.0001579805 0.0019180933 -6.286406e-006 1.8413541e-005 0.99889535 -0.015956122
167880.40181226 0.99211776 -0.096256047 -1.0153573e-005 9.3390963e-006 0.00016172523 0.0020477409
-3.9721608e-006 1.1591647e-005 -0.97559857 -0.1978583 -2.5680183e-006 -2.417157e-007
0.00015781628 0.002044911 -1.5935805e-006 2.0542822e-005 0.99897069 -0.016959419
177827.94100389 0.99167508 -0.10179908 -3.6292815e-005 3.602897e-005 0.00019702406 0.0021872877
-8.6433756e-006 9.868384e-006 -0.97716421 -0.1859042 6.759555e-007 1.7215685e-005
0.00019638067 0.002164938 7.8635994e-006 6.4359283e-006 0.99879986 -0.017985169
188364.90894898 0.99091452 -0.10765982 6.1290137e-007 -1.254042e-005 0.00022923465 0.0022857201
-1.8581526e-005 1.4032687e-005 -0.97963613 -0.17710891 -2.6276396e-006 7.1436725e-006
0.00021292159 0.0022873164 -1.3166416e-005 -4.250142e-006 0.99880522 -0.019136764
199526.23149689 0.99002117 -0.11410238 -1.8127899e-005 3.5500234e-005 0.00025524068 0.0024230611
-2.0525062e-005 2.3575387e-005 -0.98149282 -0.16713008 -4.8035381e-006 1.1307032e-005
0.00021499115 0.0024205176 -7.5662433e-007 3.3520844e-006 0.99858361 -0.020153008
211348.90398366 0.9893555 -0.12080374 -3.2192709e-006 2.2247041e-005 0.0002398511 0.0025765065
-2.3627883e-005 2.0939373e-005 -0.98310143 -0.15781578 3.0243052e-007 9.0026824e-006
0.00024286157 0.0025683607 -2.1828191e-006 2.215254e-006 0.99852717 -0.021093868
223872.11385683 0.98848075 -0.12783648 -5.9172557e-006 -9.6894328e-006 0.00030323243 0.0027081424
-2.0332011e-005 1.6214273e-005 -0.98457772 -0.14893796 -1.6205902e-005 1.7780512e-005
0.00027320048 0.0027142812 -2.203923e-006 1.6192038e-005 0.9985857 -0.02238008
237137.37056617 0.98751688 -0.13541831 -2.1073842e-005 2.6212487e-005 0.00032013448 0.0028945303
-4.6661216e-006 3.2237069e-005 -0.98580688 -0.14063327 6.1576998e-006 2.4397699e-005
0.00031146841 0.002859592 9.5780633e-006 2.0079318e-005 0.99840623 -0.023637705
251188.64315096 0.98638368 -0.14332944 -2.7950551e-005 -1.0626055e-007 0.00034340139 0.0030184414
-1.229477e-005 2.7016609e-005 -0.98699915 -0.13266173 4.9447108e-006 3.2398963e-005
0.00037283689 0.0030379798 2.0346906e-005 9.1830998e-006 0.99841112 -0.025051909
266072.50597988 0.98498958 -0.15165867 -3.3706303e-005 3.9836847e-005 0.00039717753 0.0031812771
-1.6899456e-005 3.2149637e-005 -0.98794758 -0.12525262 -8.9466421e-006 2.0618372e-005
0.00038897656 0.0032024691 5.8335468e-006 5.4473849e-006 0.99821031 -0.026493561
281838.29312645 0.98358536 -0.16067515 -2.0630958e-005 2.3456074e-005 0.00041624575 0.0033820376
-1.8881616e-005 1.415302e-005 -0.98889285 -0.11814602 -7.3605606e-006 2.2980792e-005
0.00041510575 0.0033937069 -9.1245183e-006 2.761306e-005 0.99820358 -0.0279705
298538.2618918 0.98188454 -0.16989756 -1.1674801e-005 2.3973702e-005 0.00051524019 0.0035935328
-3.1410906e-005 3.1062944e-005 -0.98970246 -0.11132403 -1.1356908e-005 2.215271e-005
0.00049190724 0.0035686446 -1.4047647e-005 1.0743728e-005 0.99791902 -0.029514577
316227.76601684 0.98009193 -0.17985651 -4.7009395e-005 3.732619e-005 0.00056388759 0.0037618096
-2.3394468e-005 2.4286488e-005 -0.99043167 -0.10508599 -7.6098745e-006 1.3748298e-005
0.00054908189 0.0037648061 -3.5501799e-008 1.0397564e-005 0.99783641 -0.031109359
334965.43915783 0.97817022 -0.19028564 -3.8326605e-005 1.675167e-005 0.00058186654 0.0039587263
-2.1136861e-005 3.1572788e-005 -0.99116194 -0.09920644 6.2879587e-007 2.1466201e-005
0.00060426223 0.0039624432 -3.1546549e-006 2.2049619e-005 0.9975931 -0.033030279
354813.38923358 0.97603446 -0.20138079 -2.622698e-006 3.4254794e-005 0.00065961643 0.004180884
-3.7214926e-005 4.3893295e-005 -0.99168277 -0.093405068 -2.8887894e-006 2.2009415e-005
0.00067234761 0.0041838679 2.9382179e-006 2.3036666e-005 0.99751246 -0.034833986
375837.40428844 0.97348952 -0.21296303 -4.7587742e-005 2.5059315e-005 0.00070565136 0.0044345446
-3.004986e-005 4.3936205e-005 -0.99210453 -0.087932467 -1.2693279e-005 1.7526139e-005
0.00072738191 0.0044269226 -2.5688921e-006 3.324317e-005 0.99749088 -0.036791284
398107.1705535 0.97067088 -0.22533 -3.4200719e-005 2.1836311e-005 0.00079471048 0.004675305
-3.7079524e-005 4.5030483e-005 -0.99270934 -0.0826682 2.5800298e-006 3.6794925e-005
0.0007988523 0.0046525714 -1.2010459e-005 2.1241545e-005 0.99731541 -0.039013043
421696.50342858 0.96745598 -0.23813193 -4.8491605e-005 6.1990722e-005 0.00087267626 0.0049043661
-4.6805184e-005 3.5144927e-005 -0.99287945 -0.077477403 -5.2906103e-006 3.6115114e-005
0.00088264066 0.0049017472 -1.823704e-005 5.0159499e-005 0.99717891 -0.041185316
446683.59215096 0.96405995 -0.2519435 -6.4572654e-005 4.8327223e-005 0.00099511514 0.0051688408
-5.5977718e-005 5.3655585e-005 -0.99297088 -0.073794402 8.596603e-006 2.7897626e-005
0.00097112707 0.0052012913 -1.0320583e-005 3.0029183e-005 0.99673092 -0.043489654
473151.25896148 0.9599309 -0.26616392 -7.3865689e-005 5.0484952e-005 0.0010731146 0.0054649585
-6.9259913e-005 5.3844265e-005 -0.99367547 -0.069583081 -1.1284317e-005 2.9164323e-005
0.0010686289 0.0054917457 -9.2445434e-006 3.9720249e-005 0.99659634 -0.045985989
501187.23362727 0.95538521 -0.28123981 -6.4459586e-005 6.3676642e-005 0.0011939751 0.0057610259
-6.8667126e-005 5.541787e-005 -0.9940263 -0.065340161 -6.0301095e-006 4.395482e-005
0.0012083249 0.0057850475 -3.357761e-006 3.3103493e-005 0.99651545 -0.0485177
530884.44423099 0.95063412 -0.29723698 -8.71917e-005 8.3426385e-005 0.0012999525 0.0060736639
-7.5641656e-005 6.9045498e-005 -0.99435908 -0.061297532 -2.2271415e-005 3.2669825e-005
0.0013046359 0.0060838191 -1.8638826e-005 2.8247156e-005 0.99651146 -0.051255409
562341.32519035 0.9450922 -0.31395575 -0.00011013427 6.762414e-005 0.0014709039 0.006374802
-8.2464372e-005 5.5175591e-005 -0.99467361 -0.057550054 -1.2403139e-005 4.3648401e-005
0.0014514892 0.0063808397 -9.2936434e-006 3.4431276e-005 0.99608892 -0.054264314
595662.14352901 0.93928075 -0.3312847 -6.9784051e-005 7.7064069e-005 0.0015979585 0.0067291688
-8.7048458e-005 5.6313565e-005 -0.99489397 -0.053992987 -1.6918617e-005 5.8901293e-005
0.0016156489 0.0067385221 -2.4049019e-005 4.4373362e-005 0.99589688 -0.057383779
630957.34448019 0.93246275 -0.34973422 -0.00011032702 6.1626997e-005 0.0017692159 0.0070772646
-0.00011392828 8.1586004e-005 -0.99502683 -0.05061546 -1.4024123e-005 4.3907083e-005
0.0017737504 0.00707848 -1.877223e-006 4.7425321e-005 0.99556112 -0.060540143
668343.91756861 0.92487621 -0.36898664 -0.0001255486 7.7092998e-005 0.001951769 0.0074621169
