!Keysight Technologies,E5080A,MY55100144,A.11.70.03
!Date: Monday, November 13, 2017 17:25:19
!Correction: S11(Full 3 Port(1,2,3)) 
!S12(Full 3 Port(1,2,3)) 
!S13(Full 3 Port(1,2,3)) 
!S21(Full 3 Port(1,2,3)) 
!S22(Full 3 Port(1,2,3)) 
!S23(Full 3 Port(1,2,3)) 
!S31(Full 3 Port(1,2,3)) 
!S32(Full 3 Port(1,2,3)) 
!S33(Full 3 Port(1,2,3)) 
!S3P File: Measurements: <S11,S12,S13>,
!<S21,S22,S23>,
!<S31,S32,S33>:Log Frequency Sweep
# Hz S  RI   R 50
10000 0.99653012 -0.0054851873 -4.3392547e-006 -1.2885826e-005 -7.6306342e-006 0.00013487974
2.0007253e-007 -5.8693496e-007 0.47089931 -0.87582022 -1.5348369e-005 7.630867e-006
-1.7958953e-005 0.00011199004 3.2199478e-006 -1.8257575e-005 0.99984741 -0.0022303306
10592.537251773 0.99650514 -0.0062017329 -9.1513421e-006 2.8930339e-007 1.8754461e-005 0.00011251431
-1.750662e-005 -1.6137001e-005 0.42562032 -0.89835644 -1.1432418e-005 -7.1665836e-006
1.6654471e-006 0.00011586393 3.9534558e-007 1.0071635e-005 0.99985015 -0.0023494388
11220.18454302 0.99667996 -0.0064293738 -1.4677527e-005 4.5826087e-006 2.0572694e-005 0.00012911308
-9.6631584e-006 8.5589754e-006 0.37751397 -0.91914296 -5.5987389e-006 -9.0034891e-006
-1.9558194e-005 0.00016201798 9.4038996e-006 -1.1181417e-005 1.0001179 -0.0024422996
11885.02227437 0.9964878 -0.0066792718 2.1654148e-005 2.2977503e-005 7.596153e-006 0.00014831471
-3.7881143e-006 1.364991e-007 0.3278839 -0.93786865 -1.1296966e-005 -9.2148575e-006
2.6444752e-006 0.00014627526 -5.4521179e-006 -1.0890465e-005 1.0000466 -0.0023972222
12589.254117942 0.99669766 -0.0072578685 -6.9671657e-008 -1.3943193e-005 -4.4943417e-006 0.00015474556
3.8031094e-006 -4.7256804e-006 0.27621374 -0.95410371 -1.4751993e-005 2.4117871e-006
-1.4850311e-006 0.00016177434 2.1345046e-005 7.8742478e-006 1.0000929 -0.002491354
13335.214321633 0.99686939 -0.0075960611 1.2207308e-005 8.8077422e-007 -1.7811139e-005 0.00016309944
-1.4146355e-005 -8.5149723e-006 0.22310866 -0.96790922 3.4603593e-006 -9.5331025e-006
-5.1577704e-006 0.00015273607 -7.9604442e-006 -5.4225388e-006 0.99982417 -0.002413949
14125.375446228 0.9966284 -0.0081915092 4.073519e-006 -9.1239335e-006 7.132674e-006 0.00018831696
-7.4464137e-006 -1.8612973e-006 0.168369 -0.9783352 4.8188731e-006 8.1508524e-006
4.5897355e-006 0.00018398333 -5.9131116e-006 -1.3828505e-006 1.0000119 -0.0025831116
14962.356560944 0.99668372 -0.008557735 -7.4838536e-006 -9.3786784e-006 2.8592322e-005 0.00017433104
1.8915999e-007 2.1410556e-006 0.11275673 -0.98672318 -7.9693955e-006 1.9188847e-005
2.6928765e-006 0.00017917625 1.7238975e-005 4.964837e-006 0.99992567 -0.0026611099
15848.931924611 0.99681365 -0.0090477671 -4.0913897e-006 2.3521767e-005 -3.0820286e-006 0.00018850829
-7.1517152e-006 3.4926027e-006 0.055943716 -0.99095118 -1.4476537e-005 8.8787365e-006
5.9571266e-006 0.00019485726 8.3101622e-006 -1.3787718e-005 0.99995857 -0.0025912696
16788.040181226 0.99659741 -0.0095879175 1.1091476e-005 -1.5856165e-005 2.7626353e-005 0.00021575621
3.347802e-006 -3.1320606e-006 -0.00065696455 -0.99250495 1.0561939e-006 1.3464911e-006
1.1893014e-005 0.00020070614 -1.7666358e-005 1.6218652e-005 1.0000404 -0.0027696395
17782.794100389 0.99658382 -0.010057184 -3.6946428e-006 1.0062547e-005 -1.141516e-005 0.00020006821
8.5930942e-006 7.1038398e-006 -0.057474181 -0.9904415 3.4971351e-006 1.4452172e-005
9.349742e-006 0.00022447851 -8.4505518e-007 -2.0220796e-006 0.99990886 -0.00284694
18836.490894898 0.99676365 -0.010658191 -7.644202e-006 -1.7781897e-005 1.3523097e-005 0.00024313663
-2.7182884e-006 -6.7123146e-006 -0.11389857 -0.98571002 4.9640262e-006 1.7648872e-005
1.6401516e-005 0.00022855328 -3.6397935e-007 -2.8420015e-006 0.99980283 -0.0029036338
19952.623149689 0.99664605 -0.011309613 4.5350093e-006 -1.7598246e-006 1.767387e-005 0.00025401957
2.1316302e-005 9.9218632e-006 -0.16940694 -0.97768062 8.7843082e-006 -5.5408586e-006
9.1368001e-006 0.00025787929 4.7749218e-006 1.3928581e-005 1.000026 -0.002989447
21134.890398366 0.99667841 -0.012128231 1.7441955e-005 1.7265701e-006 8.3534333e-006 0.00026448467
1.5257416e-007 2.8791217e-006 -0.22407816 -0.96653193 -2.4243343e-006 -5.5384871e-006
6.6882922e-006 0.00026612292 -7.6151855e-006 -6.1209921e-006 0.99981803 -0.003071653
22387.211385683 0.99657071 -0.012801774 -2.2779752e-005 -2.4101951e-006 9.5844753e-006 0.00027099508
2.4142221e-006 -1.0776268e-005 -0.27720481 -0.95264614 -7.8133789e-006 1.6099144e-006
-1.4397241e-005 0.0002598734 1.1372152e-005 1.954903e-005 0.99988192 -0.0030349868
23713.737056617 0.99660838 -0.013604925 -8.8922761e-006 1.3731077e-005 3.2425471e-006 0.00030670629
-1.0883905e-005 -6.1765932e-006 -0.32889923 -0.93592209 3.1413456e-006 9.7633956e-006
-3.064941e-006 0.00030071707 1.222271e-005 -3.6000497e-006 0.99969959 -0.0031515327
25118.864315096 0.99668014 -0.014296966 9.883338e-006 -1.5672722e-005 1.9011215e-005 0.00029660002
1.3927577e-006 3.3038591e-006 -0.37838203 -0.91719013 -5.7271745e-006 1.126999e-006
6.9325797e-006 0.00033177287 -1.3170883e-006 7.8225767e-006 0.99981344 -0.0032756955
26607.250597988 0.99673188 -0.014977306 -1.9359295e-005 -9.420145e-006 -1.0376272e-005 0.0003311391
-1.3382617e-006 -7.6409451e-006 -0.42598107 -0.8961249 1.6029773e-005 -4.2797415e-006
2.1891141e-005 0.00031300815 1.1102866e-005 -1.4808381e-005 0.99975055 -0.0036206974
28183.829312645 0.99660641 -0.016101882 -1.5527048e-005 9.2031541e-006 -1.5347161e-006 0.0003598278
-7.1711097e-006 -1.4334138e-005 -0.47148368 -0.87330574 1.2127869e-005 5.1445386e-006
-5.3295912e-006 0.00032970868 -2.5977231e-005 9.1804422e-006 0.99992865 -0.0035371473
29853.82618918 0.99675 -0.017027657 2.9390312e-005 5.0331118e-006 4.298457e-006 0.00035228807
-1.3069761e-007 2.9326168e-007 -0.51415914 -0.84864455 -4.3297105e-006 3.3497945e-006
2.0020782e-007 0.00036196021 -8.7252583e-006 2.0381527e-005 0.99981999 -0.00380174
31622.776601684 0.99657118 -0.018072378 -5.6628733e-006 2.9261673e-007 -2.6249918e-005 0.00039197263
-6.2200729e-006 -6.0486521e-008 -0.55444634 -0.82314026 -4.9159212e-006 -1.1196576e-005
2.8959735e-006 0.00038363144 1.5050043e-005 2.5595016e-005 0.99983358 -0.0041355425
33496.543915783 0.99654335 -0.018928656 -1.1491157e-005 1.2005653e-005 1.0201628e-005 0.00041365114
-4.9398595e-006 -3.7698062e-006 -0.59236068 -0.79631221 1.2156125e-006 2.3507664e-006
-4.8944225e-006 0.00043061038 -7.4116983e-006 -3.7228372e-007 0.99983644 -0.0042161527
35481.338923358 0.99649292 -0.020263422 -6.3939628e-006 -9.9404124e-006 1.4532053e-006 0.00043763363
-7.3545416e-006 6.3146103e-006 -0.62788266 -0.76863074 -7.9396868e-006 -7.8160356e-006
1.3931458e-005 0.00043309695 3.0835374e-005 -1.0887541e-006 0.99972671 -0.0041410788
37583.740428844 0.99648482 -0.021342432 7.0618194e-006 9.3831868e-006 -7.0559081e-006 0.00044243841
4.0337213e-006 4.6010305e-006 -0.66075402 -0.74074429 1.4257991e-005 1.0335373e-005
1.6541679e-005 0.00045129537 1.7059521e-005 2.8118333e-005 0.99956602 -0.0045276484
39810.71705535 0.99635923 -0.02270068 1.7718203e-006 -6.7428596e-007 3.1958482e-006 0.00050350447
-5.1600373e-006 3.2917637e-006 -0.69140315 -0.71237111 -5.8003234e-006 1.3807336e-005
2.2535953e-005 0.00047363536 -1.0887923e-005 9.0020194e-006 0.99952704 -0.0046950425
42169.650342858 0.99630529 -0.023911662 -5.0431904e-006 6.3707048e-006 1.198371e-005 0.00050738372
1.1969297e-005 -1.3894223e-005 -0.71966875 -0.68402666 1.8225164e-005 8.312888e-006
2.3864506e-005 0.00053081813 -1.77706e-006 1.5489808e-006 0.99945796 -0.0048892563
44668.359215096 0.99643075 -0.025347408 -4.9385676e-006 -1.4367939e-005 6.3303821e-007 0.00055828056
-5.7960324e-006 5.5098039e-006 -0.74560887 -0.65579057 2.2228523e-006 3.6751132e-006
1.8164747e-005 0.00054675288 -1.6007732e-006 -4.6786428e-007 0.99945027 -0.0052235401
47315.125896148 0.99657738 -0.026806345 3.5582464e-006 2.3054155e-005 4.035555e-005 0.0005923718
3.1184068e-006 4.4553594e-006 -0.76957333 -0.62777203 5.6580775e-006 -5.9509657e-006
2.1595433e-005 0.0005878802 -4.4552439e-006 9.5125324e-006 0.99944925 -0.0054502566
50118.723362727 0.99637747 -0.028503887 3.2042537e-006 1.9356154e-005 2.0240854e-005 0.00062506262
-5.5857076e-006 4.0104692e-006 -0.7913968 -0.60015678 -3.6308427e-006 8.1862372e-006
3.1203796e-005 0.00062579231 -1.3208672e-005 2.021512e-005 0.99942648 -0.0056876969
53088.444423099 0.99629092 -0.030182486 -1.8703789e-005 -9.083974e-006 2.3841165e-005 0.00065512344
1.1143126e-005 1.2469503e-005 -0.81146437 -0.57307625 1.0498643e-005 7.7721024e-006
2.9185379e-005 0.00066675583 1.8716924e-005 -1.3121057e-005 0.99960172 -0.0059827231
56234.132519035 0.99619561 -0.031996645 -1.7867062e-005 4.9289024e-008 3.6880436e-005 0.00069863885
8.1517311e-007 8.47305e-006 -0.82966024 -0.54661864 -9.71802e-006 -3.5961118e-006
3.6586913e-005 0.00070044823 6.0989132e-006 1.6937827e-005 0.99935609 -0.0063922098
59566.214352901 0.99621207 -0.033842932 -1.8954446e-005 3.2450022e-005 1.5383384e-005 0.00074693747
-3.8218227e-006 1.523318e-005 -0.846228 -0.52091002 -1.7198763e-006 2.2287409e-006
2.0640115e-005 0.00073966465 -2.1491711e-005 -7.4792192e-006 0.99911183 -0.0065646498
63095.734448019 0.99596369 -0.035831627 -1.7526077e-005 -6.212621e-006 6.5209711e-006 0.00079331332
2.610351e-006 -1.6467069e-006 -0.86126399 -0.49583656 1.5801152e-006 -2.9745215e-006
2.2338327e-005 0.00078390894 3.9690525e-007 9.5844898e-006 0.99953008 -0.0068881242
66834.391756861 0.99591732 -0.037827767 -1.05906e-005 3.6430083e-005 2.8939183e-005 0.0008146941
7.0200281e-007 2.0071658e-007 -0.8748582 -0.47158587 1.6504063e-006 9.9146964e-006
2.7364425e-005 0.00083163445 -7.2514308e-006 2.6636408e-006 0.99946451 -0.0073613538
70794.578438414 0.99582076 -0.04015759 -6.3920352e-006 -1.5592737e-005 3.7802987e-005 0.00086959917
-4.4863568e-006 -1.5245068e-005 -0.88713396 -0.44844964 1.4899051e-005 1.4259105e-006
2.9276036e-005 0.00087906944 9.3362914e-006 1.246058e-005 0.99906564 -0.0076690004
74989.420933246 0.99570262 -0.042388488 -1.196826e-006 -8.4431367e-006 4.3341348e-005 0.00090422627
2.8358484e-006 3.9496981e-006 -0.89838898 -0.42593554 9.8032224e-006 2.6070521e-007
3.3222597e-005 0.00091965636 1.7969014e-005 5.9721629e-006 0.999286 -0.0079619
79432.823472428 0.99570131 -0.044966001 2.2173579e-006 5.2390014e-006 4.0094354e-005 0.00098707271
-7.6390015e-006 1.1134421e-006 -0.90842462 -0.40422785 6.6742058e-007 4.0483733e-006
4.7571677e-005 0.00097857357 -9.2249538e-006 -5.6664162e-006 0.99902099 -0.0084116533
84139.514164519 0.99544376 -0.047535658 -4.5008264e-006 -1.548078e-005 5.2681498e-005 0.0010527333
-1.393289e-007 7.4699306e-006 -0.91742527 -0.38352793 -3.0691544e-006 3.8088169e-006
2.6998414e-005 0.001032279 -2.9197126e-005 6.7839073e-006 0.99899489 -0.0088262912
89125.093813375 0.99527478 -0.050258815 8.8106735e-006 -9.5585528e-007 5.2615535e-005 0.001085495
-1.1365511e-005 1.6326303e-006 -0.92567563 -0.36366451 8.1974467e-006 -2.4967594e-006
4.9662594e-005 0.0011170737 -1.9268313e-005 1.8959927e-005 0.99909896 -0.0094216792
94406.087628592 0.99519455 -0.053352542 7.977218e-006 8.9157929e-006 5.8492442e-005 0.0011702621
3.9609672e-006 1.0535372e-005 -0.93303341 -0.34477311 4.2200186e-006 -2.023877e-006
5.2168885e-005 0.0011665627 4.7836475e-006 4.0469353e-005 0.99905229 -0.0097599234
100000 0.99501801 -0.056515489 -1.6075319e-005 8.1958096e-006 5.1775831e-005 0.0012446907
-3.81211e-006 3.6150639e-006 -0.93958026 -0.32654789 -8.6411237e-006 3.9669349e-006
5.4316835e-005 0.0012419686 -1.3608576e-005 4.7070935e-006 0.99900848 -0.010337594
105925.37251773 0.99491894 -0.059855923 -7.5406729e-006 2.4277044e-005 6.9707159e-005 0.0012823801
-1.1595487e-005 7.300006e-006 -0.94561464 -0.30931115 -9.3913968e-006 5.0452909e-006
8.158265e-005 0.0013059506 -1.3788784e-005 1.878338e-006 0.99910259 -0.010904671
112201.8454302 0.99494487 -0.063340761 -2.7096232e-006 1.4505182e-005 5.2039286e-005 0.0013863877
5.769155e-006 8.113002e-006 -0.95088345 -0.29280838 3.546485e-006 1.1096685e-005
6.2740095e-005 0.0013669048 2.546928e-006 2.805906e-006 0.99904668 -0.011565386
118850.2227437 0.99439919 -0.06698025 1.0193674e-005 2.4939569e-005 9.5010437e-005 0.0014656102
-1.2376815e-005 -1.4136139e-006 -0.95569313 -0.27713248 1.1679303e-005 8.0061233e-007
0.00011049293 0.0014663748 8.9420128e-006 -9.4683019e-006 0.99908537 -0.012203367
125892.54117942 0.99426067 -0.070976257 -1.0397626e-005 1.7491771e-005 6.5264758e-005 0.0015432512
-1.0926429e-005 7.5074354e-006 -0.96003443 -0.26221186 6.8891427e-007 2.7716903e-006
9.1266797e-005 0.0015507796 1.8809531e-005 1.3075047e-005 0.99907017 -0.012794822
133352.14321633 0.99403226 -0.075183474 -1.5342918e-006 2.7537755e-005 0.00011806824 0.0016356311
-2.8123345e-006 8.2087045e-006 -0.96385598 -0.24800253 -5.0560702e-006 5.1346515e-006
0.0001110156 0.0016234502 -7.2326761e-006 9.8521878e-006 0.99903649 -0.01344824
141253.75446228 0.99363708 -0.079664804 -1.4093947e-005 4.0132913e-006 0.00013091523 0.0017166389
5.7637408e-006 1.4228243e-005 -0.96728849 -0.23449592 1.2563338e-005 1.047326e-005
0.00013033544 0.0017386978 -5.7317852e-006 -3.2436324e-006 0.99906558 -0.014333022
149623.56560944 0.99304652 -0.084188536 -1.088613e-005 1.2744608e-005 0.00012005229 0.0018278529
-5.9840258e-006 9.3219387e-006 -0.97037828 -0.22169465 2.4174153e-006 1.7713806e-005
0.00014393107 0.0018103438 -1.9826186e-005 1.4448917e-005 0.99887198 -0.015175737
158489.31924611 0.99269116 -0.089335978 1.452794e-005 1.433377e-005 0.00015775522 0.0019376003
-9.4410852e-006 1.8672519e-006 -0.97319919 -0.20951316 -3.061554e-006 1.2629456e-005
0.0001415883 0.0019283227 2.0580983e-006 1.4685139e-005 0.99900919 -0.015902011
167880.40181226 0.99212486 -0.09459503 -1.1562805e-005 6.0746838e-006 0.00018761863 0.002054007
-1.1066632e-005 6.4409019e-006 -0.97566491 -0.19787878 1.4177513e-005 7.838411e-006
0.00017256528 0.0020477318 5.5650785e-006 1.6070477e-005 0.99894285 -0.017033728
177827.94100389 0.99165523 -0.1000624 1.3730238e-005 4.8268583e-005 0.0001863208 0.0021476957
-5.1700172e-006 1.4093951e-005 -0.97725451 -0.18591803 1.4687356e-005 1.6369791e-005
0.0001815694 0.0021453069 8.4529174e-006 -2.7748269e-005 0.99888098 -0.017873144
188364.90894898 0.99078846 -0.10597485 -4.1110288e-005 -1.4879424e-005 0.00021040461 0.0022934321
-8.7810949e-006 9.5366995e-006 -0.97971666 -0.17708354 9.8054534e-007 4.0084655e-007
0.0002124679 0.0022893788 5.855677e-006 1.7497825e-005 0.99857837 -0.019052399
199526.23149689 0.99023217 -0.1121476 -9.8057126e-006 1.427402e-005 0.00024564314 0.0024153786
-1.443703e-005 8.1873904e-006 -0.98156357 -0.1671569 -5.4677507e-006 1.4068578e-005
0.00023832142 0.0024296064 -3.8701583e-007 1.0108164e-005 0.99851567 -0.020192774
211348.90398366 0.98947668 -0.11903218 -1.5756657e-005 4.1504791e-005 0.00023952477 0.0025785724
-1.8099545e-005 1.2986042e-005 -0.98329061 -0.15783764 1.8865549e-006 1.3716942e-005
0.00023814231 0.0025683269 -2.9644152e-005 2.0450368e-006 0.99848557 -0.021228796
223872.11385683 0.98858476 -0.12581868 4.447435e-006 1.9891477e-005 0.00027673325 0.0027255346
-2.3429544e-005 2.1054053e-005 -0.98464429 -0.14903717 -4.3361347e-006 1.737763e-005
0.00027004065 0.0027384236 3.4474097e-006 1.6561084e-005 0.99847239 -0.022379782
237137.37056617 0.98760211 -0.13313988 2.138692e-006 2.9479814e-005 0.00032365616 0.0028557475
-1.0983857e-005 1.8240189e-005 -0.98588729 -0.14061628 -4.8423631e-006 6.2086624e-006
0.00031980546 0.0028752715 1.5243053e-005 1.2163238e-005 0.99843931 -0.023628833
251188.64315096 0.98650461 -0.14100766 -1.7050061e-005 1.7392296e-005 0.00038290181 0.0030127971
-2.1453987e-005 1.1695824e-005 -0.98704886 -0.1326818 -1.8860936e-005 2.0683849e-005
0.00035824909 0.003021481 -3.3502209e-005 8.4248668e-006 0.99848467 -0.025055649
266072.50597988 0.98518986 -0.14935674 -2.2786966e-005 7.4421132e-006 0.00040150134 0.0032066943
-1.9721618e-005 1.5495709e-005 -0.98802519 -0.12518445 9.4641194e-007 1.9495292e-005
0.00039856861 0.0031948939 -1.161052e-005 1.120028e-005 0.99814701 -0.026380483
281838.29312645 0.98378628 -0.1582025 2.2048057e-006 1.5917018e-005 0.00042051214 0.0033594638
-2.9634204e-005 2.2248638e-005 -0.98898888 -0.1181629 -7.2612843e-006 4.5382981e-006
0.00042319135 0.0033719484 7.5216087e-007 1.1429393e-005 0.99809068 -0.027863776
298538.2618918 0.98214847 -0.16732651 -4.3259046e-005 1.7845807e-006 0.00047314283 0.0035548848
-2.2669932e-005 3.1561387e-005 -0.98977321 -0.11137949 -8.9091527e-006 2.0159208e-005
0.00047355471 0.0035674521 -1.8950212e-005 3.9304159e-006 0.99793875 -0.029540487
316227.76601684 0.98061734 -0.17724891 -4.8321657e-005 3.4906607e-005 0.00052354252 0.0037616524
-1.9561201e-005 2.1121361e-005 -0.99044538 -0.10507726 -2.0320977e-006 2.6773077e-005
0.00052617287 0.0037626529 -1.3257278e-005 1.3244295e-005 0.99772286 -0.031203086
334965.43915783 0.97852892 -0.18744023 -3.4476128e-005 1.4980803e-005 0.00058985275 0.0039791223
-2.5365616e-005 4.1523668e-005 -0.99122208 -0.099166535 1.0285787e-006 1.6724933e-005
0.00059536606 0.0039804964 -4.6882465e-006 1.0683018e-005 0.99776024 -0.03292042
354813.38923358 0.97628033 -0.19807516 -4.1494121e-005 4.6167497e-005 0.00063718081 0.0041998406
-3.4437664e-005 4.6045643e-005 -0.99177355 -0.093346186 -1.4240663e-005 2.662712e-005
0.00064613373 0.0041939076 4.7477074e-006 2.2688138e-005 0.997527 -0.034882605
375837.40428844 0.97406346 -0.20977136 -3.6101923e-005 3.2389107e-005 0.00071930862 0.004408251
-2.6415606e-005 4.1793748e-005 -0.99218798 -0.087888844 -1.2101796e-005 2.6714246e-005
0.00070187438 0.0044352897 1.1500419e-005 6.188317e-006 0.99742073 -0.036782272
398107.1705535 0.97129053 -0.22180894 -2.9736544e-005 3.9727427e-005 0.00080235046 0.0046575018
-3.4957418e-005 3.933956e-005 -0.99274766 -0.08260379 -4.7076069e-006 2.5185502e-005
0.0008094472 0.0046755606 -1.164179e-005 6.4321252e-006 0.99719244 -0.039021846
421696.50342858 0.96825475 -0.23460424 -2.3217268e-005 2.2950675e-005 0.00091151049 0.0049101845
-4.8073241e-005 4.5171175e-005 -0.99296856 -0.077455841 -5.8338605e-006 3.5108318e-005
0.00089351431 0.0049320785 -1.0112131e-005 3.5594305e-005 0.99710518 -0.041110199
446683.59215096 0.96473897 -0.2480199 -5.082713e-005 3.0323228e-005 0.00096517097 0.0051959511
-5.5519755e-005 4.9287668e-005 -0.99296433 -0.073793814 2.8368031e-006 2.8927809e-005
0.00097453443 0.0051910505 -1.7002771e-005 3.071591e-006 0.99673092 -0.043474335
473151.25896148 0.96096867 -0.26211721 -6.7214722e-005 5.7031095e-005 0.0010586436 0.0054456284
-5.6122459e-005 3.5901885e-005 -0.99375731 -0.069535233 -1.0553214e-005 2.5287527e-005
0.001062742 0.0054870052 -1.013178e-005 3.5691344e-005 0.99662685 -0.045895811
501187.23362727 0.95641387 -0.27705091 -5.3209918e-005 4.7307687e-005 0.0011724033 0.0057706493
-7.2835966e-005 5.2724299e-005 -0.99407279 -0.065344766 2.2001493e-006 2.8666807e-005
0.0011794529 0.0057626632 -1.2440903e-005 2.2033712e-005 0.99648064 -0.048394963
530884.44423099 0.95167243 -0.29276937 -7.6998651e-005 5.4893215e-005 0.0013040984 0.0060897195
-7.037077e-005 4.1429132e-005 -0.99438614 -0.061288815 -1.0089232e-005 4.1557352e-005
0.0013063853 0.0061010276 -4.6519294e-006 2.6555825e-005 0.99622726 -0.051315509
562341.32519035 0.94655466 -0.30917996 -9.0939699e-005 7.4984069e-005 0.001436346 0.0064082183
-6.5997236e-005 5.5994715e-005 -0.9947136 -0.05754007 -2.5751591e-005 4.5278248e-005
0.0014493453 0.0064114435 4.0018276e-006 3.8165912e-005 0.99590003 -0.054288428
595662.14352901 0.94071692 -0.32635048 -7.8122597e-005 6.1339575e-005 0.001602942 0.0067659863
-9.4992713e-005 6.2283405e-005 -0.99496305 -0.054011572 -1.46414e-005 3.3543751e-005
0.0016089677 0.0067335432 -1.404797e-005 4.7056499e-005 0.99586648 -0.057502542
630957.34448019 0.93438751 -0.344473 -7.9177582e-005 7.3163006e-005 0.0017599724 0.0070915106
-0.00010101168 8.0957732e-005 -0.99511403 -0.050631568 -2.3855606e-005 2.769829e-005
0.0017647283 0.0070900237 -3.2364744e-005 2.4947303e-005 0.99546367 -0.060651965
668343.91756861 0.92696029 -0.36345866 -0.00011359941 7.8258403e-005 0.0019092127 0.0074748336
