!Keysight Technologies,E5080A,MY55100144,A.11.70.03
!Date: Monday, November 13, 2017 17:24:11
!Correction: S11(Full 3 Port(1,2,3)) 
!S12(Full 3 Port(1,2,3)) 
!S13(Full 3 Port(1,2,3)) 
!S21(Full 3 Port(1,2,3)) 
!S22(Full 3 Port(1,2,3)) 
!S23(Full 3 Port(1,2,3)) 
!S31(Full 3 Port(1,2,3)) 
!S32(Full 3 Port(1,2,3)) 
!S33(Full 3 Port(1,2,3)) 
!S3P File: Measurements: <S11,S12,S13>,
!<S21,S22,S23>,
!<S31,S32,S33>:Log Frequency Sweep
# Hz S  RI   R 50
10000 0.99680674 -0.0020053005 -1.9093062e-005 0.00048496251 6.1940855e-006 0.00015498733
9.4799718e-005 0.00050242851 0.99308342 -0.0038331617 -2.0537136e-006 0.0007194276
6.0058364e-006 0.00016360205 1.8512868e-005 0.00072287762 0.99977392 -0.0024289985
10592.537251773 0.99686164 -0.0023600194 4.4647177e-006 0.00050537352 2.2409411e-006 0.00019214748
9.3070543e-005 0.00053108233 0.99410802 -0.0037588915 -6.2209638e-006 0.00075336208
-8.9416617e-006 0.00017127067 5.5910155e-006 0.00077383645 1.000039 -0.0022873776
11220.18454302 0.99707562 -0.002205048 1.3894083e-005 0.0005284216 9.7365291e-006 0.00019207968
6.529512e-005 0.00054404064 0.99486136 -0.0041442509 2.7059144e-005 0.00079375808
-1.8069244e-006 0.00017275815 -4.3054342e-006 0.00079615944 0.99997926 -0.002483428
11885.02227437 0.99690443 -0.0023134339 -3.2531912e-006 0.00054949109 8.6836435e-006 0.00019825916
9.1415917e-005 0.00058504473 0.99509054 -0.0042457297 2.1785629e-005 0.00085286057
-6.0317639e-006 0.00020590563 6.4344431e-006 0.00085465366 0.9999454 -0.0023542123
12589.254117942 0.99713928 -0.0026596414 -5.5763639e-006 0.00059349771 -9.2313721e-006 0.00021436613
7.1014896e-005 0.00062161766 0.99521852 -0.004384541 5.7261327e-006 0.00090988487
2.6715802e-006 0.000223533 2.2230503e-005 0.0009023333 0.99994689 -0.0024061047
13335.214321633 0.99719548 -0.0026452155 -6.7328551e-006 0.00062507688 -5.0171539e-006 0.00021608779
8.5908709e-005 0.00063838955 0.9952023 -0.0047459002 -4.5011961e-006 0.00093586172
5.5617866e-006 0.00021497489 -6.5036866e-006 0.00096351939 0.99990255 -0.0024285712
14125.375446228 0.9970265 -0.0029385721 -2.8700181e-006 0.00067167333 -2.0333706e-005 0.00021414626
6.9529364e-005 0.00068658293 0.99511462 -0.0048054545 -1.1437382e-005 0.0010158814
5.823922e-006 0.00023530041 1.7290016e-005 0.0010065143 0.99989569 -0.0025264062
14962.356560944 0.99687636 -0.0030436467 -7.2349653e-006 0.00069584232 1.5482399e-005 0.00025034431
9.237622e-005 0.0007126038 0.99534547 -0.005044952 8.4000985e-006 0.0010656511
2.8440209e-006 0.00023765443 -1.3379325e-005 0.0010623728 0.99994981 -0.0026533075
15848.931924611 0.99702793 -0.0032656218 1.4568854e-005 0.00075981626 2.2849733e-006 0.00025845395
8.0122183e-005 0.00076668145 0.99517202 -0.0053572264 4.5177112e-006 0.0011235897
3.4696257e-006 0.00026139239 1.4440268e-005 0.0011464545 1.0001248 -0.0025287077
16788.040181226 0.99692672 -0.0035588639 3.9897423e-006 0.00079473713 -3.0729048e-008 0.00024638625
8.2464489e-005 0.00078813109 0.9952985 -0.0055205901 1.7013006e-006 0.0011905096
4.5783936e-006 0.00027855032 -2.4445424e-006 0.0011991565 0.9999634 -0.0028037617
17782.794100389 0.99711937 -0.0033771535 2.40065e-005 0.00082193146 3.5781518e-006 0.00027270519
9.9234276e-005 0.00085181568 0.99531829 -0.0058499756 1.6027163e-005 0.0012505864
1.2861116e-005 0.00028518157 -9.3005401e-006 0.0012818711 0.9998787 -0.0027319982
18836.490894898 0.99709111 -0.0036562188 -7.5863511e-007 0.00088557642 -1.2264535e-005 0.00030222465
9.7249889e-005 0.0009102865 0.99546891 -0.0060332282 6.6226276e-006 0.0013287337
-1.9219742e-006 0.00030949761 1.8415825e-005 0.0013394093 0.99990731 -0.0028538876
19952.623149689 0.99701518 -0.0040619257 -2.181127e-006 0.0009280924 1.9344161e-007 0.00032763404
9.1978669e-005 0.00094788842 0.99545825 -0.0064812629 2.1983719e-006 0.0014112553
4.2072361e-006 0.00030970649 -2.8287172e-006 0.001434935 0.99999511 -0.002929132
21134.890398366 0.99709415 -0.0042828452 -7.1265376e-006 0.00098954164 1.7174755e-006 0.00032673785
0.00010717214 0.0010173062 0.99559939 -0.0068047931 -1.2381107e-006 0.0015202966
3.2686746e-006 0.00033934932 1.0656626e-005 0.0015163043 0.99979937 -0.003080551
22387.211385683 0.99697691 -0.0045147631 2.06722e-005 0.0010385964 -1.053504e-005 0.00035910358
8.0312406e-005 0.0010684032 0.99546742 -0.0071326992 1.8217646e-005 0.001602345
6.2141198e-006 0.0003673367 7.7975255e-006 0.0015903974 0.99991572 -0.0032558113
23713.737056617 0.99696654 -0.0048195315 1.626773e-005 0.0011310589 -1.3597892e-006 0.00034926005
8.7792272e-005 0.0011260153 0.99544609 -0.0074789124 2.885261e-005 0.0017021244
-1.1759922e-006 0.00037027229 2.8511902e-005 0.0016835601 0.99976248 -0.003161598
25118.864315096 0.99693114 -0.0051471731 2.8380839e-007 0.0011884399 1.4179765e-005 0.00041748543
8.1127859e-005 0.0011668146 0.99541944 -0.0077673523 3.0946114e-005 0.0017700436
-4.4917469e-006 0.00038984002 1.4959907e-005 0.0017980397 0.99982965 -0.0034916247
26607.250597988 0.99718171 -0.0052342545 -6.73872e-006 0.0012569691 -1.0026217e-005 0.00041889766
7.4320546e-005 0.0012580031 0.99551052 -0.00838573 3.5756981e-005 0.001890227
-1.5490536e-005 0.00042648596 5.1403217e-006 0.0018895268 0.99993187 -0.00362412
28183.829312645 0.99705279 -0.005827609 3.6035257e-005 0.001307419 9.5755249e-006 0.00044939967
0.00010287306 0.0013485722 0.99558729 -0.0087261247 2.333239e-005 0.0020133774
-4.0893501e-006 0.00043820549 2.4229008e-005 0.0020149336 0.99985772 -0.0036035392
29853.82618918 0.99706483 -0.0060573216 -1.1398839e-006 0.0014006316 2.5138954e-006 0.00046438785
9.1181108e-005 0.0014037337 0.99561709 -0.009216615 4.2550902e-005 0.0021335755
8.7738872e-006 0.00047218046 1.6180267e-005 0.002104973 0.99982417 -0.0037680233
31622.776601684 0.99701321 -0.0064270324 1.3075446e-005 0.001479477 2.9119028e-006 0.00049514748
9.7540935e-005 0.00150766 0.99545252 -0.0097413631 4.2653708e-005 0.0022348652
2.2158638e-005 0.00050597946 3.5272049e-005 0.0022523559 0.99982464 -0.0040513384
33496.543915783 0.99714345 -0.0066682165 3.839063e-005 0.0015595914 -6.198592e-006 0.00052340154
9.7556687e-005 0.0015728843 0.99564075 -0.010420191 3.4675555e-005 0.0023678681
3.9016159e-006 0.0005524903 3.5315625e-005 0.0023652872 0.99979413 -0.004266114
35481.338923358 0.99694723 -0.0071051228 -1.5596208e-005 0.0016646084 1.6273581e-005 0.00055244414
7.1880873e-005 0.0016744778 0.99574566 -0.010808254 5.0854364e-005 0.0025107611
-3.098693e-006 0.00056711194 4.709691e-005 0.0025200197 0.9998225 -0.0042054993
37583.740428844 0.99700159 -0.0075956304 2.860952e-005 0.0017598901 -1.9540123e-005 0.00060853595
0.00010834871 0.0017803984 0.99573684 -0.011452678 4.5629622e-005 0.0026787587
1.6086442e-005 0.00060162274 5.777413e-005 0.0026577008 0.99962592 -0.0045459061
39810.71705535 0.99713349 -0.007967812 1.1274394e-005 0.0018857492 -7.0206684e-006 0.00063040789
8.8950292e-005 0.0018679844 0.99564713 -0.012160124 4.1832081e-005 0.0028332628
-1.2406568e-005 0.00064101996 4.6219531e-005 0.0028087618 0.99940705 -0.0047424883
42169.650342858 0.99695194 -0.0085267145 1.9490615e-005 0.0020021461 -7.7114664e-006 0.00068079156
7.7067016e-005 0.0019883441 0.99569941 -0.01273592 2.8907501e-005 0.0029912337
6.3160674e-006 0.00065723946 5.4592281e-005 0.003020582 0.99957538 -0.0049916646
44668.359215096 0.99720794 -0.0089826435 1.852676e-005 0.0021116482 -6.9525126e-006 0.00071514287
8.5295207e-005 0.0021178939 0.99563533 -0.013712672 5.4504766e-005 0.003167656
-1.2327097e-005 0.00068813504 3.1420277e-005 0.0031608928 0.99941343 -0.0052884552
47315.125896148 0.99705386 -0.0094444845 2.3764364e-005 0.002215869 1.2524853e-005 0.00074763346
0.00010675915 0.0022223589 0.9955669 -0.01430484 4.6194484e-005 0.0033595876
1.3217159e-005 0.00075889518 7.0787195e-005 0.0033626771 0.99948019 -0.0053355447
50118.723362727 0.99706894 -0.009997488 3.5631161e-005 0.0023527311 1.989814e-005 0.00078705669
0.00011774858 0.0023559628 0.99550188 -0.015490871 8.0688878e-005 0.0035403182
3.9762754e-006 0.00080040924 6.0567778e-005 0.0035562979 0.99945211 -0.0055437586
53088.444423099 0.99707913 -0.010635109 3.4895478e-005 0.0025016665 1.4924249e-005 0.00085389876
0.00010958721 0.0025164674 0.99560648 -0.016192067 9.7423224e-005 0.0037768122
2.8252667e-005 0.00083108322 7.6473407e-005 0.0037620212 0.99932998 -0.0061079767
56234.132519035 0.99690402 -0.011336609 2.3748418e-005 0.0026344217 -9.3791859e-006 0.00088288856
0.00011210381 0.0026655518 0.99548066 -0.017348478 0.00010312362 0.0039807367
1.4561882e-005 0.00090360182 9.5006566e-005 0.0039954339 0.99936765 -0.0062872032
59566.214352901 0.99694777 -0.012084962 3.701742e-005 0.0028142175 1.7084496e-005 0.00091767363
0.00014086052 0.0028475425 0.99553871 -0.018204084 9.7546901e-005 0.0042254524
-4.978469e-006 0.00094357692 9.7491109e-005 0.0042206887 0.99926698 -0.0066666547
63095.734448019 0.99689817 -0.012633548 5.5162509e-005 0.0029667532 4.0624604e-007 0.0010223665
0.00011843761 0.0030145177 0.9953177 -0.01930083 0.0001259056 0.0044501335
-2.0322727e-006 0.00099302141 9.3783601e-005 0.0044680936 0.99942267 -0.0069840671
66834.391756861 0.99677867 -0.013343683 4.7617967e-005 0.0031437338 3.3999693e-006 0.0010535967
0.00012589205 0.0031799925 0.99542391 -0.020636478 0.00011990274 0.0047318316
1.6674119e-005 0.0010740347 0.00014484525 0.0047185826 0.99944973 -0.0072901216
70794.578438414 0.99687147 -0.014055205 5.1975203e-005 0.0033487109 7.2125567e-007 0.0011224047
0.00014771696 0.003375934 0.99522841 -0.021597493 0.00012742582 0.0050181081
7.8113017e-006 0.0011161192 0.00015361111 0.0050283228 0.99920762 -0.0077989823
74989.420933246 0.99676007 -0.015069414 7.2695031e-005 0.0035521784 -1.2189122e-005 0.0011794687
0.00016178186 0.0035699857 0.9953509 -0.022903685 0.00014836086 0.0053186547
2.0371721e-005 0.0012016601 0.00015169401 0.0052867495 0.99921548 -0.0080115283
79432.823472428 0.99672621 -0.015820988 6.3743108e-005 0.0037676559 1.6969066e-006 0.0012843694
0.00013290146 0.0037819038 0.99511552 -0.024187675 0.00015287157 0.0056220843
4.2377542e-005 0.0012503598 0.00018484899 0.0056186626 0.99914044 -0.0084227044
84139.514164519 0.99678469 -0.016607936 6.483226e-005 0.0039825402 1.4447928e-005 0.0013382697
0.00014918405 0.0040413374 0.99512619 -0.025558846 0.00018851673 0.0059445659
8.2199149e-006 0.0013380052 0.0001950322 0.0059492192 0.99890244 -0.008821453
89125.093813375 0.99685156 -0.017555 8.2049693e-005 0.0042231898 1.4254972e-005 0.0014103103
0.00017289305 0.0042875833 0.9949131 -0.026926342 0.0002251012 0.0063114092
4.6749075e-005 0.0013939919 0.00021084596 0.0062895231 0.99898708 -0.0093392748
94406.087628592 0.99690306 -0.018664068 0.00010732613 0.0044452152 3.058332e-005 0.0014773526
0.00019514954 0.0045143082 0.99480307 -0.028562775 0.00023320287 0.0066560023
3.3940723e-005 0.0015051231 0.00022831871 0.0066815875 0.99911141 -0.0098319482
100000 0.99667603 -0.019601544 0.00010862457 0.004714014 4.511977e-005 0.0016002266
0.00019786735 0.0048008692 0.99473435 -0.030202372 0.00026585924 0.0070654438
2.8417302e-005 0.0015698768 0.00026500472 0.0070924973 0.99892914 -0.010275977
105925.37251773 0.99684763 -0.020919453 0.00010124701 0.0049841637 3.148579e-005 0.0016671338
0.00020905578 0.0051003709 0.99490732 -0.031986434 0.00031492542 0.0074529815
6.0714279e-005 0.0016425847 0.0003171713 0.0074543185 0.99896032 -0.010892012
112201.8454302 0.99676943 -0.022011135 0.00011849903 0.0052816467 2.2091433e-005 0.0017889033
0.0002206262 0.0053947368 0.99478382 -0.033756778 0.00032612661 0.0079213446
3.8692469e-005 0.0017826388 0.00031576847 0.0079195304 0.99918997 -0.011443986
118850.2227437 0.99671924 -0.023388667 0.00013496478 0.0055988729 4.4777829e-005 0.0018719143
0.00022678256 0.0057271719 0.99478781 -0.035946004 0.00037266788 0.0083811581
2.8189224e-005 0.0018738526 0.0003796712 0.0083585754 0.9990617 -0.01207068
125892.54117942 0.99680263 -0.024762025 0.00014600458 0.0059433249 6.0254533e-005 0.0019666303
0.00024539902 0.0060570729 0.99466515 -0.038007654 0.00038221804 0.0088618128
4.485458e-005 0.0019911095 0.00041447615 0.0088790329 0.99916708 -0.012736672
133352.14321633 0.99670702 -0.026306821 0.00017359151 0.0063032149 5.9459682e-005 0.0020936427
0.00026603107 0.0064497846 0.99461973 -0.040187489 0.00043817516 0.0093630822
7.0978807e-005 0.0020972413 0.00044447964 0.0093754055 0.99895996 -0.013528903
141253.75446228 0.99679816 -0.027832303 0.00020376839 0.0066892165 6.6507462e-005 0.0022456734
0.00029936031 0.006797608 0.99430448 -0.042498317 0.0004897851 0.0099099725
4.6407571e-005 0.0022310284 0.00050094066 0.0099314656 0.9989689 -0.014297255
149623.56560944 0.99660313 -0.029294552 0.00022593972 0.0070679393 6.6877757e-005 0.0023559437
0.00031408374 0.0072384099 0.99427891 -0.045138624 0.00055144989 0.010484051
8.0784397e-005 0.0023462269 0.00056194607 0.010514964 0.99890798 -0.015073349
158489.31924611 0.99656934 -0.031124491 0.00027469473 0.007491291 8.3269828e-005 0.0024835544
0.00035542669 0.0076787425 0.99415416 -0.047707539 0.00064126111 0.011116581
6.9107977e-005 0.0024837693 0.00061556895 0.011116107 0.99891752 -0.01592247
167880.40181226 0.9963122 -0.033038821 0.00028752911 0.0079424297 7.8775905e-005 0.0026264042
0.00037950926 0.0081465654 0.99374229 -0.050516967 0.00068910234 0.011742104
7.9002981e-005 0.0026626987 0.00068159797 0.011758941 0.99894303 -0.017006285
177827.94100389 0.99630791 -0.03492808 0.00030562707 0.0084098252 0.00011055652 0.0027905321
0.00041651685 0.0086332727 0.99356824 -0.053605102 0.00077197206 0.012418155
9.3241884e-005 0.0028060344 0.00076481304 0.012437617 0.99870551 -0.017926434
188364.90894898 0.99620426 -0.037023474 0.00036562013 0.008883385 0.00010677216 0.0029600475
0.00044963672 0.0091589121 0.99336511 -0.056706384 0.00085722015 0.013149439
9.7476608e-005 0.0029628011 0.00086084742 0.013162695 0.99851561 -0.018896891
199526.23149689 0.99606365 -0.039265648 0.00039881558 0.009434036 0.00011784756 0.0031391815
0.00051685277 0.0096881073 0.99322349 -0.060167179 0.00096045842 0.013907064
0.00011201602 0.00313947 0.00096056535 0.013909972 0.99858838 -0.020099308
211348.90398366 0.99598175 -0.041451819 0.00044484794 0.010004828 0.00013725043 0.0032933343
0.00055223837 0.010270459 0.99296403 -0.063527338 0.0010410313 0.014694218
0.00011200555 0.0032906877 0.0010496845 0.014699307 0.99830031 -0.02116457
223872.11385683 0.99585557 -0.043874349 0.00050172809 0.010572636 0.00016448737 0.0035185181
0.00060073572 0.010871499 0.99249858 -0.067418754 0.0011723788 0.015551534
0.00012528928 0.003488048 0.001133421 0.015550846 0.99833554 -0.022300575
237137.37056617 0.99579859 -0.046441048 0.00058955926 0.011221246 0.00013846175 0.0036785805
0.0006914516 0.011519929 0.99232674 -0.071577795 0.0012684636 0.01643412
0.00015800909 0.0036889506 0.001268539 0.016473344 0.99810427 -0.0236063
251188.64315096 0.99574751 -0.049196228 0.00064227323 0.01188599 0.00013901692 0.0039179334
0.00075812597 0.012201414 0.99188441 -0.07551758 0.0014274 0.017368624
0.00016976308 0.0039078826 0.0014400027 0.01741074 0.99825752 -0.025022509
266072.50597988 0.99540919 -0.052215703 0.00072369963 0.012593281 0.00016278561 0.0041621318
0.00087781704 0.012930327 0.99170375 -0.079986297 0.0015754397 0.018378178
0.00016971228 0.004128336 0.0015735886 0.018415501 0.9979921 -0.026410105
281838.29312645 0.99533635 -0.055329751 0.00081708259 0.013332107 0.00018814018 0.0043852907
0.00094231765 0.013722917 0.99103409 -0.084673099 0.001727071 0.019413084
0.00020242238 0.0043748249 0.0017252556 0.01942973 0.99799734 -0.027904341
298538.2618918 0.99497014 -0.058505818 0.00091518939 0.014125935 0.00021785064 0.0046203653
0.0010626805 0.014514451 0.99053085 -0.089328319 0.0019110527 0.020532355
0.00021068852 0.004618668 0.0019071694 0.020542327 0.99780458 -0.029436179
316227.76601684 0.99468035 -0.062078297 0.0010396451 0.014996701 0.00022546656 0.0049067852
0.0011751303 0.015386682 0.98999512 -0.09488555 0.0021091152 0.021683903
0.00023415206 0.0048988815 0.0021109215 0.021688467 0.99761063 -0.031103229
334965.43915783 0.99453259 -0.065610744 0.0011528924 0.015857387 0.00024035982 0.0051866616
0.0013068685 0.016306529 0.98931044 -0.10032764 0.0023264904 0.022904061
0.00025847109 0.0051561296 0.0023080094 0.022967786 0.99736345 -0.032878358
354813.38923358 0.99426967 -0.06948141 0.0012932776 0.016826678 0.00026272095 0.0054553091
0.0014520946 0.017233072 0.98841345 -0.10621834 0.0025458122 0.02420721
0.0002883097 0.005446475 0.0025480757 0.02423371 0.9973318 -0.034754254
375837.40428844 0.99385631 -0.073414229 0.0014631882 0.017837603 0.00028450807 0.0057964865
0.0016491796 0.018265303 0.98774242 -0.11235456 0.0028210131 0.02557314
0.00029136625 0.0057780398 0.0028141863 0.025579188 0.99718654 -0.03691566
398107.1705535 0.99353158 -0.077902555 0.001641077 0.01885852 0.00031460306 0.0061148549
0.0018429349 0.019348463 0.98677337 -0.11908795 0.0030905681 0.027023194
0.00031255157 0.0061077364 0.0030933511 0.027043028 0.99691951 -0.038975388
421696.50342858 0.9930768 -0.082295284 0.0018501101 0.019964989 0.00033495235 0.0064509092
0.0020416991 0.020497106 0.98577923 -0.12602645 0.0033938831 0.028537234
0.000336219 0.0064382544 0.0033737957 0.028582286 0.99668878 -0.041018739
446683.59215096 0.99262714 -0.087314799 0.0020932963 0.021123504 0.00037004065 0.006838982
0.0023230906 0.02167191 0.98473525 -0.13331336 0.0037334457 0.030120546
0.00035718293 0.0068209418 0.0037509608 0.03012637 0.99645603 -0.043310549
473151.25896148 0.99219143 -0.092415534 0.0023864286 0.022380628 0.0003615458 0.0072154817
0.002579015 0.02297201 0.98366433 -0.14096142 0.0041193161 0.031792797
0.0003936688 0.0072192545 0.0040868716 0.031852461 0.99612993 -0.045735534
501187.23362727 0.99125838 -0.09792313 0.0026584736 0.023669841 0.00039476732 0.0076374928
0.0028979233 0.024306655 0.98243719 -0.14918055 0.0045203776 0.033582769
0.00043398674 0.0076232161 0.0045183641 0.033626992 0.99585831 -0.048179816
530884.44423099 0.9906401 -0.10367604 0.0029906123 0.025058862 0.00042413961 0.0080853915
0.0032224564 0.025711404 0.98105341 -0.15772577 0.0049546338 0.035482537
0.00044689325 0.0080461102 0.0049560568 0.035495881 0.99576974 -0.051111873
562341.32519035 0.98997444 -0.10955295 0.0033717917 0.026482331 0.00048942881 0.0085586784
0.0036220211 0.027186088 0.97922933 -0.16688561 0.005451472 0.037464049
0.00046840668 0.0085276924 0.0054758852 0.037511773 0.99542516 -0.054124687
595662.14352901 0.9892152 -0.1158711 0.003772984 0.028061362 0.00049772649 0.0090499585
0.0040457156 0.028800065 0.97728419 -0.17660795 0.00598408 0.039526578
0.00052633218 0.0090305423 0.0059870346 0.039576024 0.99508572 -0.057068586
630957.34448019 0.98844427 -0.12264301 0.0042605372 0.029656054 0.00054687838 0.009580587
0.0045633423 0.030456187 0.97523201 -0.1867802 0.0066055935 0.041749742
0.0005771424 0.0095565524 0.0065830112 0.041786041 0.99453962 -0.060432773
668343.91756861 0.98739392 -0.12991571 0.0047694347 0.031339001 0.000572572 0.010133051
0.0050945142 0.032166772 0.97270566 -0.1976148 0.0072317729 0.04409131
0.00061049429 0.01011073 0.0072389604 0.044090297 0.99421328 -0.063631743
707945.78438414 0.98629838 -0.13754535 0.0053739552 0.033156473 0.0006216662 0.010698979
0.0057649626 0.033986486 0.96992725 -0.20889521 0.0079633389 0.046497248
0.00065435644 0.010702313 0.0079739606 0.046554528 0.9937402 -0.067441143
749894.20933246 0.98496073 -0.1456528 0.0060310122 0.035023347 0.00066605897 0.011349793
0.0064465096 0.03592011 0.96664321 -0.22075357 0.0087871533 0.049062368
0.00070066017 0.01129919 0.0087606618 0.049123269 0.99321812 -0.071209952
794328.23472428 0.98340911 -0.15425758 0.0067788884 0.037011459 0.0006904839 0.012013072
0.0072203106 0.03793934 0.96417576 -0.23275048 0.0096185096 0.051785097
0.00076340418 0.011980732 0.0096284421 0.051812287 0.9928143 -0.075105265
841395.14164519 0.98178458 -0.16291419 0.0075912569 0.03906247 0.00077711436 0.012721594
0.0080630304 0.040048663 0.96080738 -0.24657336 0.010654285 0.054638498
0.00078103878 0.012672246 0.010643109 0.054684136 0.99240816 -0.079386488
