!Keysight Technologies,E5080A,MY55100144,A.11.70.03
!Date: Monday, November 13, 2017 17:22:46
!Correction: S11(Full 3 Port(1,2,3)) 
!S12(Full 3 Port(1,2,3)) 
!S13(Full 3 Port(1,2,3)) 
!S21(Full 3 Port(1,2,3)) 
!S22(Full 3 Port(1,2,3)) 
!S23(Full 3 Port(1,2,3)) 
!S31(Full 3 Port(1,2,3)) 
!S32(Full 3 Port(1,2,3)) 
!S33(Full 3 Port(1,2,3)) 
!S3P File: Measurements: <S11,S12,S13>,
!<S21,S22,S23>,
!<S31,S32,S33>:Log Frequency Sweep
# Hz S  RI   R 50
10000 0.99677491 -0.0015482702 5.3286799e-006 0.00026263754 -1.682622e-005 0.00017700413
-1.1109548e-005 0.00027148685 0.99883103 -0.0035407259 -8.9003947e-008 0.00069026486
2.0761982e-007 0.0001756891 2.115695e-005 0.00070635451 0.99981642 -0.0023892578
10592.537251773 0.99694902 -0.0015038569 5.1446809e-006 0.00027948787 7.7589866e-006 0.00016763063
-1.5158417e-005 0.00025551405 0.99865681 -0.0035982213 4.170076e-006 0.00073812547
1.0604939e-005 0.00019858398 1.5970814e-005 0.00075830886 0.99986279 -0.0022077856
11220.18454302 0.99688137 -0.0017669601 -6.4156466e-006 0.00028854547 2.5985872e-005 0.00017793666
6.2632171e-006 0.0003076827 0.99901247 -0.0037943323 2.8686961e-006 0.00079781353
4.2280626e-006 0.00018339024 2.0342679e-005 0.00081814802 1.0000592 -0.0023061887
11885.02227437 0.9969002 -0.0018624108 3.990102e-006 0.00031965191 -6.852385e-006 0.00018440789
-6.0093457e-006 0.00030472968 0.99880052 -0.0039825216 1.1773714e-006 0.00082151697
-9.9448116e-006 0.00019276042 -2.33474e-005 0.00083375484 1.0000734 -0.0024533309
12589.254117942 0.99705333 -0.0018177099 -3.5459882e-007 0.00032984256 -5.9945673e-006 0.00018904386
-7.5547706e-007 0.00033787487 0.99891955 -0.0039964779 1.8625118e-005 0.0008869986
-1.5586238e-005 0.00019602578 9.317715e-006 0.00091308961 1.0000296 -0.0025726925
13335.214321633 0.99710846 -0.0018757524 -1.6229889e-005 0.00038172147 1.2268685e-005 0.00022520518
1.3229974e-006 0.00034579387 0.99905473 -0.0044118641 -4.0299724e-007 0.00093098497
5.7466714e-006 0.00020812909 2.7398671e-006 0.00094489934 1.0000621 -0.0024361054
14125.375446228 0.99683815 -0.0022221315 1.7846494e-005 0.00036451078 6.5480504e-007 0.0002159268
-5.731315e-007 0.00038281971 0.99901026 -0.004632242 1.0316779e-005 0.0010384206
1.4138863e-005 0.00023708056 -1.2949832e-005 0.001025351 0.99992639 -0.0024093257
14962.356560944 0.99692005 -0.0021160746 3.8290491e-006 0.0003813912 -4.5709246e-008 0.00024343401
8.7569033e-006 0.00037518103 0.99898553 -0.0045576417 1.869175e-006 0.0010621351
-6.7073579e-006 0.00022805415 -9.1188695e-006 0.0010577254 0.99993026 -0.0027439161
15848.931924611 0.99709374 -0.0023484696 -7.6805454e-006 0.00041233437 -1.1397357e-005 0.000276654
1.7353555e-006 0.00043754501 0.99903703 -0.0048610372 -2.7806661e-006 0.0011328706
1.9716817e-006 0.00025070371 8.5044121e-006 0.001138881 1.0001507 -0.0024942767
16788.040181226 0.99705487 -0.0025826283 -5.5042738e-006 0.00044031738 3.7204816e-006 0.00029187117
8.8108436e-006 0.00043385749 0.99908149 -0.0051816157 2.1456797e-006 0.0011855437
1.79375e-005 0.0002709098 -4.8249626e-006 0.0011798157 0.99997616 -0.0028866807
17782.794100389 0.99710488 -0.0025005636 1.4866575e-007 0.00045646186 8.9077621e-006 0.00029850318
2.5283411e-005 0.00047447832 0.99918371 -0.0053742561 1.1901166e-005 0.0012496661
-5.5128203e-006 0.00029127844 1.5501459e-005 0.0012633955 0.99992269 -0.0027539057
18836.490894898 0.99718595 -0.0026598214 1.861259e-006 0.00048978697 2.2530132e-005 0.00029055067
-8.9664563e-006 0.00050595362 0.99909359 -0.0056838342 2.1208478e-005 0.0013398755
-7.4377563e-006 0.00033083078 1.3219178e-005 0.0013314941 0.99988019 -0.0027431706
19952.623149689 0.99704814 -0.0030102555 -7.476568e-006 0.00050525338 -8.2400829e-006 0.00033145442
-4.9168129e-006 0.00051543798 0.99915236 -0.0060623302 1.1764388e-006 0.0014135755
-1.0691994e-005 0.00032609093 -2.5549834e-005 0.001416745 0.99999744 -0.0028239305
21134.890398366 0.99710625 -0.0031825474 1.070251e-005 0.00053986383 1.8273657e-005 0.00033677981
1.2369813e-006 0.00053727202 0.99903893 -0.0063599818 2.3100611e-005 0.0015073658
6.2062099e-006 0.0003570173 1.7680903e-005 0.0014992836 0.99989873 -0.0030146493
22387.211385683 0.9969424 -0.0034108723 1.2940643e-005 0.0005899102 -8.2309325e-006 0.00038762583
7.3298297e-006 0.00058710878 0.99921066 -0.0065364144 8.6790551e-006 0.0015924337
-5.9330741e-006 0.00037700179 2.7386437e-005 0.001590527 0.99987006 -0.0031821686
23713.737056617 0.99692369 -0.0036015159 2.6015248e-006 0.00061594037 -1.1054846e-005 0.00038523215
-6.8594991e-006 0.00061079272 0.99909467 -0.0069909464 2.3301478e-005 0.0016825011
1.0401519e-005 0.00039204423 -1.5430101e-006 0.0017050111 0.99971992 -0.0030912142
25118.864315096 0.99698609 -0.0037904847 -1.1147942e-005 0.00064734631 1.6081531e-005 0.00041018912
1.2653155e-005 0.00065673597 0.9990437 -0.0072412691 2.960321e-005 0.0017762397
1.2728481e-006 0.0004189593 3.0999294e-005 0.0017862561 0.99997234 -0.0033569701
26607.250597988 0.99703532 -0.003842084 -1.3921794e-005 0.00068581232 1.4369206e-005 0.00044537513
8.2052547e-006 0.00070112303 0.99911606 -0.0077617425 4.0799889e-005 0.0018818267
-9.1475449e-006 0.0004252131 2.1269247e-005 0.0018877756 0.99993223 -0.0034726383
28183.829312645 0.99702078 -0.0043232534 5.166049e-006 0.00072697725 -3.9548809e-006 0.00047879506
2.5027384e-006 0.00073698547 0.99924809 -0.0081638517 2.4492807e-005 0.0020038106
4.5301463e-006 0.00046855729 3.9275612e-005 0.0020089934 0.99979103 -0.0036136045
29853.82618918 0.99722815 -0.0044059181 -1.0257422e-006 0.00077596429 6.4071912e-008 0.00050184008
1.2555055e-005 0.00076460623 0.99922347 -0.0084594646 2.3061208e-005 0.0021058084
8.322113e-006 0.00051189621 4.3975208e-005 0.0020958968 0.99991214 -0.0036913306
31622.776601684 0.99700254 -0.0048343032 2.1010223e-005 0.00081315555 4.7964897e-007 0.00054715102
-5.7578886e-006 0.00081576087 0.99915808 -0.0090323482 1.8848665e-005 0.0022258861
-8.1035432e-006 0.00051682314 3.939091e-005 0.0022415707 0.99988091 -0.0040666806
33496.543915783 0.99701267 -0.0048909867 1.3959656e-005 0.00089023326 7.94684e-006 0.00054559257
-3.0992246e-006 0.00085846381 0.99911982 -0.0096276486 3.1024269e-005 0.0023749927
9.8736155e-006 0.00055148394 4.8858728e-005 0.0023803378 0.99973494 -0.0040712021
35481.338923358 0.99694568 -0.0051962333 4.5471697e-006 0.00090468425 -8.6297841e-006 0.000596372
2.4149464e-005 0.00091888144 0.99921578 -0.01025112 4.5110497e-005 0.0025093919
5.3675576e-006 0.0005654447 4.9819479e-005 0.0025175803 0.99978977 -0.0042474158
37583.740428844 0.99697256 -0.0054199286 6.414677e-006 0.00095613679 3.8730964e-006 0.00060195976
6.7028368e-006 0.00097645936 0.99924326 -0.010727061 3.5785131e-005 0.0026714397
1.1303454e-005 0.00063118845 6.8376736e-005 0.0026750008 0.99965984 -0.0045506814
39810.71705535 0.99706852 -0.0058129448 7.0298497e-006 0.0010309038 1.1080692e-005 0.00064677896
-5.1598972e-006 0.0010240828 0.9992739 -0.011242165 3.5116791e-005 0.0028256385
-3.2611217e-006 0.0006649975 3.2767173e-005 0.002835907 0.99957997 -0.0048900046
42169.650342858 0.99704492 -0.0061889016 -1.713429e-006 0.0010827198 3.5001842e-005 0.0006766406
-2.7498797e-006 0.0010940618 0.99916834 -0.011792596 6.5304361e-005 0.0029813247
9.9671624e-006 0.00069488777 4.5467903e-005 0.0029905611 0.99958336 -0.0050869216
44668.359215096 0.99709737 -0.0065824343 -5.739696e-006 0.0011407792 -1.0748237e-005 0.00071764213
8.7972094e-006 0.0011556268 0.99910492 -0.01257333 5.4314198e-005 0.0031506168
1.0885986e-005 0.00075230986 6.3640291e-005 0.0031617831 0.99948817 -0.0052610915
47315.125896148 0.99714732 -0.0069163819 -8.0345026e-006 0.001214164 2.4753052e-005 0.00076215394
-1.052012e-006 0.0012127073 0.99907589 -0.013356939 6.005519e-005 0.0033427079
8.4200201e-006 0.00078087772 7.4465854e-005 0.0033596163 0.99954373 -0.0054785949
50118.723362727 0.99700427 -0.0074487319 1.1077806e-005 0.0013006796 1.4913022e-005 0.0008155423
1.5988307e-005 0.0012735224 0.99899143 -0.014219864 5.4575834e-005 0.0035389976
8.6453329e-006 0.00080793287 8.7698325e-005 0.0035432619 0.99936354 -0.0055895173
53088.444423099 0.99714655 -0.0077462844 2.205073e-005 0.0013821125 8.4047761e-006 0.00086149189
1.4782045e-005 0.0013604143 0.99904197 -0.015014776 9.9140088e-005 0.0037522842
7.0360397e-006 0.00086419901 7.666387e-005 0.0037687658 0.99953383 -0.006013087
56234.132519035 0.99699771 -0.0082116732 2.0941239e-005 0.0014529289 2.8767749e-005 0.00093044463
1.3931004e-005 0.0014498993 0.99898177 -0.015980203 0.00010108377 0.0039438051
5.8727114e-006 0.00091192016 7.6258366e-005 0.003976102 0.99938536 -0.0063313884
59566.214352901 0.99690205 -0.0087868264 3.8209901e-006 0.0014990974 4.3768181e-005 0.00098357664
1.6415779e-006 0.0015196551 0.99888963 -0.01687362 0.00011187552 0.0041942378
1.8784463e-005 0.0009878166 0.00011471731 0.0042055156 0.99920684 -0.0065909587
63095.734448019 0.99693841 -0.0092157992 3.7725902e-005 0.0016181703 3.6187732e-005 0.001035073
7.3503388e-006 0.0016361169 0.99895358 -0.017865349 0.00012086346 0.0044578705
1.1261683e-005 0.0010226842 0.00011072648 0.0044557741 0.99933636 -0.0069776899
66834.391756861 0.99677426 -0.0097880373 9.872384e-006 0.0017167529 1.2690934e-005 0.0011060521
1.1444527e-005 0.0017266668 0.99888873 -0.019062974 0.00012170782 0.0047401707
5.7704906e-006 0.0010970992 9.7935146e-005 0.004732389 0.99942982 -0.0073520252
70794.578438414 0.99684429 -0.010273485 1.1382854e-005 0.0018091589 2.3625023e-005 0.0011802748
3.167925e-005 0.0018224337 0.99858737 -0.020048577 0.00015443185 0.0049854158
2.8305785e-005 0.0011758029 0.00014415116 0.0049988185 0.99919927 -0.0077926228
74989.420933246 0.99686277 -0.010947955 2.2424203e-005 0.0019440281 3.4850629e-005 0.0012388948
1.5349777e-005 0.0019404679 0.99884188 -0.021036008 0.00016234948 0.0053018243
5.0607014e-006 0.0012342125 0.00015385079 0.0052877148 0.99912858 -0.0079193367
79432.823472428 0.99693418 -0.011600516 2.3830593e-005 0.0020416474 3.4379053e-005 0.0012849213
1.4013454e-005 0.0020191779 0.99876207 -0.022284226 0.00018974015 0.0055903806
2.0718115e-005 0.0012921443 0.00016685054 0.0056089829 0.99912238 -0.0084765423
84139.514164519 0.99685383 -0.012175609 1.1358696e-005 0.0021473642 2.8360018e-005 0.0013819833
3.2596497e-005 0.002170451 0.99855471 -0.023537206 0.00018628016 0.0059141512
3.5434092e-005 0.0013832998 0.00019762437 0.0059471014 0.99917692 -0.008756049
89125.093813375 0.99691957 -0.01283887 4.6006862e-005 0.0022831522 3.5840727e-005 0.0014608415
3.3297034e-005 0.0022741877 0.9985863 -0.025006218 0.00019709158 0.0062916083
5.295092e-005 0.0014517126 0.00018677732 0.0062716091 0.99912262 -0.0094603198
94406.087628592 0.99693638 -0.013626773 3.7083162e-005 0.0024329578 3.3296124e-005 0.0015551233
1.6518736e-005 0.002415322 0.99857384 -0.026380358 0.00021008523 0.0066392212
4.2691023e-005 0.0015200814 0.00023769969 0.0066512991 0.99927175 -0.0097502526
100000 0.99694943 -0.014326219 4.3239765e-005 0.0025632193 3.5939571e-005 0.0016490954
3.4517849e-005 0.0025867871 0.9984256 -0.027945276 0.00025932823 0.0070549068
3.7126778e-005 0.001617051 0.0002386347 0.0070673432 0.99901217 -0.010272707
105925.37251773 0.99705434 -0.01527815 7.4301461e-005 0.0027330378 4.351676e-005 0.0017473536
5.403789e-005 0.0027441722 0.99849367 -0.029563192 0.00027119383 0.0074595134
5.1252828e-005 0.0017500144 0.00028111454 0.007458624 0.99912977 -0.010773689
112201.8454302 0.99693382 -0.016139623 3.8280366e-005 0.0028909815 3.6320733e-005 0.0018241843
4.1638625e-005 0.0028814871 0.99838209 -0.031123914 0.00032826336 0.0078966636
4.3243541e-005 0.0018390026 0.00032121493 0.0079014972 0.99915576 -0.011467624
118850.2227437 0.99688852 -0.017026888 2.211462e-005 0.0030245574 7.2635608e-005 0.0019334189
7.2881718e-005 0.0030550438 0.99844992 -0.032995768 0.00036447332 0.0083402321
4.6893761e-005 0.0019635891 0.00035652681 0.0083578853 0.99896175 -0.012207695
125892.54117942 0.99705398 -0.01814327 4.7325258e-005 0.0032451777 4.1682764e-005 0.002044454
4.1442072e-005 0.0032359713 0.99825281 -0.035133608 0.00037486249 0.0088490201
4.5699046e-005 0.0020636045 0.0004100111 0.0088576572 0.99919641 -0.012832778
133352.14321633 0.99702096 -0.019223206 6.7168941e-005 0.003436933 7.3195712e-005 0.0021748138
6.8259302e-005 0.0034359824 0.99816376 -0.037153088 0.00043748482 0.0093461461
6.8650879e-005 0.0021866269 0.0004382777 0.0093668671 0.999017 -0.013451807
141253.75446228 0.99683338 -0.020296175 8.1500642e-005 0.0036482948 9.8728597e-005 0.0023024024
5.8291978e-005 0.0036312314 0.99808276 -0.039372019 0.00050608069 0.0099139251
5.4658914e-005 0.0023164684 0.000482317 0.0098956013 0.99910158 -0.014461797
149623.56560944 0.99687988 -0.02152106 6.4071159e-005 0.003849152 6.6995184e-005 0.0024553596
7.3590272e-005 0.0038586804 0.99780703 -0.041664287 0.00054462318 0.010495071
8.5615902e-005 0.0024369771 0.00054403348 0.010458549 0.99900299 -0.01527138
158489.31924611 0.99685079 -0.022734003 8.2181527e-005 0.0040952172 9.8138531e-005 0.0025874372
8.8686073e-005 0.0040849787 0.99781764 -0.044163417 0.00060923473 0.011075649
8.0959144e-005 0.0025682671 0.00060913037 0.011073206 0.99900001 -0.015984779
167880.40181226 0.99677783 -0.024135314 0.00010631383 0.0043525631 9.50303e-005 0.0027409417
9.5762116e-005 0.0043476243 0.9975785 -0.046627183 0.0006803979 0.011721568
9.1537331e-005 0.0027379708 0.00067069789 0.011711795 0.99895918 -0.016949864
177827.94100389 0.9966833 -0.025639281 0.00012193892 0.0045981561 0.0001150294 0.0029123507
0.00011220864 0.004603364 0.99753356 -0.049557757 0.00075675471 0.012416982
0.00010771551 0.0028971464 0.00071960763 0.012412535 0.99882758 -0.017923739
188364.90894898 0.9965834 -0.027086932 0.00012959432 0.0048908875 0.00011610431 0.0030478004
0.00012438458 0.0048589935 0.99719304 -0.05245547 0.00082515331 0.013117995
0.00011706385 0.0030629355 0.00083368196 0.013123734 0.998613 -0.018972704
199526.23149689 0.99662751 -0.028684275 0.00016871355 0.0051483861 0.00013264598 0.0032410503
0.00014721217 0.0051453561 0.99714595 -0.055601809 0.00091129361 0.0138881
0.0001687437 0.0032446932 0.00089660363 0.013896506 0.99863333 -0.019976908
211348.90398366 0.99649733 -0.030498402 0.00016658498 0.0054491186 0.00013926071 0.0034269411
0.0001634988 0.0054634754 0.99694914 -0.058677223 0.0010120766 0.014691006
0.00014490097 0.0034201508 0.0010214517 0.014689422 0.99835438 -0.021211963
223872.11385683 0.99639881 -0.032123614 0.00019034964 0.0057872068 0.00016356053 0.0036152711
0.00017180694 0.0057894387 0.99662006 -0.062384263 0.0011189657 0.015530657
0.0001712933 0.0036268302 0.0011083004 0.015522783 0.99856979 -0.022242337
237137.37056617 0.99632716 -0.034128185 0.00019148676 0.0061151353 0.00018440928 0.0038307412
0.0002043354 0.0061347224 0.99632072 -0.065931484 0.0012580216 0.016390892
0.00017772123 0.0038084572 0.0012317779 0.016396921 0.99841046 -0.023608023
251188.64315096 0.99650055 -0.036090389 0.00023062482 0.0064772447 0.00020242292 0.0040550618
0.0002500207 0.0065057697 0.9959802 -0.069900572 0.0013963446 0.017346187
0.00019599791 0.0040440913 0.001377504 0.017358463 0.99837965 -0.025107825
266072.50597988 0.99622148 -0.038242273 0.00026152158 0.0068805246 0.00021607016 0.0043053767
0.00026341664 0.0068793949 0.99556208 -0.073927917 0.0015123991 0.01834769
0.00021999958 0.0042683342 0.0015263663 0.018356565 0.99803293 -0.026380541
281838.29312645 0.99603921 -0.040577613 0.0002939399 0.0073039471 0.00023254241 0.0044868588
0.00029884398 0.0073024863 0.99535328 -0.078175768 0.0016881746 0.019391369
0.00023038729 0.0045272615 0.0016829717 0.019417794 0.99810481 -0.027865505
298538.2618918 0.99593621 -0.042999636 0.00035004929 0.0077496669 0.00026643279 0.0047607585
0.00034703608 0.0077159232 0.99483716 -0.082695387 0.0018581764 0.020483321
0.00025734468 0.004773492 0.0018377576 0.020478819 0.99780017 -0.029369501
316227.76601684 0.99589515 -0.045535028 0.00036735975 0.0081808958 0.00026197161 0.0050662616
0.00037200551 0.0081955865 0.9941349 -0.087641753 0.00203724 0.021638894
0.00027389757 0.0050715972 0.0020342853 0.02165073 0.99767917 -0.031144315
334965.43915783 0.99569964 -0.048243672 0.00041618486 0.0086739622 0.00033549921 0.005336327
0.00043187465 0.0086894352 0.99380594 -0.09285789 0.0022347171 0.022881722
0.00032672097 0.0053520938 0.0022269166 0.022881223 0.99753386 -0.032931846
354813.38923358 0.99557644 -0.051025901 0.00048754711 0.0092025548 0.00032383608 0.0056825862
0.00048649553 0.0091854036 0.99314326 -0.098061614 0.0024572683 0.024184184
0.0003340285 0.0056631761 0.0024866422 0.024175027 0.99747729 -0.034610219
375837.40428844 0.99536222 -0.053992067 0.00057962316 0.0097475816 0.00038279805 0.0059684948
0.00057228183 0.0097538913 0.99250805 -0.10391564 0.0027226196 0.025541402
0.00037463286 0.0059770397 0.0027291898 0.025533076 0.99720293 -0.036772881
398107.1705535 0.99511135 -0.057258628 0.00066842895 0.010337953 0.0003784881 0.0063182404
0.00064218655 0.010331922 0.9916569 -0.10999648 0.002997091 0.02695849
0.00039609874 0.0063166879 0.00297735 0.026981773 0.99692398 -0.038780097
421696.50342858 0.99494189 -0.060629081 0.00073961623 0.010973823 0.00043424315 0.0066591077
0.00072504714 0.010949652 0.9907487 -0.11636081 0.0032669019 0.028509287
0.00042851942 0.0066703674 0.0032923527 0.028482547 0.99671817 -0.041088134
446683.59215096 0.9948073 -0.064271614 0.00083180721 0.01160725 0.0004519753 0.0070397155
0.00082186656 0.011595741 0.98993552 -0.12329705 0.0035817998 0.030077998
0.00045915984 0.0070408988 0.0036051325 0.030117819 0.99643606 -0.0432848
473151.25896148 0.99451059 -0.067950457 0.00094762602 0.012276375 0.00049473619 0.0074305651
0.00094110874 0.012290355 0.98902255 -0.13038477 0.003946716 0.031793173
0.00050071906 0.0074559692 0.003967206 0.031809926 0.99630088 -0.045726467
501187.23362727 0.99401921 -0.071976922 0.0010698399 0.013037461 0.00053627981 0.0078852959
0.0010774484 0.013019194 0.98790097 -0.13778552 0.0043425853 0.033576991
0.00053826033 0.0078815697 0.0043361802 0.033586033 0.99601579 -0.048227835
530884.44423099 0.99359059 -0.076227918 0.001236872 0.013812134 0.00059954706 0.0083151683
0.0012389704 0.013801028 0.98675889 -0.14574693 0.0047796415 0.035462741
0.00060709007 0.0083207767 0.0047481651 0.035491906 0.99587655 -0.05109654
562341.32519035 0.99333131 -0.080781318 0.0013843648 0.014589835 0.0006114635 0.0087964367
0.0013797621 0.014601056 0.98512208 -0.15431289 0.0052282372 0.03744743
0.0006395824 0.0088090654 0.0052456609 0.037452888 0.99545062 -0.053967021
595662.14352901 0.99297112 -0.085176229 0.0015654544 0.015465157 0.00067016092 0.0092969276
0.0015456371 0.015466159 0.98362339 -0.16328974 0.0057353601 0.039524768
0.00070470868 0.0093160355 0.0057518645 0.039548617 0.99523318 -0.057025708
630957.34448019 0.99269885 -0.0902045 0.001777709 0.016369319 0.00074470305 0.0098253526
0.001771394 0.016403701 0.9817608 -0.17285223 0.0063147033 0.04173667
0.00075842103 0.0098416107 0.0063335476 0.041748963 0.99466991 -0.060322464
668343.91756861 0.99198622 -0.095629305 0.0020121818 0.017341012 0.00078100275 0.010413316
0.0019863071 0.017319612 0.97974312 -0.18272163 0.0069580385 0.044046585
0.00080901786 0.010421235 0.0069664507 0.044096097 0.99429566 -0.063687228
707945.78438414 0.99146497 -0.1013824 0.0022491948 0.018338913 0.000871834 0.010988167
0.0022661064 0.01833427 0.97717386 -0.1932734 0.007627225 0.046502523
0.00089101552 0.011004893 0.0076589002 0.046525426 0.99380332 -0.067259796
749894.20933246 0.99077725 -0.10718558 0.0025643585 0.019413624 0.00094802486 0.011638389
0.0025811594 0.019394368 0.97452664 -0.20424981 0.0084207831 0.049083032
0.00094746525 0.011647573 0.0084150219 0.049109656 0.9931885 -0.071085759
794328.23472428 0.98973536 -0.11378086 0.0028776061 0.020530239 0.0010238789 0.012287795
0.002920677 0.020516843 0.97238851 -0.21525554 0.0092462692 0.051847298
0.0010143041 0.012298904 0.0092406236 0.051832691 0.9927581 -0.075127065
841395.14164519 0.98905909 -0.12008874 0.003248215 0.021673232 0.0011028323 0.013036847
