!Keysight Technologies,E5080A,MY55100144,A.11.70.03
!Date: Monday, November 13, 2017 17:22:42
!Correction: S11(Full 3 Port(1,2,3)) 
!S12(Full 3 Port(1,2,3)) 
!S13(Full 3 Port(1,2,3)) 
!S21(Full 3 Port(1,2,3)) 
!S22(Full 3 Port(1,2,3)) 
!S23(Full 3 Port(1,2,3)) 
!S31(Full 3 Port(1,2,3)) 
!S32(Full 3 Port(1,2,3)) 
!S33(Full 3 Port(1,2,3)) 
!S3P File: Measurements: <S11,S12,S13>,
!<S21,S22,S23>,
!<S31,S32,S33>:Log Frequency Sweep
# Hz S  RI   R 50
10000 0.99686539 -0.0014696775 2.7343836e-005 0.00025831175 2.4558001e-005 0.00017601908
1.9292163e-005 0.00025569482 0.99886048 -0.0034624098 -1.4081947e-005 0.00071957946
-4.4382045e-006 0.0001831016 1.8241673e-005 0.00071287301 0.99980819 -0.0024708025
10592.537251773 0.99684078 -0.0016305688 4.3103205e-006 0.00027975961 -1.8193383e-005 0.00020302192
2.2574624e-005 0.00026815175 0.99866539 -0.003564476 -1.8801366e-005 0.00075122929
4.5810716e-006 0.00018342874 -1.1935644e-005 0.0007626483 0.99996364 -0.0023055493
11220.18454302 0.99707282 -0.0018102807 4.7515418e-006 0.00028156705 7.0027741e-006 0.00018784303
5.0079343e-006 0.00028531364 0.99888629 -0.0038719631 6.9458147e-006 0.00079438236
-8.1882108e-006 0.00018385398 2.0148507e-005 0.00080960774 1.000149 -0.0025349313
11885.02227437 0.99694216 -0.0017350154 3.9198567e-006 0.0003134695 6.9931502e-006 0.00018831035
-3.5086164e-006 0.00028591562 0.99874729 -0.0040224926 9.6348037e-007 0.00086597225
1.0853548e-005 0.00022430655 -1.509002e-005 0.00085507386 0.99990779 -0.0023466107
12589.254117942 0.99706841 -0.0018829012 -6.5566501e-006 0.00031960913 -1.6735046e-005 0.00019573957
8.9197629e-006 0.00031938034 0.99901956 -0.0041622315 1.3797695e-005 0.00089246238
7.4372965e-006 0.00019524235 3.7420352e-005 0.00087384117 1.0001003 -0.0024591971
13335.214321633 0.99705887 -0.0019730402 2.3991333e-006 0.00031916035 -1.4071284e-005 0.00023563551
1.0650099e-005 0.00033559185 0.99900091 -0.00443064 1.0828264e-005 0.00096493308
9.9698746e-006 0.00020111009 1.5196889e-005 0.0009598044 0.99990392 -0.0023250412
14125.375446228 0.99685925 -0.0023071803 2.0237994e-006 0.00034041013 -2.2384535e-007 0.00022586888
1.6863763e-006 0.0003512378 0.99902916 -0.0044762809 1.1196062e-005 0.00098239619
9.7484599e-006 0.00022283968 2.9788995e-005 0.0010026857 0.99996626 -0.0023010434
14962.356560944 0.99683154 -0.00221216 1.1105428e-006 0.00035983732 4.2517522e-007 0.00023660362
1.8362152e-005 0.00036492696 0.99904436 -0.0046311948 6.4233933e-007 0.001043239
1.2317019e-005 0.00024037718 1.0484558e-005 0.0010577061 1.0000702 -0.002641541
15848.931924611 0.99721348 -0.002404192 -8.0997211e-007 0.00039945773 6.0036659e-006 0.00025877493
3.0679776e-006 0.00037467742 0.99895293 -0.0048578386 3.1243839e-005 0.0011199092
1.1562996e-005 0.00026891835 3.8639905e-006 0.0011245074 1.0001889 -0.002565549
16788.040181226 0.9970414 -0.0026187547 7.2738444e-006 0.00043868154 -1.3497255e-006 0.00028881631
1.2716244e-005 0.00040594325 0.99903274 -0.0050743553 7.87524e-006 0.0011919844
-6.5115178e-006 0.00027928111 4.7146355e-006 0.001161303 1.000091 -0.0027169569
17782.794100389 0.99713045 -0.0025710475 -7.5309595e-006 0.00047520426 2.5887794e-006 0.00031028115
7.4462664e-006 0.00043893189 0.99909651 -0.0054348395 1.1885152e-005 0.0012562791
1.5302896e-005 0.00029055425 2.2381759e-005 0.001262771 0.99997622 -0.0027059047
18836.490894898 0.99712527 -0.0026233895 3.2903245e-006 0.00047031135 1.7813281e-005 0.00029248607
-7.671214e-006 0.00046289322 0.99903065 -0.0056216936 1.0540949e-005 0.0013398161
-2.4802521e-006 0.00031161978 1.6327889e-005 0.0013304838 0.99990755 -0.0027360066
19952.623149689 0.99707776 -0.0030073547 1.2850968e-005 0.00048346384 2.4489347e-005 0.00032708066
8.6978634e-006 0.00049179216 0.99917591 -0.0060604657 4.3439616e-009 0.0014282815
1.0367943e-005 0.00034338376 2.811529e-005 0.0014211875 0.99985844 -0.0028303072
21134.890398366 0.99718153 -0.00324832 1.4008368e-005 0.00053159834 1.9253686e-005 0.00034675346
4.9256964e-006 0.00052051229 0.99914092 -0.0062239175 1.2573131e-005 0.0014960718
2.1449912e-005 0.00034696778 1.9036623e-005 0.0015084504 0.99980086 -0.003259996
22387.211385683 0.99717921 -0.0034030839 2.3623134e-005 0.00053703104 -1.822221e-005 0.00037510466
1.8833345e-005 0.00056159031 0.99900013 -0.0064806272 3.1475985e-005 0.0015658605
-1.3386256e-007 0.00037219463 1.0091978e-005 0.0016069326 0.99991256 -0.0031470978
23713.737056617 0.99700844 -0.0035612031 -1.7947934e-006 0.00059022888 -1.8816334e-005 0.00038826934
-1.3162912e-005 0.00059539574 0.99910843 -0.0069815503 3.2383094e-005 0.0016833579
3.8331659e-006 0.000371881 -1.071859e-005 0.0016710451 0.99979275 -0.003103673
25118.864315096 0.99704683 -0.0038645477 -4.565472e-006 0.00061206159 -9.0934245e-006 0.00042005038
-4.1746657e-006 0.00063621363 0.99913299 -0.007218949 3.6028898e-005 0.0017794522
-1.0064287e-005 0.00042221925 2.1421245e-005 0.0017877623 0.99975282 -0.0034527569
26607.250597988 0.99708998 -0.0038680208 -6.100629e-006 0.00069151889 3.2330965e-005 0.00042646588
-1.0966607e-005 0.00067794265 0.99911457 -0.0077085304 2.2291246e-005 0.0018841112
2.2274788e-005 0.0004291838 2.6373511e-005 0.0018839781 0.99988794 -0.0034875313
28183.829312645 0.99710423 -0.0042065629 1.6952505e-005 0.00070912385 -4.5077991e-006 0.00048160594
1.7872415e-005 0.00071693375 0.99916202 -0.0079614418 2.064215e-005 0.0020242687
-4.4995645e-006 0.00047288151 2.2099865e-005 0.0019940229 0.99978125 -0.0035684588
29853.82618918 0.99715853 -0.0044179196 3.0001984e-005 0.00073759607 -7.9503907e-006 0.00046309156
-1.1021977e-005 0.00075036031 0.99914443 -0.0084212907 8.4917465e-006 0.0021100254
-1.6538033e-005 0.00048630073 1.410415e-005 0.0021044617 0.99987674 -0.0036935986
31622.776601684 0.99712324 -0.0047686985 -2.1890323e-006 0.0007852522 5.9423619e-006 0.00052904745
1.5537433e-005 0.00077693968 0.99913722 -0.0090186791 3.2273283e-006 0.0022325672
2.1234129e-005 0.00051665591 3.8767779e-005 0.0022350533 0.99975199 -0.0040381635
33496.543915783 0.99709743 -0.0048975092 1.4247357e-005 0.00084385707 -1.0129503e-005 0.00056639547
-1.651031e-006 0.00082335068 0.99910879 -0.0095683672 3.7518294e-005 0.0023726206
7.1324948e-006 0.00055319717 1.3312522e-005 0.0023939044 0.99972486 -0.0041508568
35481.338923358 0.997006 -0.0052103968 8.6905657e-006 0.00086587342 -5.5186201e-006 0.00058369839
2.178055e-005 0.00087715505 0.99920088 -0.010123865 4.4734075e-005 0.0025101129
1.793636e-005 0.00058123167 4.5040393e-005 0.0025293468 0.99973983 -0.0042901607
37583.740428844 0.99701643 -0.0055216411 2.4217266e-005 0.00091709185 1.6779635e-005 0.00062012917
4.5888246e-006 0.0009241454 0.99914938 -0.01069025 4.1814765e-005 0.0026704287
-5.7452526e-006 0.00062468956 6.4387714e-005 0.0026852142 0.99973845 -0.0046664337
39810.71705535 0.99717176 -0.0057092379 1.630358e-005 0.0010062527 -7.6129704e-006 0.0006666659
5.1334673e-006 0.00099447684 0.99914962 -0.011285963 4.104117e-005 0.0028122081
-8.4094233e-007 0.00064407103 3.2377098e-005 0.0028268078 0.99955612 -0.0047799177
42169.650342858 0.99688166 -0.006078186 3.0040468e-005 0.0010379485 1.3036833e-005 0.00067588774
2.2452088e-005 0.0010563718 0.9991982 -0.011901218 4.3912012e-005 0.0029898232
4.089401e-006 0.00070594146 5.0731644e-005 0.0030002389 0.99958014 -0.00488665
44668.359215096 0.99711013 -0.0064721378 1.8397635e-005 0.0011240403 3.2362255e-005 0.00073924963
-1.0902103e-005 0.0011053736 0.99906433 -0.012540403 5.8517133e-005 0.0031637792
1.0639611e-006 0.00072186347 6.8458568e-005 0.0031709934 0.99949074 -0.0051283105
47315.125896148 0.99721527 -0.0068995352 1.4121717e-005 0.0011738328 6.7937917e-006 0.0007899453
7.6883489e-006 0.0011807134 0.99907148 -0.013361407 7.4340074e-005 0.003363994
2.4124789e-005 0.00079176511 5.993195e-005 0.0033400434 0.99960345 -0.0054497388
50118.723362727 0.99702799 -0.0072642844 4.198077e-006 0.0012451715 1.9944984e-005 0.00083337491
1.4077441e-005 0.0012343358 0.99900019 -0.014189214 7.0926595e-005 0.0035402998
8.5511228e-006 0.00084121182 7.5754084e-005 0.0035471043 0.99951315 -0.0055790609
53088.444423099 0.99704182 -0.0077266106 1.572725e-005 0.0013042617 2.1835399e-006 0.00087792904
1.3945516e-005 0.0013047341 0.99897611 -0.014913985 8.0513157e-005 0.0037460537
1.5077796e-005 0.00090972584 9.1862879e-005 0.0037578635 0.99953049 -0.0060572857
56234.132519035 0.99706209 -0.0081862537 1.5799284e-005 0.0013709374 8.2513498e-006 0.00092969491
2.9682353e-005 0.0013979758 0.99896842 -0.015966365 9.5540323e-005 0.0039894013
1.733894e-005 0.00091983587 8.9603309e-005 0.003962147 0.99949735 -0.0063118557
59566.214352901 0.99713284 -0.0086402223 2.6590407e-005 0.0014692314 1.4584449e-005 0.00097508501
1.6471276e-005 0.0014626536 0.99897164 -0.016839525 9.970113e-005 0.0042020073
6.839809e-006 0.00099274539 9.2863746e-005 0.0041937917 0.99926925 -0.0065987897
63095.734448019 0.99699944 -0.0090767993 2.9385457e-005 0.0015397443 7.392021e-006 0.0010199498
1.4336475e-005 0.0015622594 0.99883342 -0.017858248 0.00011561854 0.0044791605
3.8477137e-005 0.0010303252 0.00011041936 0.0044644978 0.9994117 -0.0069531025
66834.391756861 0.9969883 -0.0096070385 -5.8055066e-006 0.0016557828 2.075213e-005 0.0011171547
6.1344517e-006 0.0016614532 0.9987936 -0.018917173 0.00013647566 0.004710027
3.5874175e-005 0.001104283 0.00012646939 0.0047263326 0.99940413 -0.007324216
70794.578438414 0.99687886 -0.010243059 2.0214835e-005 0.001770525 2.5117728e-005 0.0011499843
1.2911934e-007 0.0017563342 0.99851757 -0.019997172 0.00012149743 0.0049961503
2.7681905e-005 0.0011580047 0.00013604436 0.0049782339 0.99919212 -0.0078600878
74989.420933246 0.99690032 -0.010870915 3.3805652e-005 0.0018385911 3.6545764e-005 0.0012202914
3.4876466e-005 0.0018668189 0.99864978 -0.021048339 0.00016576066 0.0052892282
7.6083184e-006 0.0012468616 0.00016826263 0.0052807392 0.9994359 -0.0079514347
79432.823472428 0.99694717 -0.011448298 9.5969936e-006 0.001958152 1.9753834e-005 0.0012923152
2.6914993e-005 0.0019673777 0.99864143 -0.022163622 0.00017031643 0.0056349402
2.3613571e-005 0.0013103907 0.00016411848 0.0056137289 0.99904257 -0.0084954584
84139.514164519 0.99688351 -0.012040135 3.1654319e-005 0.0020826312 3.5570101e-005 0.0013816594
3.0938038e-005 0.0020924387 0.99852312 -0.023545125 0.00021686663 0.0059328615
2.677024e-005 0.0013865106 0.00018822348 0.0059321057 0.99910212 -0.0086529497
89125.093813375 0.99687541 -0.012704731 1.8207478e-005 0.0022060957 3.7920046e-005 0.001458935
2.6575361e-005 0.0022181382 0.99854726 -0.024723984 0.00022601354 0.0062705628
3.5194746e-005 0.0014554349 0.00017250652 0.0063027842 0.9991228 -0.0093290806
94406.087628592 0.99690551 -0.013358668 4.1045391e-006 0.0023106406 1.4223269e-005 0.0015526607
2.1600956e-005 0.0023353056 0.99838156 -0.026142841 0.00025333225 0.0066626705
2.9253049e-005 0.0015493172 0.00022677884 0.0066551641 0.99916875 -0.0098011922
100000 0.9968999 -0.014278213 4.2937594e-005 0.0024890502 2.4025579e-005 0.001639207
3.2684231e-005 0.0024800338 0.99831277 -0.027869895 0.00026836939 0.0070207058
4.2450989e-005 0.0016531984 0.00026873098 0.0070212414 0.99892294 -0.010214804
105925.37251773 0.99706376 -0.015140968 5.2386757e-005 0.002625816 3.7436948e-005 0.0017270837
2.8625456e-005 0.0026413309 0.99847782 -0.029419612 0.00031737337 0.0074567134
3.2551288e-005 0.0017281536 0.00030978367 0.0074570128 0.99901646 -0.010716152
112201.8454302 0.99708921 -0.01596408 4.524567e-005 0.0027861316 4.5269888e-005 0.0018240269
5.5307071e-005 0.002791127 0.99819398 -0.03115394 0.00030893859 0.007910898
5.0610328e-005 0.0018537807 0.00030740094 0.0078778546 0.99908459 -0.011648706
118850.2227437 0.99700397 -0.016933663 5.7788799e-005 0.0029425882 5.1302664e-005 0.0019545879
4.8444559e-005 0.0029333448 0.99840587 -0.032868955 0.0003724999 0.0083525777
5.7604615e-005 0.0019721452 0.00035252 0.0083764801 0.99905682 -0.012093957
125892.54117942 0.99704313 -0.017854573 5.8816619e-005 0.0031479062 7.3343006e-005 0.0020498997
3.8123781e-005 0.0031383454 0.99824071 -0.034961816 0.00041867347 0.0088599464
5.0484483e-005 0.0020493849 0.00039272566 0.0088595059 0.99914575 -0.012819805
133352.14321633 0.99695438 -0.019048972 7.415696e-005 0.0033052994 6.7170891e-005 0.0021798485
4.7043643e-005 0.0033113596 0.99812359 -0.036831126 0.00045697324 0.0093739135
5.0709026e-005 0.002171702 0.00046304808 0.0093613956 0.99889266 -0.013450365
141253.75446228 0.99705136 -0.020159399 5.8800957e-005 0.0035202054 7.9115678e-005 0.0023155934
5.8765756e-005 0.0035074896 0.99803406 -0.039271127 0.00048921123 0.0099074962
7.5310287e-005 0.0022903618 0.0005040929 0.0099013615 0.99910414 -0.014360921
149623.56560944 0.99685085 -0.021256039 6.0375784e-005 0.0037246039 9.4051051e-005 0.0024166598
5.2163439e-005 0.0037174355 0.99783748 -0.041644227 0.00054883724 0.010490653
7.6116652e-005 0.0024442279 0.00057056424 0.010487395 0.99899143 -0.01515818
158489.31924611 0.99700058 -0.022556754 8.4336105e-005 0.0039396882 8.1773906e-005 0.0025908486
9.7756798e-005 0.0039450931 0.99772412 -0.043852285 0.00060238322 0.011095477
9.8441029e-005 0.002570072 0.00060892681 0.011097747 0.99888885 -0.016048316
167880.40181226 0.99671978 -0.023993861 7.3906216e-005 0.0041685626 0.00010454942 0.0027266529
0.00010182329 0.0041730884 0.99748755 -0.046473127 0.00068572944 0.01173465
9.8245378e-005 0.0027359212 0.00068199896 0.011724796 0.99900323 -0.017059594
177827.94100389 0.9968062 -0.025314277 7.5438111e-005 0.0044123195 7.6733486e-005 0.0028979408
8.929053e-005 0.004427366 0.9974339 -0.049346767 0.0007247671 0.012400149
0.00010420781 0.002893816 0.00073989329 0.012409985 0.99883986 -0.017918019
188364.90894898 0.99645221 -0.026802756 0.00010109965 0.0046912911 0.00013865142 0.0030639968
0.00012529721 0.0046731271 0.99721706 -0.052217379 0.00082995387 0.013133216
0.00010192883 0.0030521534 0.00082911149 0.01314472 0.99865127 -0.019002676
199526.23149689 0.99637532 -0.028383642 0.00014635133 0.0049743862 0.00012873845 0.003250411
0.00012422728 0.0049535483 0.9970454 -0.055154212 0.00091742061 0.013895132
0.00011963525 0.0032537961 0.00092724402 0.013888927 0.99848509 -0.020127254
211348.90398366 0.99646914 -0.03018021 0.00014851877 0.0052721696 0.00017847137 0.0034354383
0.00015861698 0.0052615777 0.99678773 -0.058392867 0.0010170444 0.014705888
0.00013995668 0.0034189473 0.0010251213 0.014670285 0.99855042 -0.021157945
223872.11385683 0.99653471 -0.031641815 0.00016361284 0.0055696787 0.00018486081 0.0036267627
0.00014684234 0.0055752145 0.99649459 -0.06195873 0.0011047621 0.015524657
0.00014658117 0.003613906 0.0011221311 0.015534621 0.99846572 -0.022324422
237137.37056617 0.99649537 -0.033715434 0.00018881705 0.0059092711 0.00017157086 0.0038101424
0.00020367971 0.0059194379 0.99630135 -0.065752447 0.0012503652 0.016416648
0.00017999088 0.0038348909 0.0012438457 0.016409198 0.99836284 -0.023558894
251188.64315096 0.99648076 -0.035599861 0.00022564111 0.0062603517 0.00018157061 0.0040666964
0.00022084008 0.0062695746 0.99604875 -0.069443785 0.0013561364 0.017345255
0.00020247159 0.0040610959 0.0013669723 0.017343963 0.99824995 -0.024975894
266072.50597988 0.99628037 -0.037816964 0.00024368272 0.0066226614 0.00022110414 0.004292048
0.00024888097 0.0066427127 0.99568594 -0.073548183 0.0014953541 0.018354187
0.00023928117 0.0042967759 0.0015345112 0.018358579 0.99812019 -0.026380496
281838.29312645 0.99609715 -0.040184304 0.00025885581 0.0070428438 0.00022050044 0.0045259758
0.00028696225 0.0070451549 0.99537081 -0.077941164 0.001676955 0.019376609
0.00023166669 0.0045306543 0.0016883587 0.019399909 0.99801922 -0.027813708
298538.2618918 0.99606276 -0.042453211 0.00032774196 0.0074685048 0.00025814874 0.0047916379
0.00030462418 0.0074676531 0.99488342 -0.082377568 0.0018562907 0.020474805
0.0002776836 0.0047843638 0.0018625326 0.020496054 0.99773014 -0.029466506
316227.76601684 0.99582118 -0.04503138 0.00036204411 0.0079046134 0.00028484917 0.0050699688
0.00035301069 0.0079003144 0.99444073 -0.087381378 0.0020320485 0.021664323
0.00028333961 0.0050771195 0.002046705 0.021665616 0.99766183 -0.031127768
334965.43915783 0.9956454 -0.047672816 0.00040928597 0.008372548 0.00030156557 0.005371667
0.00041436087 0.0083846273 0.99379349 -0.092414424 0.0022374771 0.022877524
0.00028820796 0.0053428249 0.0022438224 0.022880822 0.99748129 -0.0329322
354813.38923358 0.99555224 -0.050379146 0.00044434101 0.0088743893 0.00034849806 0.0056472798
0.00046225416 0.0088732382 0.99330187 -0.097859263 0.0024745967 0.024180023
0.00034882958 0.0056654322 0.0024626751 0.024196243 0.99742341 -0.034767389
375837.40428844 0.9954077 -0.053300329 0.0005451208 0.0094098169 0.00035820701 0.005966627
0.0005249157 0.0093951197 0.99257344 -0.10359933 0.0026984462 0.02552717
0.00035281741 0.0059826383 0.0027025689 0.025567286 0.99725938 -0.03675729
398107.1705535 0.99523413 -0.056476898 0.00060356181 0.0099692475 0.0003998657 0.0063231126
0.00061609322 0.009988864 0.99176598 -0.10965238 0.0029823938 0.026995175
0.00041249164 0.0063433293 0.0029653148 0.026991377 0.99713248 -0.03884992
421696.50342858 0.99491823 -0.059870217 0.00070513063 0.01057302 0.00044153238 0.0066713807
0.00067712791 0.010573722 0.99108261 -0.11593468 0.0032727493 0.028515706
0.00046070723 0.0066916305 0.0032656644 0.028523937 0.99691087 -0.041101351
446683.59215096 0.99483609 -0.063492157 0.00078679505 0.011216912 0.00046893596 0.0070732608
0.00079718867 0.011221649 0.9899689 -0.12259199 0.0036011834 0.030105297
0.00048763832 0.0070667458 0.003601776 0.030096589 0.99632859 -0.043447785
473151.25896148 0.99439973 -0.067133129 0.00089072541 0.0118436 0.00052869896 0.0074685803
0.00089703966 0.011856805 0.98908156 -0.12990047 0.0039598304 0.031797823
0.00049852388 0.007475907 0.0039466056 0.031824421 0.99613196 -0.045742527
501187.23362727 0.99407148 -0.071180917 0.0010386705 0.01257078 0.00054202194 0.0079047233
0.0010207837 0.0125467 0.98805314 -0.1373149 0.0043317182 0.033605754
0.00054945622 0.0078979181 0.0043344935 0.033602174 0.995911 -0.04830784
530884.44423099 0.99358976 -0.075254798 0.0011603307 0.013299216 0.00060154084 0.0083386824
0.0011572076 0.013310815 0.98670906 -0.14518784 0.0047586467 0.035446875
0.00059430394 0.00836783 0.004749414 0.035493456 0.9958443 -0.051210269
562341.32519035 0.99338615 -0.079695888 0.0013095998 0.014093153 0.00063838484 0.0088376375
0.0012959227 0.014095086 0.98525733 -0.15379936 0.0052369512 0.037421569
0.00066151255 0.008821778 0.0052400809 0.037449267 0.99532771 -0.054041635
595662.14352901 0.99299765 -0.084325962 0.0014866546 0.014928886 0.00069266191 0.0092979586
0.0014880408 0.014918957 0.98364437 -0.16265769 0.0057311254 0.039534505
0.00070099608 0.0093565173 0.0057558408 0.03956553 0.99505109 -0.057046223
630957.34448019 0.99262792 -0.089234747 0.0016753309 0.015806464 0.0007721596 0.0098946206
0.001691691 0.015795598 0.98187625 -0.1720906 0.0062857401 0.041755475
0.00076788705 0.0098804226 0.0063227075 0.041749109 0.99470991 -0.060327847
668343.91756861 0.99204719 -0.094539374 0.0019137542 0.016745619 0.00080714939 0.010426611
0.0018916366 0.016716046 0.97983825 -0.18214402 0.0069306064 0.044117365
0.00081890461 0.010432268 0.0069488706 0.044083599 0.99431676 -0.063726828
707945.78438414 0.9914909 -0.099999413 0.0021568311 0.017707001 0.00088100659 0.011043907
0.0021512553 0.017710526 0.97729552 -0.1927249 0.0076192184 0.046505921
0.00088190462 0.011026785 0.0076615056 0.046554688 0.99393588 -0.067405134
749894.20933246 0.99094355 -0.10600463 0.0024188408 0.018715568 0.00094602676 0.011671835
0.0024543223 0.018739982 0.97471571 -0.20347171 0.0083740139 0.049092822
0.0009471192 0.011690051 0.008395995 0.049107272 0.99315709 -0.071232505
794328.23472428 0.99005908 -0.1124154 0.0027358159 0.019828793 0.001030731 0.012364101
0.002770127 0.019794114 0.97259861 -0.21453629 0.0092154332 0.051836573
0.0010558075 0.012344895 0.0092483778 0.051847268 0.99270177 -0.075227588
841395.14164519 0.98915911 -0.11861574 0.0031080099 0.020950105 0.0011082756 0.013053092
