!Keysight Technologies,E5080A,MY55100144,A.11.70.03
!Date: Monday, November 13, 2017 17:24:45
!Correction: S11(Full 3 Port(1,2,3)) 
!S12(Full 3 Port(1,2,3)) 
!S13(Full 3 Port(1,2,3)) 
!S21(Full 3 Port(1,2,3)) 
!S22(Full 3 Port(1,2,3)) 
!S23(Full 3 Port(1,2,3)) 
!S31(Full 3 Port(1,2,3)) 
!S32(Full 3 Port(1,2,3)) 
!S33(Full 3 Port(1,2,3)) 
!S3P File: Measurements: <S11,S12,S13>,
!<S21,S22,S23>,
!<S31,S32,S33>:Log Frequency Sweep
# Hz S  RI   R 50
10000 0.9968645 -0.0060218433 -2.0886884e-005 -1.0973636e-005 9.8124356e-006 0.000105393
8.7667704e-006 8.4810399e-006 0.47083998 -0.87563604 -1.0014161e-005 1.5833225e-006
-3.5243263e-006 0.000125053 -1.3963291e-006 1.3931914e-006 0.99970555 -0.0025244544
10592.537251773 0.99687278 -0.006354474 2.2188651e-005 5.1845027e-006 -5.8263986e-006 0.00011992981
-1.0956337e-005 -6.6413513e-006 0.42576188 -0.89803064 -1.6347334e-005 6.2505133e-006
1.9881852e-006 0.00015076682 -2.2648548e-005 -2.2628525e-005 0.99981284 -0.0022148204
11220.18454302 0.99698484 -0.0068076695 2.0760748e-005 1.041183e-005 2.0266496e-005 0.0001358694
1.3762931e-006 7.1889389e-007 0.37753209 -0.91886699 1.6186903e-005 -9.8847031e-006
1.5377746e-006 0.00013400416 5.7384859e-006 -7.025134e-006 0.99989986 -0.0023545055
11885.02227437 0.99684781 -0.0070649264 1.4814798e-006 8.012089e-006 -4.3204923e-006 0.00013341664
1.3087353e-005 -5.2626251e-007 0.32790387 -0.93763494 -6.3899297e-006 -1.5915e-006
-2.0656729e-005 0.00014048399 2.3482437e-006 -5.0319395e-006 0.99990058 -0.0023287598
12589.254117942 0.99709445 -0.0076454086 -2.0489666e-005 1.356716e-005 2.6297346e-005 0.00016105302
-8.3014027e-007 1.5905549e-005 0.27621105 -0.95383841 -1.0659441e-005 -4.4397998e-006
2.0897622e-005 0.0001639346 7.2641724e-006 -1.4436557e-005 0.99999797 -0.0024247086
13335.214321633 0.99700618 -0.0080536669 2.2644786e-006 -1.2961841e-006 1.5790394e-005 0.00016219019
7.839868e-006 8.6123682e-006 0.22315289 -0.96764678 1.020053e-005 -3.4890886e-006
4.3550626e-006 0.00017830198 1.2369543e-005 7.2649673e-006 0.99999249 -0.0024407613
14125.375446228 0.99697441 -0.0086697936 1.1798392e-006 7.128794e-007 5.470386e-006 0.00017623417
-6.2455192e-006 3.0153055e-006 0.16838709 -0.97798884 -1.3078893e-005 -3.6574338e-006
4.5145771e-006 0.00015661264 -9.2031878e-006 8.9523965e-006 0.99982625 -0.0024075983
14962.356560944 0.99695158 -0.0089866752 8.5841048e-006 -6.9711832e-006 4.1085377e-006 0.0001760561
2.1943006e-005 9.554341e-006 0.1127902 -0.98644298 1.8591576e-005 -8.2561264e-006
1.2093562e-006 0.00019096685 1.492583e-005 1.4539474e-005 1.0000902 -0.0026294533
15848.931924611 0.99711978 -0.0097105065 1.0765898e-005 7.5375433e-006 6.2838672e-006 0.00019116943
-1.5929239e-005 5.6008371e-006 0.056101009 -0.99060684 8.901824e-006 7.6969573e-006
1.5324994e-006 0.00018856439 1.8041603e-005 2.1960211e-006 1.000158 -0.0025212767
16788.040181226 0.99685794 -0.0101478 7.7113045e-006 1.8743234e-005 6.1319975e-006 0.00020825161
7.1489708e-006 -9.8931832e-006 -0.00051898044 -0.99201095 -4.2866404e-006 6.7457886e-006
-2.3909256e-006 0.00020658557 -1.7731467e-005 4.1769035e-006 1.0000131 -0.0026179587
17782.794100389 0.99707568 -0.010726602 2.9474627e-006 4.3507566e-006 -1.4219592e-005 0.00021210923
7.7366012e-006 1.9303111e-006 -0.057291381 -0.99001431 -1.4522526e-005 -4.5124229e-006
2.1745047e-006 0.00025061125 6.1074943e-006 -2.9805733e-005 0.99994415 -0.0028706423
18836.490894898 0.99711758 -0.011219236 1.8385919e-007 -2.5386062e-005 -2.8271581e-006 0.00023197124
-5.5419042e-007 -2.7129072e-006 -0.11376889 -0.98522019 1.748334e-005 7.2213802e-006
2.8696791e-006 0.00022530985 -1.8234225e-005 4.0098007e-006 0.99979955 -0.0028535344
19952.623149689 0.99687922 -0.011996386 -7.6605374e-006 3.7998612e-005 -5.5256978e-006 0.0002767992
1.4101352e-006 1.1554634e-005 -0.16921909 -0.97720635 3.5909522e-006 -2.3979014e-006
3.9814054e-006 0.00025547692 -2.126377e-006 -1.7114755e-005 0.99985456 -0.0029053448
21134.890398366 0.99708724 -0.012581079 -3.8775825e-006 -8.1467961e-006 -1.2311726e-006 0.00026215921
3.2156063e-006 1.2434794e-005 -0.22388163 -0.96604455 9.3921644e-006 2.2477414e-005
3.2165733e-006 0.00026800911 9.1603226e-007 -6.906595e-006 0.9998101 -0.0030862591
22387.211385683 0.99697047 -0.013314294 -9.1005866e-008 -3.1310203e-006 6.6984635e-006 0.00027463626
4.0958021e-006 -1.9339504e-006 -0.27696535 -0.9521293 2.6985531e-006 1.4334699e-005
2.8371987e-006 0.00028525674 -2.701436e-006 -8.1112921e-007 0.99990398 -0.0032470142
23713.737056617 0.99695915 -0.014216039 -1.7952852e-005 1.3998639e-006 3.0110867e-005 0.00030735889
-9.2658674e-006 7.6567221e-006 -0.32849482 -0.93541878 -6.9963107e-006 9.3617427e-006
2.5539966e-006 0.00029416417 2.2096803e-005 7.9434258e-006 0.99970329 -0.0031461623
25118.864315096 0.99707651 -0.015099794 1.4460972e-005 2.1140577e-005 3.0678872e-005 0.00033757888
-4.6857613e-006 -3.9186079e-006 -0.37803859 -0.91662681 2.0811518e-007 5.192077e-006
1.4071562e-006 0.00030352335 -1.4772483e-005 -4.090828e-006 0.99982882 -0.0034232801
26607.250597988 0.99693131 -0.015769307 -2.5804367e-005 -2.187373e-005 4.0846212e-006 0.00031781703
-1.712747e-005 6.4964597e-006 -0.4256115 -0.89560819 3.8529479e-006 -5.9053486e-006
2.5933834e-005 0.00032864275 -1.6836e-005 5.6914228e-006 0.99990219 -0.0036555007
28183.829312645 0.99690342 -0.016938467 -1.3136613e-005 1.5396517e-005 5.1951242e-006 0.00034169058
-8.3281702e-006 9.2107439e-006 -0.47097707 -0.87267166 -3.8220887e-006 -7.3370475e-006
1.336778e-005 0.00034562036 2.237942e-005 -3.5366279e-006 0.99985784 -0.0036852004
29853.82618918 0.99700046 -0.017935161 -8.7405097e-006 2.6055062e-005 -6.9220171e-008 0.00037942576
-4.283107e-006 5.4858988e-006 -0.51373863 -0.84824967 -8.6909549e-006 -8.0421887e-006
7.8847952e-006 0.00039789913 1.6061848e-006 -1.7602171e-007 0.99983102 -0.0035997927
31622.776601684 0.99689043 -0.018943543 7.9644933e-006 -2.0351295e-006 4.4362532e-006 0.00039824069
-1.4196507e-005 1.2534912e-005 -0.55393517 -0.82249981 -5.615409e-006 9.5648038e-006
1.4116591e-005 0.00039410754 3.5619207e-005 1.6568001e-005 0.99987352 -0.0040781694
33496.543915783 0.99698204 -0.019958055 2.4503547e-006 2.165218e-005 4.9143264e-006 0.00041738708
-1.1935885e-005 6.8197041e-006 -0.59191078 -0.79582614 2.3979004e-005 1.4075701e-005
2.1593305e-005 0.00042200266 -9.125376e-006 -2.1127556e-005 0.99985003 -0.0040752869
35481.338923358 0.99670815 -0.021130495 1.7811462e-006 -2.6586185e-005 1.1452567e-005 0.00044809561
-2.8336362e-006 3.5795472e-006 -0.62726581 -0.76813143 -5.9651488e-006 -1.5385195e-006
-1.6222491e-005 0.0004457843 -1.0704342e-005 1.4506769e-005 0.99966055 -0.0043372414
37583.740428844 0.99684674 -0.022464454 -2.0817281e-005 7.6118727e-006 -2.4190856e-006 0.00045105079
-7.5082476e-006 6.8850754e-006 -0.6602245 -0.74011797 -2.658393e-006 -5.9683834e-006
7.6534952e-006 0.00046872301 8.2634861e-006 -6.9956377e-006 0.99958992 -0.0045489753
39810.71705535 0.99668992 -0.023693465 1.4715254e-005 -2.5102814e-005 2.9918161e-007 0.00051527371
1.5635693e-006 1.0712663e-005 -0.69078779 -0.71194822 6.933089e-006 1.0926923e-005
1.32569e-005 0.00050761155 1.1185639e-005 4.304018e-007 0.99960554 -0.0047655324
42169.650342858 0.99663794 -0.025141649 -1.7826567e-005 2.2592709e-005 1.8448445e-005 0.00051181443
2.0604602e-006 6.9231228e-006 -0.71902579 -0.68370986 4.6707582e-006 1.1020255e-005
-5.1872271e-006 0.00051936635 -3.2062103e-006 -1.7418137e-006 0.99948609 -0.0049587279
44668.359215096 0.9967559 -0.026649594 -1.5861116e-005 1.1174748e-005 3.5772875e-006 0.00054137764
-7.2736912e-006 2.4937258e-006 -0.74501568 -0.65532154 -7.2713701e-006 1.5107934e-006
1.8356406e-005 0.00055174879 -1.9817508e-005 1.6407525e-005 0.9994325 -0.0052291653
47315.125896148 0.99676979 -0.028146399 7.8202165e-006 -5.0073772e-006 2.2226419e-005 0.00061441725
-6.1436981e-006 1.3247953e-005 -0.76891297 -0.62728125 -1.0229162e-005 -3.2265712e-006
1.9276316e-005 0.00060406525 -6.1787232e-006 -1.0905165e-005 0.99942851 -0.0054142959
50118.723362727 0.99657816 -0.029760275 -7.1551076e-006 -7.1754671e-006 9.7931825e-006 0.00062195852
4.6674759e-006 6.6920788e-006 -0.79076219 -0.59968168 1.0305082e-005 9.6058548e-006
3.0433992e-005 0.00063560647 -8.7658755e-006 -7.5749622e-006 0.99938279 -0.0057336581
53088.444423099 0.99657327 -0.031598687 -5.0527328e-006 1.049773e-006 2.2494722e-005 0.00064264383
-7.0133342e-006 1.4451985e-005 -0.81074983 -0.57265896 -8.0607879e-006 1.0206224e-005
3.9180261e-005 0.00065538887 -2.0153988e-005 -3.2069165e-005 0.99942714 -0.0060132681
56234.132519035 0.99646497 -0.033564921 -2.0585661e-005 4.5741385e-006 3.3941007e-005 0.00070741738
-4.7996629e-009 2.8532916e-006 -0.82882291 -0.54626775 -2.9295763e-006 9.1421853e-006
5.3616641e-006 0.00071921456 8.3079094e-006 3.8006701e-006 0.99946225 -0.0063343975
59566.214352901 0.9963814 -0.035541594 -2.015064e-006 -2.5380587e-006 4.0707902e-005 0.00075487426
-2.6786797e-006 1.4146432e-005 -0.84546292 -0.52053851 -1.5921885e-005 1.5182223e-005
1.0645196e-005 0.0007347241 -2.6271538e-005 1.6200627e-005 0.99931288 -0.0066319066
63095.734448019 0.99617046 -0.037519146 -1.3654978e-005 5.0182466e-006 2.0384161e-005 0.00080220302
-2.3084716e-007 1.4531856e-005 -0.86049962 -0.49549541 -1.0817047e-005 1.9054187e-005
3.3202115e-005 0.00078823627 9.9714161e-006 5.3177e-006 0.99929422 -0.007122336
66834.391756861 0.99612361 -0.039721463 -6.5493286e-006 1.3924316e-005 3.0608386e-005 0.00082892092
-8.6543114e-006 1.2584085e-005 -0.87403858 -0.47133043 9.13022e-006 9.3669378e-006
2.3334971e-005 0.000841651 -1.1340727e-005 2.0201428e-006 0.9993999 -0.0072587375
70794.578438414 0.99601305 -0.042015541 -3.8319045e-006 -7.4583741e-006 2.4156532e-005 0.00088043755
-1.1356343e-005 1.6076083e-005 -0.88631916 -0.4481214 5.7861998e-006 9.750398e-006
2.7834732e-005 0.00088953431 -2.7014878e-006 5.7290813e-006 0.99912435 -0.0077676713
74989.420933246 0.9959299 -0.044571366 -1.9071045e-005 1.23811e-005 3.5324734e-005 0.00091775198
-6.8981876e-006 1.3028093e-005 -0.89757437 -0.42560697 -6.8652434e-006 2.7395449e-006
4.642069e-005 0.00094891974 8.9058103e-006 -2.1441085e-005 0.99926841 -0.0080089541
79432.823472428 0.99576306 -0.047154658 -2.2631371e-005 4.2795878e-006 3.5297206e-005 0.0010014382
-1.0402664e-005 1.4426646e-005 -0.9075914 -0.40393227 -1.516815e-005 1.2049316e-005
3.4579083e-005 0.00098819402 1.5576807e-005 1.5140458e-005 0.99906605 -0.0083879726
84139.514164519 0.99570292 -0.049837045 9.6350923e-006 -1.1695188e-006 5.4658409e-005 0.0010314373
-2.8683312e-006 1.2957459e-005 -0.91658747 -0.38328192 4.5164034e-006 4.080784e-006
4.9284692e-005 0.0010477381 -5.1601992e-006 4.8337411e-006 0.99896961 -0.008823175
89125.093813375 0.99550653 -0.052886628 -9.0331769e-006 2.8524566e-005 5.8747162e-005 0.0011118272
1.5520486e-006 1.8830777e-005 -0.92481309 -0.3634243 -3.1220811e-006 4.327253e-006
3.760622e-005 0.0011169994 4.8768884e-006 5.4333645e-007 0.99902582 -0.0094004096
94406.087628592 0.99539632 -0.055913288 -9.3475974e-006 2.7201248e-005 5.8805592e-005 0.0011498975
-7.447581e-007 1.5307989e-005 -0.93216467 -0.34449625 4.9175251e-006 1.008507e-005
7.0361559e-005 0.0011840601 3.7849359e-006 1.8445102e-005 0.99913925 -0.0097757708
100000 0.99523944 -0.059065532 -1.8220746e-005 2.416079e-005 8.5704196e-005 0.0012590216
-7.7870045e-006 2.8003993e-005 -0.93878746 -0.32633355 -4.4501121e-006 8.0100772e-006
4.5667635e-005 0.0012500392 1.4941691e-006 1.4477408e-005 0.998923 -0.0102221
105925.37251773 0.99508083 -0.062813856 1.3064623e-005 -4.7305653e-006 4.4078839e-005 0.0013102404
-1.1810015e-006 2.104823e-005 -0.94471622 -0.30909687 -8.855377e-006 6.8920517e-006
6.7387744e-005 0.0013264687 -1.7461753e-005 5.1290212e-006 0.99895263 -0.010783238
112201.8454302 0.99474341 -0.066541314 -1.5802814e-005 3.9237821e-005 8.2848768e-005 0.0013776976
1.2012439e-006 2.1209247e-005 -0.95001882 -0.292602 -2.3109389e-005 1.59021e-005
7.5344564e-005 0.0013876697 -9.2241662e-006 1.6733502e-005 0.99907851 -0.011580649
118850.2227437 0.99456799 -0.07043121 -2.6704411e-005 1.885062e-005 8.9393274e-005 0.0014848928
-1.7084842e-005 3.1613148e-005 -0.95482808 -0.27693969 -7.7200144e-007 1.2432913e-005
8.5453605e-005 0.0014582344 -8.0361406e-006 1.4615326e-005 0.99900526 -0.012108071
125892.54117942 0.99436569 -0.074448228 2.4999714e-005 1.7845972e-005 0.00012701668 0.0015555434
-5.939638e-006 8.7687167e-006 -0.95917481 -0.26204929 5.8129808e-006 1.5448883e-005
8.1844169e-005 0.0015430391 -9.8493065e-006 2.7077701e-006 0.99909168 -0.012818048
133352.14321633 0.99390286 -0.07881286 5.4887687e-006 5.3460029e-005 0.00010396652 0.0016437065
-1.033685e-005 2.1621283e-005 -0.96298766 -0.24781804 -1.2476939e-005 2.3124661e-005
0.00012159516 0.0016686852 -9.0926551e-006 1.9097174e-006 0.9990871 -0.013502659
141253.75446228 0.9936766 -0.083636492 -7.43583e-006 1.948197e-005 0.00012036373 0.0017481378
-1.8791401e-005 2.6691856e-005 -0.96637511 -0.23434919 6.8235622e-006 8.2347733e-006
0.00011972457 0.001772432 -3.8043635e-007 4.9583014e-006 0.99907047 -0.014228098
149623.56560944 0.99313641 -0.088483326 -6.1509891e-006 3.8511709e-005 0.00014558893 0.0018403045
-1.7175811e-005 2.1357122e-005 -0.96952051 -0.22149222 1.1424379e-006 1.1513971e-005
0.00013396607 0.0018310247 2.2426997e-005 1.9531453e-005 0.99895233 -0.015226734
158489.31924611 0.99271756 -0.09381669 -1.3135254e-005 2.2982733e-005 0.00016706437 0.0019373195
-2.6719815e-006 3.1052434e-005 -0.97231281 -0.20933682 -6.9183784e-006 1.8712659e-005
0.00016353464 0.0019408128 -4.0573545e-006 6.2487475e-006 0.9989714 -0.016030518
167880.40181226 0.99199593 -0.099410497 -1.9502419e-005 3.0883824e-005 0.00015522241 0.0020541179
-1.0311234e-005 2.400108e-005 -0.97477388 -0.19775203 -1.7450996e-006 1.6546393e-005
0.0001601766 0.0020511032 -7.7594896e-006 -1.2432662e-005 0.99891347 -0.017041029
177827.94100389 0.99145371 -0.10509349 9.4334464e-006 5.1940297e-005 0.00021065357 0.0021908362
-1.4515535e-005 4.3918073e-005 -0.97636753 -0.18577428 5.0550125e-007 1.45475e-005
0.00019339961 0.0021872569 9.9310364e-006 3.6787886e-005 0.99881542 -0.01792741
188364.90894898 0.99061352 -0.11124749 -1.1963079e-005 3.7015077e-005 0.00020626855 0.0023179955
-1.1285993e-005 2.757975e-005 -0.97889072 -0.17695664 6.2815229e-006 2.6491904e-005
0.00020965215 0.0023199907 -8.10863e-006 3.496815e-005 0.99868584 -0.018962028
199526.23149689 0.98973727 -0.11774653 -1.8221608e-005 6.2007908e-005 0.00023998198 0.0024348155
-2.130537e-005 4.5238936e-005 -0.98068231 -0.1670236 -3.7707996e-006 9.834831e-006
0.00022809337 0.0024296918 -2.3348479e-005 1.1236222e-005 0.99859917 -0.020150281
211348.90398366 0.98898286 -0.12478004 -1.0023157e-005 4.7965528e-005 0.00025278106 0.0025905736
-1.3754852e-005 4.1082101e-005 -0.98233044 -0.15770201 -1.9878262e-006 2.8064467e-005
0.0002626174 0.0025898879 -7.6334554e-006 1.0042806e-005 0.99858308 -0.021192029
223872.11385683 0.98800796 -0.13202263 -8.3877194e-006 3.9094528e-005 0.0002898871 0.0027201844
-1.176893e-005 4.6815479e-005 -0.98382241 -0.14884758 -1.2016964e-005 2.9738812e-005
0.00029687563 0.0027453131 1.7244669e-007 1.2116684e-005 0.99849784 -0.022462448
237137.37056617 0.98700613 -0.13973647 -1.5487472e-005 2.5447998e-005 0.00032335464 0.0028908357
-1.705763e-005 4.1278781e-005 -0.98497516 -0.14052632 9.9082285e-007 1.9040895e-005
0.00031991862 0.0028812422 1.4929308e-005 4.1672763e-005 0.99839538 -0.023642978
251188.64315096 0.98583627 -0.14792949 -7.5399907e-006 4.3179101e-005 0.00038636386 0.0030483317
-2.5975138e-005 4.8857019e-005 -0.98617887 -0.13260362 -4.6479981e-006 1.7184258e-005
0.00038818063 0.0030528223 3.6225294e-006 1.8510322e-005 0.99837399 -0.025075134
266072.50597988 0.98443186 -0.15668921 -2.7688311e-005 5.2675136e-005 0.00039845126 0.0032233244
-1.7834696e-005 5.4937311e-005 -0.98715717 -0.12515368 -1.2779297e-005 3.1682604e-005
0.00041554618 0.0032282772 -1.5417416e-005 1.4710271e-005 0.99834478 -0.026533267
281838.29312645 0.98284197 -0.16608681 -5.1806663e-005 6.4525149e-005 0.00044376773 0.0034166544
-2.9617275e-005 4.0738341e-005 -0.9881047 -0.11808581 -9.0223602e-006 1.5784197e-005
0.00046592529 0.0033892854 1.3702551e-005 1.7032104e-005 0.99810541 -0.027908556
298538.2618918 0.98117816 -0.17558813 -1.4996353e-005 4.8613998e-005 0.00048928248 0.0035885957
-1.9012819e-005 5.6303703e-005 -0.98884177 -0.11126383 7.8901036e-007 2.3638238e-005
0.00050781021 0.003583662 -2.0145495e-005 9.9354129e-006 0.99794686 -0.029564504
316227.76601684 0.9793039 -0.18575849 -3.186617e-005 4.8470789e-005 0.00055048789 0.0037945358
-2.5580994e-005 7.075537e-005 -0.98952913 -0.10500538 -1.0287165e-005 2.8204609e-005
0.00056062284 0.0037856209 -1.5595771e-006 2.0455125e-005 0.99786872 -0.031088255
334965.43915783 0.97713542 -0.19649805 -4.255473e-005 7.8891659e-005 0.00061146822 0.003986821
-2.6031288e-005 6.736318e-005 -0.99033499 -0.09914773 -9.8293922e-006 4.1333718e-005
0.0006017565 0.0039941543 -2.2151387e-005 1.7766037e-005 0.99769008 -0.032956176
354813.38923358 0.97484857 -0.20787311 -3.0933385e-005 7.1027629e-005 0.00065541058 0.0042131827
-3.8674545e-005 6.6613851e-005 -0.99091363 -0.093350194 -1.4026285e-005 2.9964411e-005
0.00066488812 0.0042244289 1.3392681e-005 -1.0676165e-006 0.99759054 -0.034901492
375837.40428844 0.97206366 -0.21985164 -4.6596604e-005 7.1440132e-005 0.00076067715 0.0044542784
-3.3217824e-005 6.9662601e-005 -0.99133354 -0.087886907 -1.0002424e-005 3.8188442e-005
0.00073075911 0.0044580479 1.783906e-005 1.7411197e-005 0.99755871 -0.03679077
398107.1705535 0.96903431 -0.23264882 -4.9401777e-005 8.1430735e-005 0.00082332554 0.0046973312
-5.0088751e-005 7.8936762e-005 -0.99185801 -0.082655877 -7.255042e-006 2.023774e-005
0.00081656035 0.0047058938 -1.7003889e-005 2.2034721e-005 0.99726325 -0.039064381
421696.50342858 0.96570057 -0.24595231 -5.4281769e-005 9.865193e-005 0.00089533284 0.0049519986
-5.1881263e-005 9.3765404e-005 -0.99202818 -0.077450477 -6.3332322e-007 3.7937843e-005
0.00089922833 0.0049516247 -4.3807349e-006 5.9960017e-005 0.99725336 -0.041200429
446683.59215096 0.96196353 -0.26004428 -4.34221e-005 7.8871832e-005 0.0010264383 0.0052309753
-4.8908336e-005 0.00010284863 -0.99212599 -0.073768176 1.0102551e-005 3.625032e-005
0.0010129467 0.0052307863 1.6433007e-005 4.3566473e-005 0.99682444 -0.043410301
473151.25896148 0.95768565 -0.27467701 -6.6170469e-005 0.00010213449 0.0011394658 0.005506956
-5.2295087e-005 8.7221262e-005 -0.99280053 -0.069469646 -3.9964207e-006 4.4317774e-005
0.0010930242 0.0055052149 -8.4441863e-006 5.4697684e-005 0.99667645 -0.045952983
501187.23362727 0.95299625 -0.29032826 -5.4855831e-005 7.9422236e-005 0.0012208569 0.005812123
-7.1730887e-005 0.00010608753 -0.99319494 -0.065266974 -1.0501465e-005 5.0687322e-005
0.0012297364 0.0058119507 -3.7414866e-005 4.7077137e-005 0.9965418 -0.048519515
530884.44423099 0.94771129 -0.30668426 -8.3833766e-005 9.9450313e-005 0.001354857 0.0061062532
-6.8422465e-005 0.00011821446 -0.99348843 -0.061274033 -3.1134973e-006 4.2434938e-005
0.0013634849 0.0061195134 -1.2866049e-005 4.9533122e-005 0.99639606 -0.051221345
562341.32519035 0.94197851 -0.3237552 -9.3987583e-005 0.00013941944 0.0014727154 0.0064105284
-7.5229538e-005 0.00011716865 -0.99382776 -0.057560612 -8.8418001e-006 4.8792106e-005
0.0015183535 0.0064447764 -3.0860618e-005 3.5288933e-005 0.9959985 -0.05417867
595662.14352901 0.93558425 -0.34178886 -9.3544426e-005 0.00013321378 0.0016638385 0.0067688976
-8.4713269e-005 0.00013440243 -0.99405873 -0.053970363 -8.3207842e-006 5.2347477e-005
0.0016669651 0.0067958059 -1.2028775e-005 6.488162e-005 0.99573648 -0.057314634
630957.34448019 0.92852277 -0.36066127 -9.4029296e-005 0.00014549767 0.0017919934 0.0071033332
-8.5185915e-005 0.00014111366 -0.99419087 -0.05060992 -1.0218751e-005 5.8987698e-005
0.001828082 0.0071243271 -2.5190629e-005 4.6974961e-005 0.99551767 -0.060617693
668343.91756861 0.92048961 -0.3804822 -0.00010810516 0.00016303379 0.0020009249 0.007481182
