!Keysight Technologies,E5080A,MY55100144,A.11.70.03
!Date: Monday, November 13, 2017 17:25:02
!Correction: S11(Full 3 Port(1,2,3)) 
!S12(Full 3 Port(1,2,3)) 
!S13(Full 3 Port(1,2,3)) 
!S21(Full 3 Port(1,2,3)) 
!S22(Full 3 Port(1,2,3)) 
!S23(Full 3 Port(1,2,3)) 
!S31(Full 3 Port(1,2,3)) 
!S32(Full 3 Port(1,2,3)) 
!S33(Full 3 Port(1,2,3)) 
!S3P File: Measurements: <S11,S12,S13>,
!<S21,S22,S23>,
!<S31,S32,S33>:Log Frequency Sweep
# Hz S  RI   R 50
10000 0.99670374 -0.0058293794 -7.7984232e-006 2.8432603e-006 1.5752433e-006 0.00012434478
-1.0361171e-006 -1.6255573e-005 0.47083658 -0.87571639 -4.5190141e-006 1.1218655e-006
-1.4236825e-006 0.00012489811 -4.2831468e-007 -5.9727754e-006 0.9999513 -0.0024741606
10592.537251773 0.99685109 -0.0064619044 1.321137e-005 9.8825767e-006 -9.2420914e-006 0.00012307829
-1.0466951e-005 -3.2085438e-006 0.42582133 -0.89828211 -9.5859014e-006 -6.9709331e-006
6.9262546e-006 0.00013399219 -4.0028723e-007 -2.5837385e-006 0.99967712 -0.0024352171
11220.18454302 0.99694389 -0.0067841448 -1.7989779e-006 2.2052651e-005 -9.8466162e-006 0.00011777492
-9.632251e-006 -2.8085526e-006 0.37750292 -0.91900212 -7.9761105e-007 -5.1868369e-007
-1.697488e-005 0.0001367661 2.4178291e-006 1.1128607e-005 0.99997979 -0.0024695727
11885.02227437 0.99686992 -0.0070815082 7.9209294e-006 -5.3902631e-006 -3.302576e-006 0.00015114837
-2.569971e-006 1.7182236e-005 0.32793859 -0.93769544 5.7766861e-006 -2.1102962e-005
-2.2989514e-006 0.00016792012 -1.5768619e-005 1.6515124e-006 1.0001125 -0.002290335
12589.254117942 0.99694407 -0.007452847 1.9990066e-005 1.4661528e-005 1.7842543e-006 0.00015172684
1.4924509e-005 2.0138841e-006 0.27627954 -0.95391792 1.2188827e-005 -9.1437823e-006
1.9153451e-005 0.00017740563 9.9835197e-006 -6.3671014e-006 1.000054 -0.0024619133
13335.214321633 0.99702919 -0.0079192072 5.9761737e-006 -2.16532e-006 2.4614967e-005 0.00016884755
1.622277e-005 -6.3759021e-006 0.22311541 -0.96780199 -7.745346e-006 2.8745992e-005
-1.3108556e-005 0.00015655716 -8.599156e-006 -1.8477374e-005 0.99987131 -0.002482234
14125.375446228 0.99687696 -0.0083787926 -1.875648e-005 7.5247508e-006 2.0511104e-006 0.00018824988
2.544605e-006 8.9762134e-006 0.16836034 -0.97825158 2.4283654e-006 -5.818817e-006
3.4593763e-006 0.00017880074 2.5315408e-005 -1.4018126e-005 0.99992871 -0.0024400211
14962.356560944 0.99701184 -0.0087088961 -4.6992852e-008 -9.1618504e-006 -1.1947627e-006 0.00018512421
-2.3785733e-006 -6.3445623e-006 0.11278284 -0.98658961 -4.1409676e-006 -2.4341739e-006
3.4445891e-006 0.00017224287 -6.8316473e-007 -2.6563298e-006 1.000136 -0.0026499711
15848.931924611 0.99702001 -0.0094867544 1.233783e-005 -2.965698e-005 1.1893752e-005 0.0001985206
9.6816393e-006 -5.8148512e-006 0.056020025 -0.99094272 -6.5444738e-006 1.1003728e-005
-2.338139e-006 0.00019008819 3.7708372e-007 -4.6584967e-007 1.0001813 -0.0024856143
16788.040181226 0.99696547 -0.0099399295 2.536486e-005 2.2901097e-005 2.4981206e-005 0.00022060086
9.4057568e-006 -6.7891197e-006 -0.00057747716 -0.99229288 1.1946769e-005 9.1849415e-006
1.2794804e-005 0.00022921074 -9.1093921e-007 -1.242658e-005 0.99997962 -0.0027910233
17782.794100389 0.99704033 -0.010438625 5.2725486e-006 3.2613964e-006 1.3025821e-006 0.00021605031
8.4828525e-006 -1.3254619e-005 -0.057428289 -0.99041474 4.4717935e-006 -1.1873531e-005
5.6187419e-006 0.00021436122 1.1999997e-005 1.204947e-005 0.99991709 -0.002876662
18836.490894898 0.99692827 -0.010981596 1.9819424e-006 9.3610952e-006 -6.8776779e-007 0.00021515589
-7.4323843e-006 1.0467606e-005 -0.11387965 -0.9855082 -4.9236628e-006 3.7818854e-008
8.2596653e-006 0.00023239931 1.5140153e-005 -1.0595349e-005 0.99992299 -0.0028463185
19952.623149689 0.99686497 -0.011685284 2.1614435e-006 1.2980758e-005 -8.6192841e-007 0.00024509578
3.9111715e-006 -7.1004461e-006 -0.16940105 -0.97760803 -6.8026811e-006 7.9051606e-006
1.0622514e-005 0.00024621323 -8.3076266e-006 2.2152647e-006 0.99993658 -0.0029008866
21134.890398366 0.99696058 -0.01251609 -5.5248383e-006 -7.1445484e-006 3.4171981e-006 0.00026718536
-7.9529855e-006 -5.5767596e-006 -0.22399858 -0.96651232 -2.8213647e-006 -2.6340296e-005
7.4333425e-006 0.00026318518 1.9584406e-005 -1.0844495e-005 0.99982494 -0.002999539
22387.211385683 0.9969272 -0.013179597 8.8187535e-006 -1.9417585e-006 2.2038762e-006 0.00028165558
6.0052554e-007 7.1255986e-006 -0.27711865 -0.95248383 6.7503356e-006 2.0571358e-006
2.2650174e-005 0.00028982197 -7.045609e-006 -1.802215e-005 0.99981993 -0.0031153844
23713.737056617 0.9970417 -0.014090614 -2.6372834e-005 -6.1456635e-006 4.1972321e-006 0.00029635648
-7.9492211e-006 -1.1276094e-005 -0.32882857 -0.93578851 -7.1634681e-006 -5.2752301e-007
-1.0716096e-005 0.00028585634 4.6153114e-006 -1.8412131e-005 0.99971962 -0.00308744
25118.864315096 0.99683732 -0.014755638 -1.2727472e-005 -1.9923462e-005 7.9342853e-006 0.00030293685
-2.3618832e-006 2.1627673e-005 -0.37822393 -0.91706479 3.0243732e-006 3.6784529e-006
2.0545136e-005 0.00031305681 2.4306833e-006 5.0529261e-006 0.99988467 -0.0033588314
26607.250597988 0.99696308 -0.015540414 -4.0559235e-007 2.8290819e-005 1.2315882e-005 0.00033435566
-2.730995e-006 -5.5303394e-006 -0.42589164 -0.8961283 -3.3997837e-006 4.5465777e-006
1.2060975e-005 0.00033087493 -1.5670812e-005 2.1961162e-007 0.9999997 -0.0036073611
28183.829312645 0.99696833 -0.016652301 -1.0888559e-005 -2.4055619e-006 6.1205114e-006 0.00033680641
-7.1257482e-006 4.6845898e-006 -0.47129059 -0.87314147 -8.6221853e-006 2.2045087e-006
-1.9355898e-006 0.00035300653 -6.0360658e-006 -2.5833031e-006 0.99972761 -0.0036529063
29853.82618918 0.99690938 -0.017610518 2.0255654e-006 7.3464203e-006 1.6487042e-005 0.00034908703
-4.211659e-006 8.5846359e-006 -0.51406151 -0.84869915 -1.7144226e-006 4.2773636e-006
1.8366942e-005 0.00037157838 -1.4977839e-005 -7.5704179e-006 0.99982613 -0.0036689222
31622.776601684 0.99681824 -0.018690687 1.0899869e-006 -4.9367791e-006 3.2774282e-005 0.00039951809
2.3260627e-006 3.7440366e-006 -0.5542863 -0.82296282 6.0801453e-006 1.0927992e-005
9.2838964e-006 0.00039046005 6.0981133e-006 -1.4426962e-005 0.99973387 -0.0040733097
33496.543915783 0.99692744 -0.019580644 2.121792e-006 1.1650623e-005 1.2605871e-005 0.0004222407
2.7492374e-007 8.644718e-006 -0.5922761 -0.79607022 2.5977022e-006 1.185696e-005
2.5001258e-005 0.00042520589 -7.1516893e-006 -9.1788579e-006 0.99979848 -0.0043599424
35481.338923358 0.99666393 -0.02082907 4.974876e-006 1.2770247e-005 2.3151886e-005 0.00044556518
-6.4705596e-006 8.3538507e-006 -0.62770408 -0.76851946 -1.2580624e-005 6.585467e-006
1.4809109e-005 0.00044103639 -9.192695e-006 2.8323311e-006 0.99972248 -0.00428573
37583.740428844 0.9967168 -0.022069953 -1.8160214e-005 7.5676785e-006 1.035109e-005 0.00045275144
-3.0549973e-006 2.4992464e-006 -0.6606617 -0.74054378 5.9316831e-006 1.109091e-005
8.4319036e-006 0.00046710536 3.4451859e-006 -9.5337382e-006 0.99973887 -0.0045421901
39810.71705535 0.99674511 -0.023328964 7.8893263e-006 1.5846172e-005 2.5184609e-006 0.00048055148
-5.5549158e-006 1.3354093e-005 -0.69129092 -0.7123211 1.7569525e-006 6.3551861e-006
-4.4193757e-006 0.00048262588 4.6938043e-005 -1.5022138e-005 0.99967933 -0.0046719392
42169.650342858 0.99660683 -0.02471659 -2.3406417e-005 2.3185597e-005 1.4735857e-005 0.00053027016
-8.6295495e-006 8.5707861e-006 -0.71952748 -0.68399012 -4.5455172e-007 -2.5795002e-008
1.4875526e-007 0.00052925636 3.7724388e-007 -2.0914947e-006 0.9995048 -0.0050040022
44668.359215096 0.99675792 -0.026175171 -1.869388e-005 1.2555215e-005 2.4464542e-005 0.00054700923
-7.1304466e-006 -2.5550455e-006 -0.74547005 -0.6556232 8.6719674e-006 2.215306e-006
1.2966113e-005 0.00054645911 -7.7495433e-006 7.2728581e-006 0.99933463 -0.0051459922
47315.125896148 0.99669176 -0.027645361 6.7077696e-007 7.0565434e-006 1.174773e-005 0.00058899057
5.1516095e-006 5.9102564e-007 -0.76945871 -0.62770176 8.1568178e-006 -4.6619252e-006
1.7961231e-005 0.00057959429 -2.2553272e-006 -6.9492139e-006 0.99962443 -0.0054182275
50118.723362727 0.99653614 -0.029457981 7.1134139e-007 -1.2635212e-005 2.4773784e-005 0.0006338032
-8.5708161e-006 1.1138123e-006 -0.79125285 -0.60001165 -1.5245072e-007 4.1557464e-006
9.9719264e-006 0.00063517597 -7.0757083e-006 -5.5449118e-006 0.99955952 -0.0056413114
53088.444423099 0.99657923 -0.031130301 1.1962653e-005 1.8184443e-005 2.3418628e-005 0.00066672446
4.3983032e-006 8.1341159e-006 -0.8114354 -0.57302743 -7.4366799e-006 1.5320053e-006
2.7968323e-005 0.00066186697 -6.6224002e-006 -2.8308027e-006 0.99950403 -0.0060613998
56234.132519035 0.996355 -0.033044014 3.2115931e-005 1.2526455e-005 2.0060941e-005 0.00068738341
-9.7357497e-006 7.5099715e-006 -0.82948768 -0.54657018 1.6007764e-006 7.4376617e-006
1.8207036e-005 0.00068858394 -6.0397469e-006 1.0839548e-005 0.99947703 -0.0063446527
59566.214352901 0.99636459 -0.034857932 1.9337176e-005 2.6197791e-005 3.1497868e-005 0.00073587033
5.0034623e-007 6.4466772e-006 -0.84608835 -0.5208317 5.4059956e-006 9.1832826e-006
1.7209748e-005 0.00075450586 -8.3500763e-006 -2.4860683e-005 0.99929172 -0.0065769698
63095.734448019 0.9961859 -0.036950585 -8.1464759e-006 -7.3422475e-006 3.1707607e-006 0.00077248149
-3.317175e-006 -3.3037124e-006 -0.86107576 -0.49580175 -6.0360812e-006 1.2274018e-005
2.3869592e-005 0.00075476978 -1.4989935e-005 -2.1390195e-005 0.99950618 -0.0069605997
66834.391756861 0.99602532 -0.039079074 1.7330238e-005 3.2976891e-006 4.4248463e-005 0.00081877265
-7.4248373e-007 5.7144221e-006 -0.87467718 -0.47158459 2.8618765e-006 1.4926409e-005
1.4873685e-005 0.00083046849 1.9569416e-005 9.9163731e-007 0.99937308 -0.0074126325
70794.578438414 0.99608177 -0.041517522 1.5863505e-005 -9.6449194e-006 4.2588854e-005 0.00086059165
9.3224098e-006 1.2736577e-005 -0.88699961 -0.44847116 3.9251186e-006 3.004905e-006
4.2186537e-005 0.00088261365 -1.5653133e-005 3.3212159e-006 0.99912649 -0.0077579543
74989.420933246 0.99588275 -0.043874748 -2.0462001e-006 2.0454168e-005 3.5322257e-005 0.00092751015
-8.4136389e-007 6.4712731e-006 -0.8982178 -0.42587832 1.2842982e-006 1.9806184e-005
3.1639483e-005 0.00092995277 -1.2552287e-005 -1.3782659e-005 0.99931389 -0.0081143407
79432.823472428 0.99578959 -0.046365332 8.2724009e-006 5.8486762e-006 4.6916524e-005 0.00095883751
-8.9865625e-006 8.2660354e-006 -0.90825886 -0.40412486 -2.0109608e-006 1.7780458e-005
4.6044061e-005 0.00097939698 1.2042045e-005 -4.8905617e-006 0.99912226 -0.008469075
84139.514164519 0.99568194 -0.049081892 -6.2459048e-006 -7.8564899e-006 4.3650332e-005 0.0010326316
-5.1137368e-007 8.2547349e-006 -0.91727656 -0.38351303 -6.630537e-006 1.2468635e-005
5.1177722e-005 0.001025534 1.1955949e-005 1.7492364e-005 0.99898142 -0.0087566441
89125.093813375 0.99558842 -0.051964458 -2.1271902e-005 7.9500405e-006 5.8750884e-005 0.0010912962
-1.6188189e-005 9.9184927e-006 -0.92549348 -0.3635959 -4.8877282e-006 6.5175063e-006
5.0133309e-005 0.0011061421 -2.4151528e-005 2.6434887e-005 0.99903476 -0.0093275355
94406.087628592 0.99543488 -0.055177648 -2.8542424e-006 1.6426493e-005 7.1337876e-005 0.0011682148
3.4460531e-006 5.1500847e-006 -0.93286026 -0.34469479 -3.397256e-006 -6.5863804e-007
5.1898201e-005 0.001157988 -8.7063272e-006 1.2979463e-006 0.99915195 -0.0097164214
100000 0.99525189 -0.0583863 -1.3359751e-005 -4.861916e-007 4.5974357e-005 0.0012230712
-9.8746068e-006 9.8258888e-006 -0.93939179 -0.32647857 -2.6258138e-009 -9.7246302e-006
5.7634476e-005 0.001238266 1.6156553e-006 -3.0316358e-005 0.99886465 -0.01031393
105925.37251773 0.99516845 -0.061742235 1.3591218e-006 1.6759059e-005 7.8081364e-005 0.0012965164
1.2118269e-006 5.9604586e-006 -0.94539267 -0.30922318 -6.7272663e-006 7.3257443e-006
6.9149464e-005 0.0013017057 -4.8622996e-006 2.8500761e-005 0.99903303 -0.01096606
112201.8454302 0.99495852 -0.065443479 2.2346721e-006 1.9428433e-005 9.419876e-005 0.0013450885
-1.5095694e-005 6.6654857e-006 -0.95075548 -0.29277918 7.634083e-006 7.5407183e-006
7.8807003e-005 0.0013885457 -1.8839961e-005 -8.6591936e-006 0.99910229 -0.011608802
118850.2227437 0.99450982 -0.069231771 -1.6754073e-005 -1.4300246e-006 8.8897483e-005 0.001454247
-3.0296162e-006 1.0650108e-005 -0.95553213 -0.27711669 2.685166e-006 1.0176842e-005
8.4702711e-005 0.0014552283 2.3199049e-005 2.0229279e-005 0.9990527 -0.012139287
125892.54117942 0.99440348 -0.073265016 9.5148562e-006 7.6935012e-006 0.00010048042 0.0015566811
-9.3439348e-006 9.8235387e-006 -0.95981717 -0.26222068 -4.6249188e-006 8.7124481e-006
9.0373978e-005 0.0015558217 2.9841299e-006 4.4276981e-006 0.99912107 -0.012700053
133352.14321633 0.99394202 -0.07773798 -1.4949833e-005 2.5937534e-005 0.00010776809 0.0016311482
-1.698541e-005 1.646443e-005 -0.9636845 -0.24792026 -5.4777627e-007 9.7003726e-007
0.00011202032 0.0016169873 -4.6339783e-006 -1.9964571e-005 0.9990117 -0.013352306
141253.75446228 0.99362385 -0.082300797 -1.7594582e-005 3.0687948e-005 0.00010543546 0.0017453671
-8.9142686e-006 -2.4238227e-006 -0.96704811 -0.23449866 1.6418952e-006 1.6808377e-005
9.9432516e-005 0.0017476161 1.1022335e-005 5.9951117e-006 0.99913621 -0.014339658
149623.56560944 0.99313164 -0.087217681 -8.7960871e-006 1.8253271e-005 0.00011710983 0.0018319484
1.6763356e-006 9.6782987e-006 -0.97022194 -0.22169876 3.6193894e-006 9.6542426e-006
0.00012983214 0.0018267998 -1.7229453e-005 -2.8801517e-007 0.99882734 -0.015180484
158489.31924611 0.99288338 -0.092270173 -2.7452084e-005 2.3616505e-005 0.00014533254 0.0019298119
-1.4444632e-005 1.9518926e-005 -0.97300488 -0.20943797 -9.0746635e-006 2.0318923e-005
0.00014184634 0.0019263487 -4.95124e-006 2.6846708e-005 0.99887019 -0.016007362
167880.40181226 0.99226034 -0.097692087 7.2989556e-006 4.0645322e-005 0.00018904482 0.0020400088
-8.7470862e-006 8.8455035e-006 -0.97546303 -0.19787778 -1.16023e-005 2.3133811e-005
0.00016391501 0.0020606183 7.5405096e-006 -1.0964067e-006 0.9989242 -0.016986275
177827.94100389 0.99159551 -0.10341616 -6.0026796e-006 2.3323591e-005 0.00018999602 0.0021667257
-2.4227986e-005 1.9100557e-005 -0.97710711 -0.18587814 -1.5648689e-005 1.4345937e-005
0.00019123062 0.0021656102 -5.6232143e-006 -9.3330154e-006 0.99876684 -0.017932992
188364.90894898 0.99075615 -0.10955963 -1.7791757e-005 2.5383049e-005 0.00021222584 0.0022856474
-1.6788737e-005 2.3875904e-005 -0.9794755 -0.17704095 3.3802523e-006 1.3685949e-005
0.00020629121 0.0023140756 -1.2511883e-005 -2.1132889e-006 0.99879014 -0.018884055
199526.23149689 0.99007517 -0.11594074 -7.3609863e-006 3.4066226e-005 0.00023780929 0.0024125406
-1.0077579e-005 9.5796922e-006 -0.98137373 -0.16714017 8.6337486e-006 7.6431506e-006
0.00023892663 0.0024048542 -2.597897e-005 9.8124028e-006 0.99863076 -0.020183919
211348.90398366 0.98922563 -0.12280118 -1.4686861e-005 9.9379658e-006 0.00024088944 0.0025744622
-2.1042188e-005 1.266305e-005 -0.98303026 -0.15782988 -2.6277953e-006 6.1556666e-006
0.00024778346 0.0025680824 3.8477774e-006 8.0259206e-006 0.99839598 -0.021306727
223872.11385683 0.98839706 -0.12997963 -1.4663679e-005 2.9743154e-005 0.00030509665 0.0026965947
-2.4530058e-005 2.7148793e-005 -0.98443937 -0.14891718 -9.288925e-006 1.9939358e-005
0.00029311335 0.0027074979 -1.8455838e-005 1.4651522e-005 0.99839878 -0.02238008
237137.37056617 0.98717743 -0.13766368 -3.8518687e-005 1.6250875e-005 0.00032148161 0.0028549056
-1.2734096e-005 2.9919889e-005 -0.98573714 -0.14062381 -6.9279263e-006 1.5361406e-005
0.00031809695 0.0028515011 -1.6307711e-005 5.2171232e-005 0.99855387 -0.023665266
251188.64315096 0.98623776 -0.1457357 -1.9750927e-005 3.6643345e-005 0.00037097165 0.0030318832
-1.2688424e-005 2.4564679e-005 -0.98686016 -0.13269518 3.9184361e-006 1.7138258e-005
0.0003562872 0.0030098055 4.1905896e-006 2.8291806e-005 0.99855053 -0.025067559
266072.50597988 0.98471951 -0.15416667 -2.4788595e-005 2.8653583e-005 0.00038652078 0.0031881707
-2.3151619e-005 2.4912861e-005 -0.98790866 -0.12523884 1.3187411e-006 2.3944944e-005
0.00039796566 0.0032086195 -1.1709268e-005 1.5541829e-005 0.99826825 -0.026510632
281838.29312645 0.98319626 -0.16346541 -1.3079883e-005 4.8579259e-005 0.000442533 0.0033708452
-2.5833429e-005 3.890496e-005 -0.988792 -0.11811826 -8.4610128e-006 1.2513248e-005
0.00045977358 0.0033710869 -1.2105101e-005 1.0137246e-005 0.99827057 -0.027877133
298538.2618918 0.98154014 -0.1728546 -3.4416527e-005 4.7834812e-005 0.00048525981 0.0035720733
-2.4057512e-005 3.4290777e-005 -0.98960763 -0.11135395 -9.3944709e-006 4.907959e-006
0.00048628036 0.0035647813 -2.1804501e-005 2.6490066e-005 0.99806404 -0.029500216
316227.76601684 0.97971952 -0.18282528 -3.0991498e-005 4.3805911e-005 0.00055276137 0.0037744257
-3.2138283e-005 2.3499153e-005 -0.99030578 -0.10506108 -7.5604266e-006 1.9415142e-005
0.00056337437 0.0037642235 -4.0340756e-006 3.3033542e-005 0.99781334 -0.031341143
334965.43915783 0.9774859 -0.19345677 -2.6323498e-005 5.446274e-005 0.00061866042 0.0039819484
-3.6545516e-005 4.8616475e-005 -0.99105072 -0.099215224 -3.6601882e-006 3.1857217e-005
0.00058807904 0.003962046 -1.3392804e-006 2.6323023e-005 0.99773091 -0.032979038
354813.38923358 0.97523141 -0.20460315 -2.2117207e-005 4.2949305e-005 0.00066573248 0.004161702
-3.2806161e-005 3.6138299e-005 -0.9915998 -0.09339264 -5.4792044e-006 1.5955307e-005
0.00065615372 0.0041934359 -1.8091972e-005 3.1063533e-005 0.99766243 -0.034925275
375837.40428844 0.9727124 -0.21645112 -2.1048863e-005 2.7015732e-005 0.0007367871 0.0043951911
-3.8261209e-005 4.1358766e-005 -0.99200255 -0.087883264 -1.3497307e-005 2.5370911e-005
0.00072470092 0.0044292267 -1.4364557e-005 1.4802926e-005 0.99763286 -0.0368049
398107.1705535 0.96982545 -0.22903369 -4.3780223e-005 6.0438564e-005 0.00080788403 0.0046536359
-4.5016775e-005 4.2261865e-005 -0.99259388 -0.082634673 -8.6456002e-006 3.1459087e-005
0.00078642817 0.0046704933 -5.4374013e-006 1.4524027e-005 0.99723256 -0.038898893
421696.50342858 0.9666627 -0.2421286 -6.5370688e-005 4.6745587e-005 0.00087708805 0.004918633
-5.1682749e-005 5.6856577e-005 -0.99275005 -0.07747443 -1.6046386e-005 4.1694053e-005
0.00089679635 0.0049120514 -3.2118485e-005 2.6925311e-005 0.99706566 -0.041243702
446683.59215096 0.96309185 -0.25605518 -4.9234688e-005 6.9118563e-005 0.00099169766 0.0051921057
-5.6618021e-005 5.8731021e-005 -0.99281311 -0.073776864 8.7964099e-006 1.8751014e-005
0.0009866542 0.0051721074 2.0187636e-005 3.8458107e-005 0.99676931 -0.043336757
473151.25896148 0.95894986 -0.27035666 -5.4877994e-005 6.7902103e-005 0.0010847722 0.0054547298
-5.680223e-005 5.4008709e-005 -0.9935317 -0.069575585 -1.1602247e-005 3.4908488e-005
0.0010813348 0.005480018 -1.2673962e-005 1.4853354e-005 0.99675393 -0.045878146
501187.23362727 0.95417666 -0.28590912 -7.0285329e-005 7.0728805e-005 0.001210581 0.0057627144
-6.7411085e-005 4.2878371e-005 -0.99394208 -0.06535615 -1.6044482e-005 4.4229895e-005
0.0012012656 0.005743714 5.8582236e-006 1.5475653e-005 0.99658865 -0.04838204
530884.44423099 0.94916111 -0.30198857 -7.6114564e-005 5.479277e-005 0.001340523 0.0060684402
-8.0863014e-005 6.5484579e-005 -0.99423194 -0.061311793 -9.8209757e-006 4.115063e-005
0.0013281089 0.0060662213 -2.4108253e-005 2.9598195e-005 0.99647534 -0.05137179
562341.32519035 0.94349396 -0.31904304 -6.6896151e-005 7.4932017e-005 0.0014623309 0.0063879243
-7.5408076e-005 8.3691128e-005 -0.99460828 -0.057583325 -1.8005538e-005 4.4827553e-005
0.0014757359 0.0064014513 -2.4928731e-006 3.1725896e-005 0.99605691 -0.054262783
595662.14352901 0.93747509 -0.33643842 -0.00010566501 7.2292496e-005 0.0016348392 0.0067243977
-8.4138766e-005 7.7136705e-005 -0.9947868 -0.054015823 -1.7400038e-005 4.6939007e-005
0.0016155266 0.0067111468 -5.6963781e-006 3.1938627e-005 0.99600822 -0.057362344
630957.34448019 0.93054032 -0.35532957 -0.00010393439 9.5129231e-005 0.001785294 0.0070819906
-0.0001098448 8.7866079e-005 -0.99489659 -0.050640509 -7.0540574e-007 4.3241882e-005
0.0018103122 0.0070820521 -6.7808837e-006 4.8076108e-005 0.99559057 -0.060595267
668343.91756861 0.92258936 -0.3747552 -0.00012556747 8.8453671e-005 0.00197846 0.0074625751
