!Keysight Technologies,E5080A,MY55100144,A.11.70.03
!Date: Monday, November 13, 2017 17:23:59
!Correction: S11(Full 3 Port(1,2,3)) 
!S12(Full 3 Port(1,2,3)) 
!S13(Full 3 Port(1,2,3)) 
!S21(Full 3 Port(1,2,3)) 
!S22(Full 3 Port(1,2,3)) 
!S23(Full 3 Port(1,2,3)) 
!S31(Full 3 Port(1,2,3)) 
!S32(Full 3 Port(1,2,3)) 
!S33(Full 3 Port(1,2,3)) 
!S3P File: Measurements: <S11,S12,S13>,
!<S21,S22,S23>,
!<S31,S32,S33>:Log Frequency Sweep
# Hz S  RI   R 50
10000 0.99688292 -0.0017066459 -1.5936172e-005 0.00042811726 7.9456495e-006 0.0001434711
-2.8378877e-006 0.00043322754 0.99876463 -0.0036545563 5.5478104e-006 0.00070414116
1.1382454e-005 0.00015577067 7.8049067e-007 0.00072816585 0.99988538 -0.002591772
10592.537251773 0.9970417 -0.0018987269 -1.4466239e-005 0.00045323299 1.272897e-005 0.00014696448
2.8572988e-005 0.00042668587 0.99865991 -0.0037773645 1.0990763e-005 0.00078412477
-6.6340244e-006 0.00016047341 1.7175795e-005 0.00076910463 0.99994397 -0.0023894992
11220.18454302 0.996934 -0.0019496944 -8.9547461e-007 0.00046100101 -2.3863722e-006 0.00018315663
-5.1076013e-006 0.00046712405 0.99862093 -0.0039584241 7.3265037e-006 0.0008035074
-2.0671218e-006 0.00020257403 1.620042e-005 0.00078798539 0.99998057 -0.0025647008
11885.02227437 0.99699235 -0.002038311 6.5150948e-006 0.00048888323 -9.2055161e-006 0.00021619651
-3.341399e-006 0.00049469777 0.99885786 -0.0040072985 1.0290024e-005 0.00086022291
1.3604656e-005 0.00017630431 1.1178788e-005 0.00085320941 1.0001007 -0.002369662
12589.254117942 0.99707061 -0.0023031931 -5.8127825e-006 0.00051730772 -1.6120659e-005 0.00017909985
6.7552319e-006 0.00050042564 0.99901718 -0.0043555317 -5.9803715e-006 0.0008955627
3.8443472e-006 0.00020174787 1.7134576e-005 0.00090228085 0.99988866 -0.0025069015
13335.214321633 0.99705726 -0.0023243229 -4.4122385e-006 0.00056093174 1.5721314e-007 0.00019184871
8.9920313e-006 0.00054108223 0.99896383 -0.0045431196 2.324569e-007 0.00095863151
1.3037265e-005 0.00021982646 1.8935372e-005 0.00095173286 0.99994987 -0.0024956502
14125.375446228 0.99686313 -0.0025693811 -7.1268537e-006 0.00059411186 -4.806373e-006 0.00024122013
3.4924269e-006 0.00058414281 0.99891311 -0.0048240302 -5.6612425e-006 0.0010096818
-8.8088827e-006 0.00024932751 1.8408275e-005 0.001030746 0.99995404 -0.0024729311
14962.356560944 0.99692374 -0.002663367 -7.4443187e-006 0.00062873296 -1.0237121e-005 0.00025081259
-1.1560717e-005 0.00060288212 0.99884129 -0.0049091601 1.3143144e-005 0.0010490189
-4.2484116e-006 0.00023951881 3.1276893e-005 0.001062908 1.0000584 -0.0027684118
15848.931924611 0.99712306 -0.0028769036 9.4357783e-006 0.0006576255 1.2728321e-005 0.00027290394
1.4836022e-005 0.00064656464 0.99897319 -0.0051698098 -4.5686602e-006 0.0011272363
7.0030483e-006 0.00024815724 -3.7732125e-006 0.0011248153 0.99997002 -0.0024977904
16788.040181226 0.99705738 -0.0031386451 -4.2484594e-006 0.00069698086 1.2586203e-005 0.00026325174
-7.6705334e-007 0.00069443294 0.9989292 -0.0054969518 2.3795239e-005 0.0012049157
1.5422715e-005 0.00025403619 9.1390402e-006 0.0012032614 0.99996769 -0.0028734158
17782.794100389 0.99715328 -0.0029799209 -1.0524622e-005 0.0007195053 1.1159486e-005 0.00027333255
-6.3901375e-006 0.00073511578 0.99918145 -0.0058945301 6.645545e-006 0.0012674365
3.6868039e-006 0.00029555665 -6.1822848e-006 0.0012427398 0.99992061 -0.0028215521
18836.490894898 0.99709928 -0.0033067625 -4.0149457e-006 0.00077645719 2.2093845e-005 0.00032463687
1.0543896e-005 0.00079141883 0.99918032 -0.0060268673 7.0802726e-006 0.0013259294
-7.3415881e-006 0.000286842 9.7002439e-006 0.0013456789 0.99983341 -0.0027848762
19952.623149689 0.99705553 -0.0036942882 7.7846353e-006 0.0008339269 9.8454193e-006 0.00032913836
4.2035217e-006 0.00082422281 0.99912727 -0.0063497555 4.201318e-005 0.0014452509
3.0299083e-005 0.0003359229 1.8776574e-007 0.001432392 0.99975693 -0.0028238958
21134.890398366 0.99718183 -0.0038014362 1.3663188e-006 0.00088401051 -4.2713209e-006 0.0003345935
5.2373243e-006 0.00085032138 0.99902421 -0.0066387122 3.1668704e-005 0.0014715361
2.040686e-005 0.00033950177 1.8094501e-005 0.0014975431 0.999906 -0.0031498841
22387.211385683 0.99706852 -0.004089992 -1.0783244e-005 0.00093277992 4.6657983e-006 0.00036839364
4.7166732e-006 0.00092826789 0.9990381 -0.006785294 -1.7747643e-006 0.0016061281
-1.0263242e-005 0.00035563047 1.4846508e-005 0.0015869414 0.99992847 -0.003151203
23713.737056617 0.99704254 -0.004240578 -9.053977e-006 0.00098876411 -4.3982809e-006 0.0003746039
-7.4123191e-006 0.00099211943 0.99915451 -0.0075027384 2.5533005e-005 0.0016825027
-1.7230292e-005 0.00038913134 3.69511e-005 0.0017085588 0.99977362 -0.0031444211
25118.864315096 0.99711192 -0.0043596751 1.8780538e-006 0.0010447601 -9.3160276e-007 0.00041308845
-8.277224e-006 0.0010438804 0.9989922 -0.0077039246 2.2385922e-005 0.0017748494
1.20699e-005 0.00039492809 1.9385514e-005 0.0017742433 0.99995071 -0.003332481
26607.250597988 0.99717349 -0.0046579875 4.8786551e-006 0.0011112415 2.3259503e-007 0.00043342175
-2.3784385e-006 0.0011011906 0.99907684 -0.0082194638 3.6812584e-005 0.0019156779
1.546038e-005 0.00042670692 4.4339085e-005 0.0018889413 0.99998987 -0.0035196869
28183.829312645 0.99694073 -0.0051938179 2.3688826e-005 0.0011434177 2.9351183e-006 0.0004270541
5.8129081e-006 0.0011696343 0.99902499 -0.0085400436 3.1341686e-005 0.001993699
2.1134429e-005 0.00044195814 2.4392213e-005 0.0019812512 0.99990487 -0.0037143843
29853.82618918 0.99710649 -0.0054270374 1.4785996e-005 0.0012184237 -6.9821617e-006 0.00050186773
1.0530392e-005 0.0012325965 0.99915373 -0.0089896107 4.4485398e-005 0.0021219593
1.6563754e-005 0.00049521244 3.1573283e-005 0.0021304607 0.99994922 -0.0037460825
31622.776601684 0.99700367 -0.0058192564 -9.638361e-007 0.0013170665 1.3058377e-005 0.00051732379
1.5077409e-005 0.0012956748 0.99910414 -0.0096060103 2.4107814e-005 0.0022522293
1.028056e-006 0.00050845387 3.7381862e-005 0.0022553424 0.99980611 -0.0041455706
33496.543915783 0.99711424 -0.0059675798 1.8501032e-005 0.0013951104 9.8191649e-006 0.00052805425
1.4468929e-005 0.0013939057 0.99923825 -0.010152687 4.6042442e-005 0.0023573858
7.0604187e-006 0.00053969806 3.1298969e-005 0.0023849865 0.99977511 -0.0041785585
35481.338923358 0.9970386 -0.0062517822 9.0276344e-006 0.0014869418 -2.289859e-005 0.00058215362
1.4086674e-005 0.0014442003 0.99917543 -0.010691212 2.7471222e-005 0.0025203235
-1.142728e-005 0.00057714613 2.9422114e-005 0.0025269873 0.9998163 -0.0042315717
37583.740428844 0.99703139 -0.0066844476 1.2141068e-005 0.0015568655 3.8799885e-006 0.00060364715
1.8833905e-005 0.0015674126 0.9991225 -0.011214028 4.665853e-005 0.002665011
5.8501887e-006 0.00060038012 4.9888989e-005 0.0027013873 0.99963921 -0.0044326438
39810.71705535 0.99698865 -0.0071141589 4.5602587e-006 0.0016622666 1.8598317e-005 0.00064441731
1.7850969e-005 0.0016531055 0.99918735 -0.011993025 4.1960378e-005 0.0028480906
2.7104634e-005 0.00063662429 5.4420714e-005 0.0028247763 0.99958789 -0.0048303045
42169.650342858 0.99692547 -0.0074603637 2.551272e-005 0.0017368031 6.4796923e-006 0.00066923874
1.9365814e-005 0.0017597958 0.99928999 -0.01273082 5.0942046e-005 0.0029860043
1.5582322e-005 0.00067837565 7.2285191e-005 0.0029797824 0.99954808 -0.0049225758
44668.359215096 0.99703765 -0.0079581998 2.5234442e-005 0.0018616286 2.2439692e-005 0.00072122505
6.0230373e-006 0.0018602563 0.99897057 -0.013407962 4.2735435e-005 0.0031786261
2.4370787e-005 0.00073143531 6.0953971e-005 0.0031618259 0.99952811 -0.0052951779
47315.125896148 0.99711233 -0.008290736 3.0765867e-005 0.0019404945 2.2527554e-006 0.00073570275
2.0487671e-005 0.0019554957 0.99906588 -0.014176178 8.6383516e-005 0.0033495126
1.7342976e-005 0.00075169397 6.2934414e-005 0.0033531326 0.9995445 -0.0054340339
50118.723362727 0.99692506 -0.0088876775 3.8708193e-005 0.0020572077 -4.8740781e-006 0.00080425537
5.1272632e-006 0.0020727713 0.99910384 -0.015080019 8.1745071e-005 0.0035710803
-7.1016057e-006 0.00080414372 6.2645471e-005 0.0035607759 0.99943727 -0.0056918715
53088.444423099 0.9971118 -0.0094121015 3.8720507e-005 0.0022043139 8.6893198e-007 0.00085573294
4.2246149e-005 0.0021954323 0.99900502 -0.015912678 9.5334879e-005 0.0037712303
2.8872379e-005 0.0008468951 9.8368757e-005 0.0037726532 0.99949449 -0.0060453531
56234.132519035 0.99695617 -0.010094698 1.8019909e-005 0.0023299344 1.1187056e-005 0.00090804318
3.295151e-005 0.0023222205 0.99906164 -0.017013254 7.3306175e-005 0.0039660451
3.0285169e-006 0.00089561276 8.2919207e-005 0.0039839791 0.99945515 -0.006294712
59566.214352901 0.99692386 -0.010627683 6.6829675e-006 0.0024577251 1.8345871e-005 0.00095397414
3.4936445e-005 0.0024566425 0.99884486 -0.018015765 0.00010390062 0.0042144964
1.2311868e-005 0.00094289443 0.00010579034 0.0042343209 0.99927968 -0.0065239184
63095.734448019 0.99690127 -0.011189943 2.7204977e-005 0.0025952894 2.7737346e-005 0.0010091892
2.75733e-005 0.0025883606 0.99873549 -0.019138381 0.00011795181 0.0044755167
6.087208e-006 0.0010186577 0.00011764032 0.0044779843 0.99947 -0.0068489276
66834.391756861 0.99688733 -0.011718409 5.0999213e-005 0.0027605004 1.3040787e-005 0.0011019616
4.0420331e-005 0.002735561 0.99874389 -0.020094786 0.000109613 0.0047409642
2.1357155e-005 0.0010712561 0.0001454731 0.004734755 0.99938357 -0.0072828294
70794.578438414 0.99688053 -0.012425736 2.1329417e-005 0.0029260067 2.3977531e-005 0.0011363453
4.6375855e-005 0.0029275359 0.99856389 -0.021244852 0.00015282961 0.0050031077
1.820635e-005 0.0011366638 0.00014750278 0.0050151544 0.999174 -0.0076971999
74989.420933246 0.99684244 -0.013217102 3.5866713e-005 0.0031109755 8.5618431e-006 0.001202409
4.7395777e-005 0.0030988778 0.99875665 -0.022328671 0.00014797534 0.0053145662
1.6192589e-005 0.0011866846 0.00015745727 0.0052966503 0.99915957 -0.0079905726
79432.823472428 0.99686474 -0.013966972 3.390366e-005 0.0032795963 2.0451786e-005 0.0012825923
5.0049472e-005 0.0032711916 0.99858099 -0.023607992 0.00017453752 0.0056138211
1.5217791e-005 0.0012766727 0.0001739665 0.0056228591 0.99907964 -0.0084235752
84139.514164519 0.99687558 -0.014790107 4.3804746e-005 0.0034810323 4.7071913e-005 0.0013512864
6.7704073e-005 0.0034595141 0.99851513 -0.024900159 0.00016833063 0.0059565939
2.1727654e-005 0.0013577712 0.00020371913 0.0059483978 0.99909049 -0.0087560592
89125.093813375 0.99682707 -0.015617135 7.2642295e-005 0.0036993702 2.389813e-005 0.0014356393
5.9617527e-005 0.0036654745 0.99846339 -0.026449624 0.00021144927 0.0063082036
2.3406925e-005 0.0014239143 0.00022277959 0.0062844921 0.99908441 -0.0092745004
94406.087628592 0.9968788 -0.016553096 7.1492832e-005 0.0038981633 3.3163928e-005 0.0015014863
6.7833702e-005 0.0039180676 0.99831229 -0.027904185 0.00022604069 0.0066619292
2.2810747e-005 0.0015020582 0.00022668288 0.0066347802 0.99913675 -0.0098051745
100000 0.99701113 -0.017423611 8.341264e-005 0.0041409717 1.2587499e-005 0.0015780049
7.9369973e-005 0.0041441089 0.99818295 -0.029654345 0.00026790216 0.0070485906
4.8737416e-005 0.001597979 0.00025444388 0.0070744385 0.99893749 -0.010320609
105925.37251773 0.99686921 -0.018464424 8.9415727e-005 0.0043856464 5.6438083e-005 0.0016892562
9.664175e-005 0.0043857084 0.9982788 -0.031378455 0.00027666008 0.0074865455
3.4505083e-005 0.0016830254 0.00031061759 0.0074623115 0.99904037 -0.010748792
112201.8454302 0.99688947 -0.019548755 0.00010964343 0.0046558832 5.3571675e-005 0.0018030292
8.9341069e-005 0.0046307375 0.99828076 -0.033161808 0.00032763454 0.007918804
5.1678202e-005 0.0017837678 0.00032219157 0.00791841 0.9990378 -0.011456822
118850.2227437 0.99677491 -0.020725558 0.00011639532 0.0049041519 6.31234e-005 0.0018807453
0.00010540289 0.0049030394 0.99825943 -0.03515593 0.00036027143 0.0083676418
4.6045479e-005 0.0018991921 0.00035640015 0.0083800331 0.99909282 -0.012169003
125892.54117942 0.99688631 -0.021992957 0.00013178242 0.0052011907 5.95407e-005 0.0020042337
0.00012798148 0.0051984792 0.99806005 -0.037193451 0.00040247134 0.0088788141
6.0210677e-005 0.001995499 0.00040072328 0.0088715777 0.99919248 -0.012821543
133352.14321633 0.99685001 -0.023276383 0.0001405982 0.0055312943 7.6088501e-005 0.0021191104
0.00013049878 0.0055218637 0.99810421 -0.039367534 0.00045880672 0.0093636727
6.114148e-005 0.0021267454 0.00044978975 0.0093899788 0.99892467 -0.013586351
141253.75446228 0.99681371 -0.024872273 0.00014854407 0.0058631487 9.2392947e-005 0.0022385025
0.00013230358 0.0058553079 0.99784338 -0.041806262 0.00051494635 0.009934539
5.48342e-005 0.0022510584 0.00048622771 0.009959219 0.99914372 -0.014388881
149623.56560944 0.9968363 -0.026135856 0.00017907537 0.0061886883 0.00010946672 0.0024001712
0.00018828188 0.0061943089 0.99776071 -0.044198442 0.0005640217 0.010493591
9.9644676e-005 0.0023862815 0.00054380024 0.010497399 0.99892461 -0.015241532
158489.31924611 0.99687648 -0.027611315 0.00021408554 0.0065531651 8.441411e-005 0.0025353471
0.00019633598 0.0065481481 0.99768466 -0.046582639 0.00062757876 0.011133635
9.9885678e-005 0.0025283166 0.00061026029 0.011132339 0.99884713 -0.01587775
167880.40181226 0.99658126 -0.029399708 0.00024953589 0.0069325082 7.0836424e-005 0.0026772781
0.00021833318 0.0069457502 0.99734372 -0.049626913 0.00067629962 0.011767847
9.2476133e-005 0.0026627043 0.00068889832 0.011770691 0.99886161 -0.016979588
177827.94100389 0.99649644 -0.031042634 0.00024669716 0.0073655033 0.00010115611 0.0028136617
0.00026048766 0.0073490143 0.99731195 -0.052591342 0.00077318889 0.012450818
8.6013257e-005 0.0028306067 0.00077358179 0.012467612 0.99893516 -0.017813845
188364.90894898 0.99641359 -0.032789957 0.00028474149 0.0077957273 9.2737442e-005 0.0029845224
0.00029260476 0.0077880849 0.997006 -0.055628631 0.00086580671 0.013153384
0.00010908763 0.0029893273 0.00085399585 0.013162407 0.99866259 -0.019098587
199526.23149689 0.9962064 -0.034908414 0.00032882288 0.0082495864 8.4507454e-005 0.0031474992
0.00031780687 0.0082479473 0.99685258 -0.058851525 0.00094164931 0.013918544
0.00013021077 0.0031492854 0.00093338842 0.013907591 0.99866617 -0.020066243
211348.90398366 0.99632192 -0.037068412 0.00035511094 0.0087638516 0.00013188874 0.0033565147
0.0003552991 0.008751398 0.99655694 -0.062388361 0.0010680411 0.01469627
0.00014162381 0.0033273955 0.0010379269 0.014751513 0.99855572 -0.021133246
223872.11385683 0.99624145 -0.039097615 0.00041100333 0.0092647197 0.00014084397 0.0035393853
0.00039286693 0.0092638945 0.99623549 -0.066196248 0.00115999 0.015556288
0.00015297742 0.00355022 0.0011570929 0.01558 0.99837023 -0.022333922
237137.37056617 0.99605364 -0.04147578 0.00043684902 0.0098047135 0.00013405955 0.0037385067
0.00046692352 0.0098287547 0.99599028 -0.069977753 0.0012778796 0.016476301
0.00015172891 0.0037264577 0.001256609 0.016467521 0.99840021 -0.023503
251188.64315096 0.99608999 -0.043870926 0.0005079449 0.010414588 0.00018290312 0.003973172
0.00051017728 0.010419803 0.99571264 -0.074105322 0.0014286754 0.017429132
0.00016755117 0.0039555337 0.0014438826 0.017426655 0.9982816 -0.025093958
266072.50597988 0.99573451 -0.046472326 0.00056144851 0.011000718 0.00020032478 0.0041821669
0.00056130806 0.011018401 0.9954617 -0.078398176 0.0015397801 0.018441219
0.00018841932 0.0041811527 0.0015613316 0.018389242 0.9980551 -0.026430961
281838.29312645 0.99569309 -0.049396053 0.00067274051 0.011694744 0.0002056752 0.0044215596
0.00066074659 0.011676677 0.99483407 -0.082891263 0.0017066553 0.019454705
0.00020822609 0.0044290829 0.0017147422 0.019446932 0.99804115 -0.027777107
298538.2618918 0.99557787 -0.052154362 0.00071933062 0.01237469 0.00022115174 0.0046732589
0.00072934653 0.012364414 0.99444294 -0.087849878 0.001871976 0.020549584
0.0002210466 0.004686051 0.0018864461 0.020546678 0.99782217 -0.029492328
316227.76601684 0.99531537 -0.055191766 0.00081683649 0.013128142 0.00024263054 0.0049245539
0.00082850293 0.013092096 0.99376369 -0.093146771 0.0020929375 0.021714108
0.00023774631 0.0049335612 0.0020990334 0.021701308 0.99776155 -0.031097729
334965.43915783 0.99498022 -0.058547132 0.00091214909 0.013879022 0.00027040712 0.0052367803
0.00094334991 0.013875223 0.99312943 -0.09854763 0.0022857094 0.022925431
0.00026985706 0.0052312459 0.0023447992 0.022956403 0.99727935 -0.032948419
354813.38923358 0.99480271 -0.061844159 0.0010364469 0.014699802 0.00028607552 0.0055206576
0.0010496292 0.014712268 0.9924857 -0.10415643 0.002554039 0.024246788
0.00028161667 0.005511093 0.0025382861 0.024261115 0.99730831 -0.034789428
375837.40428844 0.99455744 -0.065470397 0.0011629438 0.01556995 0.00032150536 0.0058263256
0.0011808252 0.015566796 0.99153972 -0.11026765 0.0027851355 0.025620803
0.00030971959 0.0058456738 0.0028023028 0.025612319 0.99720979 -0.036736928
398107.1705535 0.99447858 -0.069574215 0.001328703 0.016472569 0.00034892111 0.0061693429
0.0013271419 0.016486373 0.99089271 -0.11674754 0.0030709265 0.027040979
0.00032586098 0.0061751259 0.0030585378 0.027037004 0.99686277 -0.038975745
421696.50342858 0.99397784 -0.073477216 0.001488713 0.017459081 0.00036215381 0.0065274718
0.001497462 0.017462108 0.98962271 -0.12345038 0.0033620424 0.028577711
0.00036619723 0.0065188394 0.0033614077 0.028581738 0.99664414 -0.041029893
446683.59215096 0.99366534 -0.077849455 0.0016929157 0.018477164 0.0003873895 0.0068882871
0.0016905364 0.018485969 0.98886538 -0.13064045 0.0037079577 0.030196104
0.00041604176 0.0069021732 0.0037185887 0.030173995 0.99645317 -0.043352596
473151.25896148 0.99322647 -0.082396939 0.0019165119 0.01958009 0.00042938004 0.0072918055
0.0018939363 0.01956556 0.98775852 -0.13818979 0.0040789139 0.031874694
0.00041260876 0.0072921677 0.0040708841 0.031870414 0.9961617 -0.045697536
501187.23362727 0.99254835 -0.087388687 0.002141299 0.020725256 0.00043891376 0.007681543
0.002162321 0.020707328 0.98649031 -0.14638379 0.004461328 0.033654429
0.00047015183 0.007692602 0.0044790115 0.033664484 0.99576253 -0.048299506
530884.44423099 0.99189079 -0.092509583 0.0024277007 0.021944182 0.00049427332 0.0081481021
0.0024284844 0.021928165 0.98509544 -0.15467693 0.0049013104 0.035548646
0.00051124592 0.0081549576 0.0048964741 0.035570126 0.99565148 -0.051123049
562341.32519035 0.99151409 -0.097875729 0.0027439066 0.023210688 0.00051671133 0.0086032478
0.0027422521 0.02320154 0.98331517 -0.16378655 0.0054123974 0.037498258
0.00054051721 0.0086359978 0.00540481 0.037560049 0.99542135 -0.054123409
595662.14352901 0.99096066 -0.10334756 0.0030884175 0.024539897 0.00055871083 0.0090864515
0.003072826 0.024539789 0.98164052 -0.17325719 0.0059196376 0.039590977
0.00058729772 0.0091268178 0.0059280875 0.039627593 0.99505484 -0.057050675
630957.34448019 0.99036682 -0.10952768 0.003463296 0.025962284 0.00060030713 0.0096400501
0.003477378 0.025972011 0.9795208 -0.18317841 0.0065169311 0.041804954
0.00061339204 0.0096404729 0.0065090433 0.041837431 0.99482143 -0.060377035
668343.91756861 0.98957694 -0.11604588 0.0038979033 0.027476754 0.00065791904 0.010200269
0.0039131632 0.027478363 0.9773553 -0.19389644 0.007163058 0.044152949
0.00065389264 0.01021221 0.0071707908 0.04416357 0.9942553 -0.063688107
707945.78438414 0.98869586 -0.12283845 0.0043943217 0.029071715 0.00070834719 0.010751938
0.004423826 0.029058365 0.97442162 -0.20491153 0.0078827161 0.046612166
0.00070185307 0.010776687 0.0079005193 0.046636883 0.99381429 -0.067489192
749894.20933246 0.98768723 -0.1300547 0.0049389084 0.030682569 0.00075665058 0.011430743
0.0049721352 0.030704157 0.97142136 -0.21646382 0.0086825937 0.049151976
0.00077464967 0.011428644 0.008668839 0.049182676 0.99324238 -0.071003474
794328.23472428 0.98638457 -0.13778314 0.0055477219 0.032444801 0.00082170864 0.012073536
0.0055555124 0.032451253 0.9691422 -0.22836599 0.0095171947 0.051874142
0.00082087237 0.012096662 0.0095495936 0.051914882 0.99276489 -0.075133555
841395.14164519 0.98504013 -0.14551371 0.0062164194 0.034272589 0.00085940969 0.012763081
0.0062292903 0.034285985 0.9659102 -0.2419565 0.010487953 0.05476509
