!Keysight Technologies,E5080A,MY55100144,A.11.70.03
!Date: Monday, November 13, 2017 17:25:57
!Correction: S11(Full 3 Port(1,2,3)) 
!S12(Full 3 Port(1,2,3)) 
!S13(Full 3 Port(1,2,3)) 
!S21(Full 3 Port(1,2,3)) 
!S22(Full 3 Port(1,2,3)) 
!S23(Full 3 Port(1,2,3)) 
!S31(Full 3 Port(1,2,3)) 
!S32(Full 3 Port(1,2,3)) 
!S33(Full 3 Port(1,2,3)) 
!S3P File: Measurements: <S11,S12,S13>,
!<S21,S22,S23>,
!<S31,S32,S33>:Log Frequency Sweep
# Hz S  RI   R 50
10000 0.99486613 -0.0055157733 -9.6026561e-006 1.938841e-006 1.5089667e-005 0.0001355432
3.1265615e-006 -1.1800034e-006 0.47083032 -0.87582654 -7.8503272e-006 4.092421e-006
4.3189029e-006 0.0001150434 4.7942472e-006 3.9176384e-006 0.99913067 -0.0021599727
10592.537251773 0.99472076 -0.0059227729 -1.4458218e-005 3.7166049e-006 -1.817876e-005 0.00016052058
1.1556761e-005 -2.1888432e-005 0.42574149 -0.89843935 -1.7158832e-006 7.4756969e-007
-3.7995328e-006 0.00013863844 1.5352865e-006 5.2895216e-006 0.99926043 -0.0020054986
11220.18454302 0.99508971 -0.0062953075 -9.6421786e-007 1.663882e-005 -1.0180124e-005 0.00014140151
4.837023e-006 8.7278959e-006 0.37758523 -0.91925609 2.8711086e-006 6.3286834e-006
1.0901538e-005 0.00015673542 -3.2135114e-005 3.750137e-006 0.99927133 -0.0022018871
11885.02227437 0.99483019 -0.0066704326 2.231573e-006 9.2896162e-006 1.2135162e-005 0.0001609207
-5.0453032e-006 -6.2287636e-006 0.32777384 -0.93792206 -9.5493233e-006 9.3640356e-006
2.9188597e-005 0.00015553768 -2.6346606e-005 2.1399962e-006 0.99921751 -0.0020867817
12589.254117942 0.99486303 -0.0069557354 6.6012781e-006 -1.5576288e-006 -1.4879847e-005 0.00017498566
-3.3826054e-006 2.5715333e-006 0.27623278 -0.9541744 2.9273235e-007 1.0331191e-005
-1.6428832e-005 0.00015493468 -1.0914267e-005 5.1302291e-006 0.99951375 -0.0022741442
13335.214321633 0.99503702 -0.007294605 7.4362438e-006 5.5187916e-006 1.0256718e-005 0.00014809304
-7.8517851e-006 -1.2369152e-005 0.22297114 -0.96809185 4.5359898e-006 -6.3113885e-006
1.399654e-005 0.00017729819 4.4634585e-006 -1.6793852e-005 0.9993493 -0.0021355918
14125.375446228 0.99501669 -0.007824786 6.062899e-006 2.7973804e-006 1.5596856e-007 0.00017643554
8.1958005e-006 -1.3242653e-005 0.16828415 -0.97838366 -1.9967398e-005 -1.3960734e-005
1.035993e-005 0.00016316764 -8.8938377e-006 1.6303147e-005 0.99945784 -0.0022705703
14962.356560944 0.99480748 -0.0081891688 7.4813424e-006 2.1473874e-005 1.7340059e-005 0.0001887281
2.352323e-006 8.7765002e-006 0.11251599 -0.9867695 5.0268136e-006 4.9552636e-006
1.8764206e-006 0.00016736706 -1.2846658e-005 7.6560227e-006 0.99933934 -0.0023651377
15848.931924611 0.99508119 -0.0088527976 2.7071594e-006 7.2544331e-006 1.4225164e-006 0.00020380353
8.4751127e-006 8.9264713e-006 0.055907968 -0.99117517 -5.197714e-006 1.9836967e-005
8.5854854e-006 0.00020065498 -3.8627641e-006 -5.5224041e-006 0.99945402 -0.002240442
16788.040181226 0.99492168 -0.0093519539 4.9579212e-006 -1.8893823e-005 1.0183677e-005 0.00019442324
-1.1232734e-005 8.6756893e-007 -0.00081788248 -0.99248588 -5.0256122e-006 -5.0233748e-006
-6.8000718e-006 0.00019609234 -6.9286089e-006 -7.1655759e-006 0.99948615 -0.002566298
17782.794100389 0.99516529 -0.0096159987 -1.1451286e-006 1.5489406e-005 -1.2639649e-005 0.00022194999
7.6455859e-007 -1.0269264e-006 -0.057652578 -0.99054253 2.1151078e-005 2.7980248e-006
-8.5380334e-006 0.00022041624 -1.0224368e-005 -1.8982078e-005 0.99953771 -0.0024148857
18836.490894898 0.99486357 -0.010272887 -9.1369948e-006 1.4042262e-005 -1.0962833e-006 0.00025594493
-2.9656428e-006 -2.1680396e-006 -0.11406807 -0.98582566 4.2398074e-006 -2.90293e-006
9.1077291e-006 0.00025021954 1.3048895e-005 -6.1319361e-007 0.99936485 -0.0024885093
19952.623149689 0.99498969 -0.010813085 2.2978902e-005 2.565712e-005 1.0707562e-005 0.00024555103
3.4358061e-006 -3.9232636e-006 -0.16957647 -0.97783285 1.1702393e-005 -1.2253607e-005
6.756648e-006 0.00024919168 -8.6536447e-006 1.1947646e-005 0.99919701 -0.0026595015
21134.890398366 0.99501318 -0.011503496 3.5257606e-006 -3.9254828e-006 1.8962233e-005 0.00025253266
1.3486884e-006 8.9284667e-006 -0.22433959 -0.96656609 3.8332118e-006 2.7499832e-006
4.878425e-006 0.00024518074 -2.3100872e-006 5.6693834e-006 0.99921578 -0.0027928764
22387.211385683 0.99485856 -0.012394877 6.0118987e-006 -2.720759e-005 9.0744725e-006 0.0002779559
-9.8315468e-006 2.005612e-006 -0.27738228 -0.95271802 1.6263574e-006 1.9049317e-006
1.4075013e-005 0.00029848528 -8.7210183e-006 -1.3111157e-006 0.99928141 -0.0030079845
23713.737056617 0.9949618 -0.012891402 1.9994588e-005 1.9735136e-005 2.2119357e-005 0.00027135981
-1.0690306e-006 -3.4109246e-006 -0.32893643 -0.93602228 -1.1533198e-006 -1.7649293e-006
-6.847099e-006 0.00028496623 -9.0515086e-006 1.3770305e-005 0.99925107 -0.0028187414
25118.864315096 0.99491245 -0.013765423 -1.3575062e-005 -2.3401665e-006 -1.2317682e-005 0.00033096073
-1.1531799e-005 3.3045651e-006 -0.37852487 -0.91730994 2.8719803e-006 -4.21504e-006
-2.0767031e-005 0.00031195814 2.3117207e-005 2.8505918e-005 0.99924475 -0.0030946485
26607.250597988 0.99499625 -0.014493529 -3.0933854e-005 6.2869012e-006 9.4022744e-006 0.00032299047
-1.2092036e-005 -4.4467615e-006 -0.42610922 -0.89627928 3.8263406e-006 3.0313495e-006
1.8712102e-005 0.00032815282 -1.5745556e-005 -6.8876084e-006 0.99938011 -0.0031439376
28183.829312645 0.99506384 -0.015525637 -8.8866509e-006 -5.4436327e-006 -1.9103267e-005 0.00036464364
-1.0257425e-005 -1.4209491e-005 -0.47161037 -0.87327582 8.0648942e-006 7.9360716e-006
9.4952129e-006 0.00036824789 -3.190062e-007 2.9532143e-006 0.99926949 -0.0032536883
29853.82618918 0.99501246 -0.016299974 -7.1337045e-006 -1.3830691e-005 1.5956944e-005 0.00035315414
7.3264931e-007 -5.493212e-006 -0.51440161 -0.84879351 -1.0661452e-006 4.7045733e-006
3.0208144e-005 0.00035595265 1.2776376e-005 -1.5011523e-005 0.99934244 -0.0032295794
31622.776601684 0.99498153 -0.01735352 -8.7834201e-007 2.0629555e-005 8.7846201e-006 0.00038670568
1.4445264e-005 4.1030376e-006 -0.55464607 -0.82309771 8.9649584e-006 -7.1415725e-006
3.8856488e-005 0.00040236366 8.9794673e-007 -2.5747004e-005 0.99936998 -0.0036587659
33496.543915783 0.99494296 -0.018260514 9.6116783e-006 1.5859865e-005 1.0496439e-005 0.00041935279
6.4581855e-006 2.7556189e-006 -0.59249461 -0.79632074 -1.7347789e-005 1.859393e-005
1.2177802e-005 0.0004093693 -2.0540306e-006 -1.3554011e-005 0.99936426 -0.0037413724
35481.338923358 0.99478382 -0.019276403 6.4024821e-006 -6.2705135e-007 -3.0578951e-006 0.00044604135
8.7968665e-006 -7.9913707e-006 -0.62804615 -0.76866448 9.7563395e-007 3.0098436e-006
-1.033701e-005 0.00045941843 1.3334868e-006 -2.2450433e-006 0.9993183 -0.0039746882
37583.740428844 0.99481726 -0.020478219 -6.8552918e-006 -2.0238026e-007 2.0670337e-005 0.00047507382
1.6226364e-005 6.8058321e-006 -0.66097391 -0.74064809 -8.5894914e-007 2.3599007e-006
1.8326442e-005 0.0004763325 -4.5371362e-006 1.1550211e-005 0.9992581 -0.0041140853
39810.71705535 0.99476242 -0.021615909 -2.4632784e-005 -9.9867366e-006 1.9160698e-005 0.00049595325
2.8645447e-006 -3.1520531e-006 -0.69158202 -0.71244246 -6.1349797e-006 7.4126996e-007
1.0864208e-005 0.00047677086 1.7696655e-005 3.1103511e-005 0.99923044 -0.0042449925
42169.650342858 0.9947409 -0.022838565 3.0421381e-006 -5.6222716e-006 1.4051151e-005 0.00053623714
8.7777862e-006 1.2130499e-005 -0.71984458 -0.68413919 -3.665582e-006 -8.7738499e-006
2.3541425e-005 0.00052631134 1.1031702e-005 6.8632098e-006 0.99928808 -0.0048049204
44668.359215096 0.99478489 -0.024328437 -3.9279676e-006 1.6603398e-007 3.7338028e-005 0.00052485382
3.2292737e-006 2.049597e-006 -0.74583131 -0.65577638 1.1148488e-005 1.491443e-005
7.3616507e-006 0.00053862203 5.5348282e-006 4.1986273e-006 0.99945647 -0.0052658725
47315.125896148 0.99480784 -0.025616959 -1.6073691e-005 4.2744309e-006 3.8570593e-005 0.00059968483
-1.0101491e-005 6.0517164e-006 -0.76974338 -0.62785947 1.0046429e-005 5.4485886e-006
1.3022243e-006 0.00058249303 -6.6384409e-006 2.1130018e-005 0.99956572 -0.0054986831
50118.723362727 0.99463552 -0.02710966 -6.9267385e-006 1.9786183e-005 1.6283271e-005 0.00061954453
-1.1973164e-006 1.1330408e-005 -0.7915954 -0.60012436 -1.1041813e-005 5.5713745e-006
2.891509e-005 0.00061541318 3.31968e-006 2.2631724e-005 0.99944574 -0.0056613125
53088.444423099 0.99454564 -0.028830195 -1.0050562e-005 3.2282189e-006 1.6328851e-005 0.00066239288
8.3629875e-006 1.3355962e-006 -0.81173927 -0.57302928 -2.7678173e-006 -2.7573221e-006
1.2593822e-005 0.00064643746 -2.633781e-005 6.0109633e-006 0.99940234 -0.0059987344
56234.132519035 0.99457306 -0.030488597 9.9530671e-006 9.1024303e-006 2.2435232e-005 0.00070358673
-5.9168033e-006 -4.2079828e-006 -0.82976335 -0.54668736 8.5873835e-006 1.68932e-005
1.9025012e-005 0.00071266189 -3.7111042e-006 1.6183711e-005 0.99932343 -0.0063150553
59566.214352901 0.99457413 -0.032362819 -6.6732241e-006 -2.6614725e-005 4.4680477e-005 0.00074568484
1.0536005e-006 5.3326397e-007 -0.84634703 -0.52089751 7.3963947e-006 3.2644998e-006
-1.52516e-005 0.0007372988 -1.2961266e-005 4.8655224e-006 0.99921554 -0.0067294431
63095.734448019 0.99444336 -0.034234349 3.8757603e-006 -9.2665226e-007 4.7354177e-005 0.0007868699
4.1178855e-006 -8.2529486e-006 -0.86142498 -0.49581206 -3.6970598e-006 9.9963254e-006
2.1285536e-005 0.00077842653 -1.0781795e-005 1.9499776e-005 0.99932194 -0.0069084242
66834.391756861 0.99431664 -0.036160782 -3.7403859e-006 6.7974888e-006 2.6774882e-005 0.00080719608
5.800423e-006 1.9748304e-005 -0.875027 -0.47164094 -6.2715171e-006 -2.493716e-007
3.4488017e-005 0.00082266703 2.9723289e-005 -4.5459365e-006 0.99934483 -0.0073822727
70794.578438414 0.99416304 -0.038311061 -3.6726824e-006 2.4629746e-005 3.5487188e-005 0.00086187117
-4.3278519e-007 1.9708214e-006 -0.88728517 -0.44840658 -8.4158737e-006 -3.5899154e-006
1.8009599e-005 0.00087100669 -7.5701455e-006 -4.7416142e-007 0.99914682 -0.0076685427
74989.420933246 0.99409735 -0.04057584 -3.678879e-006 1.1282257e-005 3.2531381e-005 0.00092036172
-4.2627453e-006 1.0008124e-005 -0.89850771 -0.42592826 6.3729753e-006 -4.3034752e-006
3.3659617e-005 0.00090549182 -1.4298063e-005 6.3326235e-007 0.99896145 -0.0078454986
79432.823472428 0.99399978 -0.042820901 8.4619387e-006 1.9938425e-006 3.400131e-005 0.00098436465
-1.6833092e-005 1.8610993e-006 -0.90861231 -0.40424645 -3.0564345e-006 7.306042e-007
5.1824489e-005 0.00097174762 -2.4097553e-005 -1.8109069e-005 0.99887222 -0.0083288988
84139.514164519 0.99389619 -0.045380149 5.6775993e-006 -1.8791269e-006 6.598352e-005 0.0010423377
-6.1855126e-006 8.0622549e-006 -0.91764402 -0.38354582 -1.2841349e-005 -3.4794716e-006
4.4144967e-005 0.0010481371 -3.0480031e-005 6.4729743e-006 0.9990713 -0.0088201296
89125.093813375 0.99382609 -0.047961995 2.0299419e-006 1.3450464e-005 5.0554449e-005 0.0010924059
-6.6498583e-006 5.7022085e-006 -0.92578918 -0.36366642 3.532353e-006 2.1992448e-006
5.6633027e-005 0.001082208 -2.3762374e-005 1.7876011e-005 0.99923986 -0.0094466861
94406.087628592 0.99363846 -0.050852768 2.3742814e-005 1.2718941e-005 3.9578001e-005 0.0011766126
-2.5955194e-006 1.414725e-005 -0.93321127 -0.34477693 5.0066296e-006 1.0002062e-005
4.3209926e-005 0.0011735922 3.985393e-007 1.773815e-006 0.99901778 -0.0097919619
100000 0.99365878 -0.053711314 -3.2201472e-006 2.1402535e-005 5.2627809e-005 0.0012162315
-1.4626285e-006 6.870881e-006 -0.93978542 -0.32652739 2.6895407e-006 1.4634678e-005
6.063615e-005 0.0012518623 1.3324344e-005 1.7048613e-005 0.99892992 -0.010295392
105925.37251773 0.9934209 -0.057080187 1.4510276e-005 2.8976046e-005 6.9364847e-005 0.0012856124
1.3202232e-007 1.4698314e-005 -0.94570321 -0.30936292 1.0765593e-007 1.2551098e-005
6.9341404e-005 0.0012884542 -2.931509e-005 1.8539124e-006 0.99896586 -0.01084567
112201.8454302 0.99314791 -0.060470525 5.8446235e-006 6.2519139e-006 7.0389935e-005 0.0013758186
-4.8859833e-006 -1.6737963e-006 -0.95107895 -0.29279858 -3.9167378e-007 1.605442e-005
6.703737e-005 0.0013706307 3.6923425e-006 -3.1867917e-006 0.99896079 -0.011446645
118850.2227437 0.99304521 -0.063964829 1.4637948e-005 1.7436925e-005 0.00010270061 0.0014644061
-1.845234e-006 2.7358587e-006 -0.95584005 -0.27712581 9.5248724e-006 7.187115e-006
7.6854732e-005 0.0014615798 4.2349175e-006 -9.1866314e-006 0.99907506 -0.012217654
125892.54117942 0.99276125 -0.067723222 -1.5527976e-006 -5.7483708e-006 0.00010664085 0.0015494132
-2.6231974e-006 4.9867726e-006 -0.96017337 -0.26224464 5.3660565e-006 1.0736011e-005
8.3837942e-005 0.001549382 -1.0300938e-006 -7.0010001e-006 0.99914968 -0.012794036
133352.14321633 0.99250025 -0.071845032 -6.5757531e-006 1.2131512e-005 6.9576548e-005 0.0016153663
-1.1489721e-005 5.6516747e-006 -0.96401256 -0.24795149 -5.2244691e-006 5.0517856e-006
0.00010069802 0.0016445664 -7.0800111e-006 -8.2383385e-006 0.99898618 -0.013514537
141253.75446228 0.99215132 -0.075991958 -1.5402073e-005 1.4733773e-005 0.00011385886 0.0017284512
-9.0863605e-006 2.4894185e-005 -0.96742946 -0.23453866 1.9965128e-006 3.9948613e-006
0.00013007027 0.0017470538 -1.1679109e-005 2.8024264e-005 0.99903303 -0.014383568
149623.56560944 0.99171597 -0.080474675 1.5371981e-005 1.1417572e-005 0.00014289316 0.0018044874
-9.7746679e-006 1.3936428e-005 -0.97052205 -0.22164799 -2.7095703e-006 1.1101109e-005
0.0001380985 0.0018304186 -3.6467205e-005 -2.0185432e-006 0.99891925 -0.015289621
158489.31924611 0.99124157 -0.08531855 9.9311483e-006 2.829883e-006 0.00014844812 0.0019076224
7.6117419e-007 3.6374702e-006 -0.97337943 -0.20952466 1.2027505e-006 -3.965235e-006
0.00015298842 0.0019529967 2.1790704e-005 1.6443295e-005 0.99897301 -0.015985109
167880.40181226 0.99085736 -0.090291798 9.2564487e-006 9.7128268e-006 0.0001404894 0.0020492289
-1.6342052e-005 1.9212466e-005 -0.97584611 -0.19784288 -7.4341401e-006 7.9156953e-006
0.00015461586 0.0020380155 -6.7927449e-006 8.9139494e-006 0.99894369 -0.017093755
177827.94100389 0.99028558 -0.095532492 7.4269619e-006 2.3510533e-005 0.0001891603 0.0021683928
-7.0132596e-006 1.3753064e-005 -0.97742152 -0.18595538 6.5665613e-006 5.6090944e-006
0.0001769472 0.0021599799 -1.0817257e-007 3.2037933e-005 0.99878931 -0.017843841
188364.90894898 0.9895646 -0.10119016 3.860062e-006 1.6024534e-005 0.00018330954 0.0023039186
-1.2144291e-005 7.0669826e-006 -0.97987676 -0.17707957 1.1968665e-005 1.1819713e-005
0.0002087325 0.0022913441 -2.3963808e-006 2.5308636e-005 0.99851239 -0.019000145
199526.23149689 0.98904455 -0.1072154 2.9485386e-006 1.1575248e-005 0.00022981937 0.0024146028
-1.3490348e-005 1.4969618e-005 -0.98173875 -0.16719367 -7.1089735e-006 1.1013717e-005
0.00020997311 0.002399897 -2.5026526e-005 2.8149758e-005 0.99849123 -0.019903943
211348.90398366 0.98844385 -0.11349076 -2.6154938e-005 7.4728841e-006 0.0002559819 0.0025331916
-1.8338371e-005 1.2401933e-005 -0.98337013 -0.15778203 1.3502983e-005 2.197765e-005
0.00026154841 0.0025564451 -1.6095008e-005 1.2184206e-005 0.99844325 -0.021110617
223872.11385683 0.98758054 -0.12000802 -7.6114288e-006 1.8817347e-005 0.00029200909 0.002685569
-2.885122e-005 1.8858847e-005 -0.98481631 -0.14898245 5.0734261e-006 1.3190011e-005
0.00026544216 0.002713284 8.0376776e-006 -3.1031848e-006 0.99850649 -0.022279132
237137.37056617 0.98676556 -0.12715159 -1.4540881e-005 3.894711e-005 0.00032011516 0.0028489893
-1.8645862e-005 6.0906386e-006 -0.9860819 -0.14061514 -6.3570587e-007 1.1893147e-005
0.00031254886 0.0028543684 -1.2887826e-005 1.0560292e-005 0.99845445 -0.0235666
251188.64315096 0.98585582 -0.13461429 -9.4537136e-006 1.205358e-005 0.00035533393 0.0030033276
-1.106697e-005 1.8848059e-005 -0.98720646 -0.13272955 -3.4955733e-006 1.502318e-005
0.00034304819 0.003009737 5.2198247e-006 1.6570739e-005 0.99831039 -0.025109313
266072.50597988 0.9843992 -0.14239936 -1.4977935e-006 1.4552946e-005 0.00038631365 0.0031886538
-1.8001074e-005 2.2609636e-005 -0.98821491 -0.12520957 -3.6067374e-007 7.1018844e-006
0.00038313415 0.0031907642 -1.6335599e-006 2.4836172e-005 0.99822104 -0.026573187
281838.29312645 0.98314989 -0.15101705 -2.8178714e-005 1.2338505e-005 0.00040921982 0.0033796669
-1.837431e-005 1.2563046e-005 -0.98915601 -0.11819481 -8.4694266e-006 2.0830983e-005
0.00041796843 0.0033855496 -1.0760104e-005 1.6766317e-005 0.9982205 -0.02787061
298538.2618918 0.9817965 -0.15960658 -2.8114935e-005 2.1975156e-005 0.0004683352 0.0035662772
-2.6437803e-005 1.4745852e-005 -0.98990995 -0.1113924 1.1227478e-005 2.0159036e-005
0.00048127127 0.0035565752 -1.5609312e-005 1.4298847e-005 0.99787617 -0.029581876
316227.76601684 0.98010778 -0.16893178 -2.0310359e-005 2.3514673e-005 0.00053513207 0.003757057
-2.7187203e-005 1.9375875e-005 -0.99056721 -0.10508098 -1.5177705e-005 -1.3852202e-006
0.00051514705 0.0037592286 -4.238696e-006 6.287104e-006 0.99785715 -0.031156655
334965.43915783 0.97831488 -0.17880213 -2.0312098e-005 3.5906469e-005 0.00054766587 0.0039637294
-2.3613378e-005 2.1853792e-005 -0.99136537 -0.099197529 -3.6413114e-006 7.3049669e-006
0.00054633478 0.0039801188 -8.7451428e-007 3.1077554e-005 0.99748117 -0.032828368
354813.38923358 0.97644711 -0.18907574 -3.3292792e-005 1.3674075e-005 0.00063669326 0.0042034527
-3.3621312e-005 1.8748997e-005 -0.99194312 -0.093463868 -1.0143734e-005 1.9323812e-005
0.00061849045 0.0041984967 -2.5680005e-005 1.8381355e-005 0.99760622 -0.03485655
375837.40428844 0.97416598 -0.20011996 -5.2329324e-005 2.2286627e-005 0.00068476825 0.004407241
-5.0370309e-005 3.118733e-005 -0.99237639 -0.087910876 -9.4535044e-006 2.4588926e-005
0.00068206526 0.0044254046 1.345344e-005 2.0810627e-005 0.99748451 -0.036651541
398107.1705535 0.97162741 -0.21166733 -3.984863e-005 2.936149e-005 0.00076418772 0.0046743364
-4.7942878e-005 2.3308094e-005 -0.99290651 -0.082627647 -7.9553483e-006 2.7061409e-005
0.00080546021 0.0046509365 -1.8294195e-005 8.7577355e-006 0.99719781 -0.038849209
421696.50342858 0.96893597 -0.22373472 -2.8463806e-005 2.7896964e-005 0.00084089726 0.0048929313
-4.6248355e-005 4.0356903e-005 -0.99310893 -0.077435985 -6.8613663e-006 1.8500708e-005
0.00085441512 0.0049454393 -3.8919902e-006 2.7256214e-005 0.99704057 -0.041127019
446683.59215096 0.96588933 -0.23671505 -3.9458053e-005 1.6985319e-005 0.00093955145 0.0051569548
-4.6086436e-005 4.8924372e-005 -0.99315047 -0.073750786 3.9482534e-006 1.533656e-005
0.00093866303 0.0051842923 -4.0684067e-006 -4.9068826e-006 0.99667048 -0.043300446
473151.25896148 0.96234018 -0.25023159 -5.852359e-005 3.618703e-005 0.0010432868 0.0054589491
-5.9964354e-005 5.3532014e-005 -0.99388129 -0.069556579 -5.4974826e-006 3.0695319e-005
0.0010536904 0.0054881619 -2.6523499e-005 2.4717938e-005 0.99659723 -0.045780074
501187.23362727 0.95827168 -0.26456428 -7.3504649e-005 8.0941107e-005 0.0011578865 0.0057878233
-6.7319561e-005 3.8044265e-005 -0.99425137 -0.065318927 1.1363945e-005 3.0984636e-005
0.0011273508 0.0057708286 -9.9828285e-006 6.1159502e-005 0.99656397 -0.048360933
530884.44423099 0.95389813 -0.27964717 -7.336538e-005 3.8658909e-005 0.001261482 0.0060709994
-6.9458372e-005 4.4032124e-005 -0.99453622 -0.061340265 -3.2197018e-005 3.3415756e-005
0.0012646504 0.006089549 4.7852054e-006 4.9076873e-005 0.99622768 -0.051171992
562341.32519035 0.94904977 -0.29544175 -8.1213591e-005 4.7997313e-005 0.0014006676 0.0063801752
-8.0470323e-005 5.0491322e-005 -0.99490303 -0.057595313 -1.8768178e-005 2.7305308e-005
0.0014030971 0.0064241048 -3.2085874e-005 2.200706e-005 0.99602568 -0.054195251
595662.14352901 0.94386381 -0.31174311 -7.3340256e-005 6.2955638e-005 0.0015378898 0.0067537772
-8.0811798e-005 4.9866598e-005 -0.99514443 -0.053995438 -1.149504e-005 3.3276676e-005
0.0015465698 0.0067646136 -2.6181733e-005 3.2865792e-005 0.99579006 -0.057196196
630957.34448019 0.93801713 -0.32925522 -0.00011078084 5.0449671e-005 0.0016854946 0.0071328999
-0.00011519845 6.8926238e-005 -0.99521345 -0.05063175 -1.0004677e-005 4.0044972e-005
0.0016857334 0.007109161 -3.0316257e-006 2.1932074e-005 0.99563533 -0.060498055
668343.91756861 0.9312833 -0.34757876 -0.00010462965 6.6499895e-005 0.0018552083 0.0074947714
