!Keysight Technologies,E5080A,MY55100144,A.11.70.03
!Date: Monday, November 13, 2017 17:21:21
!Correction: S11(Full 3 Port(1,2,3)) 
!S12(Full 3 Port(1,2,3)) 
!S13(Full 3 Port(1,2,3)) 
!S21(Full 3 Port(1,2,3)) 
!S22(Full 3 Port(1,2,3)) 
!S23(Full 3 Port(1,2,3)) 
!S31(Full 3 Port(1,2,3)) 
!S32(Full 3 Port(1,2,3)) 
!S33(Full 3 Port(1,2,3)) 
!S3P File: Measurements: <S11,S12,S13>,
!<S21,S22,S23>,
!<S31,S32,S33>:Log Frequency Sweep
# Hz S  RI   R 50
10000 0.9964624 -0.00096265692 -6.6318353e-006 0.00010182611 3.4980751e-006 0.00015910354
-5.2736464e-006 8.7436245e-005 0.99882627 -0.0033449375 1.9278466e-005 0.00068486697
9.9388819e-007 0.00016490494 2.1633345e-005 0.00068676868 0.99997354 -0.002335384
10592.537251773 0.99677193 -0.0012472376 8.7082517e-006 8.6613094e-005 -2.2866343e-005 0.00023316452
-4.0431446e-006 9.5897522e-005 0.99868715 -0.00345423 -6.8860368e-006 0.00072541984
-1.3391646e-005 0.00020141299 -4.6155033e-006 0.00074166281 1.0000293 -0.002172844
11220.18454302 0.99682778 -0.0012336908 3.8579578e-006 0.00014474134 -1.0697624e-005 0.00023281061
-1.8669665e-005 0.00012224504 0.99882281 -0.0035407934 2.3824727e-005 0.00080137193
-2.0949288e-005 0.00020406902 -8.8121369e-006 0.00079069671 1.0000297 -0.0023885509
11885.02227437 0.99674362 -0.0012540512 -1.5345906e-005 0.00013206126 -5.0652266e-006 0.00023307859
-1.0282318e-005 0.00010681038 0.99889821 -0.003604165 -2.4474903e-006 0.0008214367
1.0826321e-007 0.00021024191 5.2174687e-006 0.00083311257 1.0000253 -0.0022569173
12589.254117942 0.99689269 -0.0014588638 4.6455596e-005 0.00015653334 6.0602456e-006 0.00021530081
-6.0495408e-006 0.00011354464 0.99885452 -0.0036821712 1.830868e-005 0.0008863901
2.8633544e-006 0.00021593932 2.7527527e-005 0.0008699777 1.0000331 -0.0025754422
13335.214321633 0.99700594 -0.0013632125 6.2504191e-006 0.00015969037 -2.2768483e-005 0.00022404006
9.5576033e-006 0.00013993595 0.99900746 -0.0041022655 -1.3230039e-005 0.00094661617
8.4129852e-006 0.00024351038 4.8672905e-006 0.0009129172 0.99980426 -0.0025083784
14125.375446228 0.99689603 -0.001613276 2.2730408e-005 0.00012801506 -6.4626324e-006 0.00026190173
5.7898292e-006 0.00015164325 0.99891925 -0.0041511869 2.7534381e-006 0.00097521447
2.5888924e-006 0.00026149183 3.6621637e-005 0.00098861265 1.0000389 -0.0024770407
14962.356560944 0.99680912 -0.0017410739 -3.6123408e-006 0.00016174941 2.2699467e-005 0.00026965013
6.3681287e-006 0.0001460053 0.99907708 -0.0041696867 8.5790289e-006 0.0010468392
-9.4198458e-006 0.00026288073 1.7700837e-005 0.0010393849 1.0000603 -0.0026483268
15848.931924611 0.9970265 -0.0018974798 1.4909177e-005 0.00017080719 -1.467341e-005 0.00030475477
2.1087287e-006 0.00016949368 0.99892277 -0.0046078344 2.5098972e-005 0.0011044604
6.5374447e-006 0.00028806279 2.7490152e-005 0.0011066933 1.0001243 -0.0025418326
16788.040181226 0.99698716 -0.0020519758 2.3020855e-005 0.00015917294 -8.1934086e-006 0.00030576508
-1.0738807e-007 0.00017905352 0.9990899 -0.0047601731 4.7475501e-006 0.001157374
-1.020743e-006 0.00029168461 5.5603459e-006 0.0011596554 1.0000253 -0.0028204061
17782.794100389 0.99707043 -0.0018360774 -1.1603936e-005 0.00014638157 3.3764474e-005 0.00031282537
3.9837405e-006 0.00018064176 0.99911058 -0.0051302109 2.0336376e-005 0.0012268204
1.4414713e-005 0.00032215059 8.753197e-007 0.0012350901 0.99990237 -0.0026572822
18836.490894898 0.99695748 -0.0022819359 6.4808419e-006 0.00017715563 4.5936662e-008 0.0003269311
-4.6487504e-008 0.00018664062 0.99926621 -0.0052048243 2.1547371e-006 0.0013076555
9.0233962e-006 0.00035947381 2.2553126e-005 0.0012962028 0.99988818 -0.0027559171
19952.623149689 0.99691981 -0.0024015165 3.1404372e-006 0.00021604951 -1.0332878e-005 0.00034833248
-7.8884405e-006 0.00020890489 0.9992224 -0.0054592364 1.5716665e-005 0.0013936991
1.8964398e-005 0.00036389119 6.7598667e-006 0.0014061137 0.99997616 -0.0029640771
21134.890398366 0.99694598 -0.002533233 -2.3381413e-006 0.00022576484 -1.4482847e-005 0.00036779829
-8.6282726e-006 0.00023043501 0.99907035 -0.0056813569 1.4773803e-005 0.0014592984
1.0360634e-005 0.00037280613 1.7600467e-005 0.0014821527 0.99982727 -0.0031226678
22387.211385683 0.99684352 -0.0026861026 -1.0513135e-006 0.00024429598 1.2495445e-005 0.00041532962
-4.6067967e-006 0.00022788203 0.99924099 -0.0060257483 1.7665208e-005 0.001553499
-5.1171992e-006 0.00042072503 8.6534883e-006 0.0015573659 0.99985814 -0.0029903259
23713.737056617 0.99690914 -0.0028643052 2.4854146e-005 0.00023689984 2.5108831e-005 0.0004305912
1.3684428e-005 0.00023899606 0.9991554 -0.0064161951 3.1406977e-005 0.0016375458
3.3904652e-007 0.00042581413 1.6872567e-005 0.0016597916 0.99975729 -0.003220682
25118.864315096 0.99688083 -0.0030353658 9.4096322e-006 0.00024737389 -7.3635437e-007 0.00047213372
1.467708e-005 0.00025029309 0.99913359 -0.0067408984 3.4716271e-005 0.0017452071
-3.6822798e-006 0.00045376024 3.3565735e-005 0.0017447333 0.99992418 -0.0033897408
26607.250597988 0.99691081 -0.0031011659 2.7672239e-005 0.00026904955 -8.9194064e-006 0.00047825329
-3.849668e-007 0.00026253794 0.99915832 -0.0071427701 2.6031066e-005 0.0018410063
3.0791682e-006 0.00047464485 2.8801049e-005 0.0018342704 0.99989295 -0.003434187
28183.829312645 0.99701363 -0.003541209 2.2068064e-006 0.00026504078 -6.8372088e-007 0.00047849727
1.4665552e-005 0.00027633799 0.99901563 -0.0073815812 2.4314357e-005 0.0019664781
-5.536177e-006 0.00050607009 3.0632003e-005 0.0019632434 0.99976516 -0.0036054314
29853.82618918 0.99706548 -0.0036475619 3.942032e-006 0.00029140385 8.3881359e-006 0.00054344453
-2.590264e-005 0.00031470531 0.99917072 -0.0077654547 2.2454902e-005 0.00207502
2.5664904e-005 0.00054428796 1.6440737e-005 0.0020802959 0.99977791 -0.0036768713
31622.776601684 0.99695432 -0.0038968746 -1.7023734e-005 0.00032405663 1.2406952e-005 0.00057502306
-2.3716739e-005 0.00033599441 0.99922061 -0.0082862638 2.6234091e-005 0.0022025495
4.0251589e-006 0.00057202316 2.3879376e-005 0.0022095537 0.99982405 -0.0040826304
33496.543915783 0.99688649 -0.0039613694 -6.4628603e-006 0.0003620678 8.4460808e-006 0.00059856917
7.1317099e-006 0.00032009921 0.99903947 -0.0087552425 3.4297867e-005 0.0023439091
1.1521555e-005 0.00058000413 3.3183198e-005 0.00233099 0.99970859 -0.0040972941
35481.338923358 0.99681145 -0.0042431941 1.095655e-005 0.00036619065 4.0843693e-006 0.00063755474
-1.1903295e-005 0.00036054122 0.9993161 -0.0093621956 3.6455425e-005 0.0024557339
7.5719013e-006 0.00064679043 4.5911769e-005 0.0024519679 0.99964565 -0.0042278334
37583.740428844 0.99705327 -0.004475106 2.5000187e-005 0.00037405526 -5.6534882e-006 0.0007026837
9.4199817e-007 0.00037045422 0.99913216 -0.0097240694 3.8707509e-005 0.0026043623
7.0270498e-006 0.00068063842 4.4040346e-005 0.0026115589 0.99958068 -0.0045889001
39810.71705535 0.99693424 -0.0048421682 -4.7559747e-006 0.00041208765 6.5118588e-006 0.00071656844
4.673745e-006 0.00040729062 0.99917787 -0.010291181 3.6630005e-005 0.0027563882
1.0208529e-005 0.00071467779 2.5479101e-005 0.0027496137 0.99970704 -0.0047628665
42169.650342858 0.99684072 -0.0051750527 -2.6323439e-006 0.00041044806 -9.6560534e-006 0.00077147031
4.1585172e-006 0.00044478936 0.99915308 -0.01085917 3.5468034e-005 0.002931457
1.0081909e-005 0.00076824694 4.9144179e-005 0.0029248365 0.99949837 -0.0048894794
44668.359215096 0.9969483 -0.0053282757 -2.1872186e-006 0.00043702411 1.5528263e-005 0.00079658936
5.4566254e-008 0.00044084934 0.99914533 -0.011677654 5.7419384e-005 0.0031040271
3.9943075e-006 0.00080098852 6.7522415e-005 0.0031170286 0.99958181 -0.0054174624
47315.125896148 0.9969871 -0.0056177801 1.6548969e-005 0.00047657543 1.3959258e-005 0.00087321294
7.2132552e-006 0.00047704083 0.99905699 -0.01220703 6.3418331e-005 0.0032793086
4.5132383e-006 0.00084858603 5.2481315e-005 0.0033031502 0.99954021 -0.0054386044
50118.723362727 0.99705708 -0.0060931579 -3.5527892e-006 0.00050229701 7.4107907e-006 0.00090702507
-4.9144967e-007 0.0005121096 0.99907601 -0.012955791 5.4361411e-005 0.0034664602
1.2323566e-005 0.00092168665 7.0559428e-005 0.0034834032 0.99944001 -0.0056465548
53088.444423099 0.99699467 -0.0063664722 -2.9500611e-006 0.00051913678 8.1658682e-006 0.00095738139
4.2982206e-006 0.00053317111 0.99900997 -0.013798683 7.0592279e-005 0.0036670577
2.2037788e-005 0.00095983408 6.2861116e-005 0.0036724044 0.99948454 -0.0060421107
56234.132519035 0.99688971 -0.0068685547 1.2766097e-005 0.00057785877 2.8994282e-005 0.0010080037
1.1103411e-005 0.00058479962 0.99907881 -0.014691577 8.9202949e-005 0.0038981719
2.7683376e-005 0.0010310302 8.9101952e-005 0.0038915356 0.9993912 -0.0062312619
59566.214352901 0.996903 -0.0072586657 1.1445608e-005 0.00059827504 3.3232594e-005 0.0010965457
-1.3752795e-006 0.00061751169 0.99896586 -0.015449207 9.3951014e-005 0.0041624201
2.15412e-005 0.0010639773 9.7894612e-005 0.0041232025 0.99917632 -0.0065715825
63095.734448019 0.99680191 -0.0076868748 -2.1105348e-005 0.00065582042 4.688837e-005 0.0011329936
2.0673983e-006 0.00061392627 0.99886596 -0.016394053 0.00010364738 0.0043646912
1.700523e-005 0.0011429326 0.000118385 0.0043684836 0.99932349 -0.006888323
66834.391756861 0.99683613 -0.0079886988 -7.9544807e-006 0.00067801849 2.3318211e-005 0.0011986186
1.1598588e-005 0.00067051896 0.99885982 -0.017540373 9.7350719e-005 0.0046326164
1.5834932e-005 0.0012287977 0.00011393021 0.00464206 0.99934727 -0.0072708549
70794.578438414 0.99679816 -0.0085271457 5.0081485e-007 0.00073066069 3.4733355e-005 0.0012779657
1.7179384e-005 0.00071957742 0.99873793 -0.018204154 0.00013174218 0.004891423
1.8247551e-005 0.001276419 0.00014246578 0.0049068285 0.99904203 -0.0078262128
74989.420933246 0.99672407 -0.009034669 -1.8301824e-005 0.00076751754 4.4639884e-005 0.001332005
1.3381132e-005 0.00075105543 0.99869084 -0.019266531 0.00014656135 0.0051872781
4.1266263e-005 0.0013456858 0.00012714542 0.0051908069 0.99920553 -0.0080152741
79432.823472428 0.99677968 -0.0094082179 4.768272e-006 0.00080206705 2.4384417e-005 0.0014442285
2.4877484e-006 0.00080342317 0.99865067 -0.020373194 0.00013974424 0.0055211461
2.6803405e-005 0.0014180579 0.00016858533 0.0054889116 0.99917334 -0.0084228255
84139.514164519 0.99675804 -0.010093363 6.9202811e-006 0.00084487727 4.6347079e-005 0.0015120702
4.6127507e-006 0.00082989223 0.99861789 -0.021421639 0.00016269046 0.0058247293
2.6226628e-005 0.0015099719 0.00018981783 0.0058188257 0.9990387 -0.0087964237
89125.093813375 0.99669242 -0.010675503 -3.0067215e-006 0.00089663098 3.7345417e-005 0.0016109212
2.4275931e-005 0.00090525288 0.9985947 -0.022716407 0.00020548058 0.0061681778
4.3692678e-005 0.0015923864 0.00020428865 0.006167355 0.9989993 -0.0093736807
94406.087628592 0.99683028 -0.011338819 7.8792682e-006 0.00094822969 5.1429241e-005 0.0016853771
-1.0834999e-006 0.00096183253 0.99847782 -0.02398126 0.00022123843 0.006516763
4.0285719e-005 0.0017016203 0.00022396426 0.0065242043 0.99910629 -0.0096815536
100000 0.99697971 -0.01186876 -1.2058431e-005 0.0010175614 5.5041328e-005 0.0018100064
1.9316392e-006 0.0010144254 0.9985227 -0.025454026 0.00023945968 0.0069111753
5.7489877e-005 0.0017960798 0.00025978487 0.0068962215 0.99888849 -0.010428127
105925.37251773 0.9969191 -0.012641493 2.6492839e-005 0.0010739727 5.6107019e-005 0.0019173691
-5.6755948e-006 0.0010804163 0.99847853 -0.026934253 0.00026768551 0.0073117851
6.4875552e-005 0.0018989046 0.00024982193 0.0073276521 0.99891174 -0.010880272
112201.8454302 0.99686593 -0.013383822 -2.9298199e-005 0.0011719416 6.5421271e-005 0.0020102435
-2.0232799e-006 0.0011575304 0.9982354 -0.028552558 0.0002971197 0.0077582137
7.6548116e-005 0.0020280895 0.00028694028 0.0077398526 0.99902886 -0.011570239
118850.2227437 0.99692893 -0.014145201 6.2555641e-006 0.0012208028 7.7953635e-005 0.0021490068
1.6037873e-005 0.0012078403 0.9985162 -0.030264132 0.0003213918 0.0081800856
7.2923161e-005 0.0021518951 0.00033249002 0.008207052 0.99917811 -0.012130596
125892.54117942 0.99690622 -0.014966635 -1.4255413e-006 0.0012836149 7.3552088e-005 0.0022652182
-1.272759e-005 0.001277994 0.99847513 -0.031926636 0.00037251276 0.0086402912
5.2121588e-005 0.0022585676 0.00036131317 0.0086510004 0.99915493 -0.012737583
133352.14321633 0.99697208 -0.015865911 -1.168005e-005 0.0013670975 8.1655555e-005 0.0024159038
4.6871087e-006 0.0013554349 0.9984374 -0.033997603 0.00041139399 0.0091676041
7.8020188e-005 0.0024137357 0.00042565644 0.009188042 0.998914 -0.013520271
141253.75446228 0.99681842 -0.016872713 -2.219421e-006 0.0014301317 8.9386544e-005 0.0025065208
5.3256076e-007 0.0014405139 0.99817514 -0.035984132 0.00045750011 0.0097161224
0.00010723654 0.0025158764 0.00048061556 0.0097182095 0.9990117 -0.014298386
149623.56560944 0.99682474 -0.017971361 2.4693479e-006 0.0015321905 9.8460616e-005 0.0026822095
4.9669993e-006 0.0015472036 0.9981125 -0.038133819 0.0005007147 0.010289058
0.00011421165 0.0026694704 0.00051584723 0.010288942 0.9988364 -0.015267672
158489.31924611 0.99686271 -0.019021751 6.5634599e-006 0.0016400734 0.00011538672 0.0028391706
8.0940654e-006 0.001629825 0.99794537 -0.040269926 0.00058930367 0.010869779
0.00011202388 0.0028397508 0.00057354971 0.010873813 0.99897975 -0.015925596
167880.40181226 0.99672657 -0.020060206 7.8140411e-006 0.0017060194 0.00012890615 0.0029929883
-8.0873508e-007 0.0017319656 0.9976511 -0.042774763 0.00065771869 0.01150078
0.00011427164 0.0029953646 0.00063042011 0.011542787 0.99894595 -0.016956791
177827.94100389 0.99682444 -0.021364728 1.5704612e-005 0.0018269713 0.00014276353 0.0031887514
-1.1229835e-005 0.0018363268 0.99759543 -0.045180235 0.00073612761 0.012169127
0.00011826506 0.0031558382 0.00069372071 0.01218277 0.99881119 -0.017929904
188364.90894898 0.99655336 -0.022368751 -5.6800941e-006 0.0019326454 0.0001441794 0.0033410119
1.0548296e-005 0.0019195932 0.99752706 -0.047885828 0.00077984185 0.012895546
0.00015317171 0.003356779 0.00078914559 0.012870196 0.99863213 -0.018985514
199526.23149689 0.99653369 -0.023805853 -1.2780746e-006 0.0020439278 0.00017168547 0.0035513937
-8.0164491e-006 0.0020490361 0.9974122 -0.050713971 0.0008544653 0.013627889
0.0001709413 0.0035415315 0.00086192868 0.013629417 0.99858785 -0.020091865
211348.90398366 0.99661165 -0.02528836 -1.0447696e-005 0.0021502343 0.00017534588 0.0037375109
-1.6448993e-006 0.0021645464 0.99714625 -0.053634945 0.00096113747 0.014405279
0.00018316548 0.0037417801 0.00097005675 0.0143982 0.99842227 -0.021225436
223872.11385683 0.9965145 -0.026727898 -2.1560241e-005 0.0023043556 0.00021700245 0.0039799125
-1.0386948e-006 0.0023150833 0.9968558 -0.056934778 0.0010416706 0.015238376
0.00022522527 0.0039463523 0.001055897 0.01523206 0.99844712 -0.022286709
237137.37056617 0.99639231 -0.028297253 -2.2388953e-005 0.0024452887 0.00022722862 0.0041878219
-6.1628789e-006 0.0024403133 0.99668854 -0.060254615 0.0011815249 0.016094591
0.00021738668 0.0041771131 0.0011689683 0.01612808 0.99837446 -0.023495818
251188.64315096 0.99658465 -0.030015126 1.0762656e-005 0.0025982198 0.00026547554 0.0044249804
-1.8295055e-005 0.0026010736 0.99654841 -0.063793264 0.001301506 0.017030757
0.00023997425 0.004430376 0.0013052635 0.017061578 0.99822176 -0.025063816
266072.50597988 0.99638939 -0.031682886 1.9559813e-005 0.0027580282 0.00026919949 0.0046614637
1.2578843e-005 0.002735174 0.99614757 -0.067433074 0.0014242914 0.017998327
0.00026786013 0.0046687028 0.0014443473 0.018020185 0.99807334 -0.026279928
281838.29312645 0.99618286 -0.0337728 6.7676724e-006 0.0029117726 0.00028721977 0.0049497378
1.4273197e-005 0.0029243852 0.99580133 -0.07145077 0.0015781835 0.019036038
0.00029850903 0.0049556661 0.0015954657 0.01904754 0.99801809 -0.027813859
298538.2618918 0.9959954 -0.035594191 8.457293e-006 0.0031068241 0.00034281853 0.0052342247
2.3573362e-005 0.0030951009 0.99543208 -0.075599283 0.0017488319 0.020137606
0.00032040253 0.005235157 0.0017555081 0.020117952 0.99770439 -0.029499354
316227.76601684 0.99610519 -0.037654858 3.4144334e-005 0.0032880225 0.00039037032 0.0055526211
1.3768025e-005 0.0032808951 0.99498773 -0.080149397 0.0018946803 0.021273835
0.00034805597 0.0055338852 0.001934179 0.021256858 0.99763954 -0.031044517
334965.43915783 0.99598575 -0.04000831 4.4760152e-005 0.0035087215 0.00042700215 0.0058339094
2.5319578e-005 0.0035047259 0.99464023 -0.0846975 0.0021321294 0.022458797
0.00039340425 0.0058538592 0.0021174427 0.022473359 0.99736238 -0.032818835
354813.38923358 0.99583018 -0.042194471 3.4797973e-005 0.0037031448 0.00041820461 0.0061694793
3.6121764e-005 0.0036869398 0.99403453 -0.089745842 0.002346473 0.023723971
0.00041796896 0.0062001455 0.002334835 0.023724224 0.99724942 -0.034663379
375837.40428844 0.99577188 -0.04469822 5.7587837e-005 0.0039424701 0.0004591053 0.0065401313
4.154451e-005 0.0039453725 0.99328792 -0.094971076 0.0025227878 0.025093421
0.00045360764 0.0065439353 0.0025424771 0.025090491 0.99721426 -0.03663563
398107.1705535 0.99560183 -0.047299009 6.0213428e-005 0.0042018644 0.00051005615 0.0069076451
8.6539709e-005 0.0042044846 0.99268413 -0.10050042 0.0028139879 0.02648497
0.0004871125 0.006900331 0.0028077308 0.026519358 0.99696434 -0.038825497
421696.50342858 0.99554431 -0.050087828 8.9075991e-005 0.004443673 0.00054962927 0.0072746859
0.00010109145 0.0044486457 0.99216384 -0.10637004 0.0030787219 0.028012082
0.00054475776 0.0072992914 0.0030834044 0.028005436 0.9967891 -0.041009113
446683.59215096 0.99537855 -0.053233828 0.00011078594 0.0047088903 0.00060213625 0.0077080666
0.00011757477 0.0047026477 0.99127442 -0.1126048 0.0034050855 0.029559392
0.00059960963 0.0077208141 0.0034093156 0.029568668 0.99640208 -0.043261439
473151.25896148 0.99513364 -0.056255128 0.00014934017 0.0050041806 0.00064298679 0.0081640165
0.00015260544 0.0049850512 0.99061424 -0.11916643 0.0037486344 0.031242343
0.00063921593 0.0081550814 0.0037136157 0.031237742 0.99610108 -0.045615625
501187.23362727 0.99471587 -0.059609003 0.00017928587 0.0053017656 0.0007154523 0.0086027058
0.00017104427 0.0052865213 0.98945063 -0.12609103 0.0040643481 0.032982446
0.00071248581 0.0086256042 0.0040904912 0.032988034 0.99602783 -0.048178643
530884.44423099 0.99430758 -0.063244626 0.0002037447 0.0056232875 0.00075988553 0.0091019459
0.00019468565 0.0056463038 0.98855215 -0.13334531 0.0044712238 0.034851223
0.00076456531 0.009096005 0.0044668522 0.034852557 0.99577117 -0.051038127
562341.32519035 0.99419558 -0.066748343 0.00027508964 0.0059743547 0.0008530452 0.0096275639
0.0002368977 0.0059538288 0.98715228 -0.14110292 0.0049095144 0.036804844
0.00084666099 0.0096244169 0.0049120421 0.036819942 0.99536002 -0.054062039
595662.14352901 0.99411798 -0.070460573 0.0002901004 0.0063313413 0.00090846524 0.010156656
0.00028507196 0.0063233748 0.98580986 -0.14939411 0.0053945198 0.038848337
0.00089255703 0.010161635 0.0053878268 0.038876742 0.99496496 -0.057094414
630957.34448019 0.99386603 -0.074658044 0.00035941249 0.0067271874 0.00097409409 0.010730807
0.00036796249 0.0067315223 0.98441941 -0.15808424 0.0059106117 0.04102803
0.00098948472 0.010756483 0.0059364401 0.04105841 0.9946143 -0.0602112
668343.91756861 0.99337578 -0.079145201 0.0004311972 0.0071011549 0.0010822988 0.011337464
0.00041151169 0.0071212337 0.98272723 -0.16715427 0.0064936061 0.043331299
0.001071147 0.011344541 0.0065282434 0.043362044 0.99423844 -0.063645244
707945.78438414 0.99307007 -0.083899044 0.0004888628 0.0075800363 0.0011581326 0.012007448
0.00050668349 0.0075578489 0.98045814 -0.17699069 0.0071700243 0.045739945
0.0011764881 0.012008977 0.0071954718 0.045763183 0.99396789 -0.067314871
749894.20933246 0.99255449 -0.088968389 0.00058942306 0.0080158934 0.0012596798 0.012670236
0.00057926582 0.0079941386 0.97816581 -0.18703976 0.0078526102 0.04829336
0.001265961 0.012689007 0.0078990068 0.048299406 0.99323881 -0.071101606
794328.23472428 0.99178755 -0.094286665 0.00067425414 0.0084544206 0.0013921864 0.013424078
0.00065688667 0.0084854746 0.97659653 -0.19692639 0.0086538838 0.05098322
