!Keysight Technologies,E5080A,MY55100144,A.11.70.03
!Date: Monday, November 13, 2017 17:24:28
!Correction: S11(Full 3 Port(1,2,3)) 
!S12(Full 3 Port(1,2,3)) 
!S13(Full 3 Port(1,2,3)) 
!S21(Full 3 Port(1,2,3)) 
!S22(Full 3 Port(1,2,3)) 
!S23(Full 3 Port(1,2,3)) 
!S31(Full 3 Port(1,2,3)) 
!S32(Full 3 Port(1,2,3)) 
!S33(Full 3 Port(1,2,3)) 
!S3P File: Measurements: <S11,S12,S13>,
!<S21,S22,S23>,
!<S31,S32,S33>:Log Frequency Sweep
# Hz S  RI   R 50
10000 0.99678808 -0.0044414164 -1.2810927e-005 8.5378002e-007 1.8515682e-005 0.00012664971
-7.4203822e-006 5.772004e-006 0.4681702 -0.87015617 -2.1151986e-006 2.6615437e-006
1.9997731e-005 0.0001264465 -4.2873139e-006 -1.4041216e-006 0.99989694 -0.002569092
10592.537251773 0.9967829 -0.0047057266 -2.1637468e-005 1.04155e-005 -2.1834498e-005 0.00016638022
-3.1887623e-005 8.8198703e-006 0.42314184 -0.89217192 1.1680194e-005 4.6879313e-006
5.7275993e-006 0.0001625764 -6.1977134e-006 -1.4699049e-005 1.0000693 -0.0024000052
11220.18454302 0.99689651 -0.0050386861 -6.0990078e-006 2.8398163e-005 1.0741932e-005 0.00015911688
-8.8121769e-006 2.4559001e-006 0.37500793 -0.91231948 -6.506345e-006 -1.6599247e-006
2.0887021e-005 0.00014150585 5.6892245e-006 1.2663962e-005 1.0000062 -0.0025406179
11885.02227437 0.99673927 -0.005228803 -1.4795155e-005 1.3264045e-005 1.0829517e-005 0.00015271881
-1.9709334e-005 1.6145883e-005 0.32550356 -0.93030185 -2.1601489e-005 -7.3859615e-006
1.7505889e-005 0.00016365371 -9.4981042e-006 -1.6254531e-005 1.0001419 -0.0024877181
12589.254117942 0.99709451 -0.0056884084 -1.4773442e-005 1.4476898e-005 3.1036807e-006 0.00017902347
-2.1155738e-005 1.2417918e-005 0.274252 -0.9458611 -1.2555096e-005 1.6276299e-005
-4.046346e-006 0.00016962321 -1.7298518e-005 -1.8365816e-005 1.0000724 -0.0025173684
13335.214321633 0.99696863 -0.0059262896 -2.0464206e-006 -1.963525e-005 -5.9337658e-006 0.00018288428
-1.967255e-005 1.2052596e-005 0.22126213 -0.95902246 -2.1102298e-005 -2.6123773e-006
7.5738317e-006 0.00018408819 -1.4979363e-005 -1.1555867e-006 0.99983871 -0.0024196738
14125.375446228 0.99686456 -0.0062478324 -3.3623895e-005 1.3752319e-006 -8.1156095e-006 0.00020121282
-2.9184981e-005 2.7515032e-005 0.16696422 -0.96878189 1.5704435e-006 6.2409599e-006
-2.1315378e-005 0.00021157824 -2.8472391e-006 3.7085001e-006 1.0000392 -0.0025061767
14962.356560944 0.99689496 -0.0065575796 -1.3109238e-005 1.8113273e-005 2.4168498e-006 0.00020789397
-2.0665479e-005 2.6143332e-005 0.11190907 -0.97633451 -1.0247662e-005 -6.5484903e-007
-2.2332729e-006 0.00021793076 7.1518762e-006 3.9523075e-006 1.000087 -0.0025818823
15848.931924611 0.99706763 -0.0070758816 -1.2535661e-005 1.1373802e-005 -8.6888222e-006 0.00022568021
-1.0306848e-005 1.4810266e-005 0.055715855 -0.9800173 -8.0140089e-006 -9.2755608e-006
1.4556964e-005 0.00021902697 1.2817359e-006 -3.6020449e-006 1.0000517 -0.0025798071
16788.040181226 0.99690539 -0.0076052789 -2.1141317e-005 9.1898737e-006 9.1535994e-006 0.00022996397
-6.0674024e-006 3.8030164e-005 -0.0003451333 -0.98060119 -8.3382738e-006 1.3287074e-005
7.5233911e-006 0.00025979176 -1.0112175e-005 9.6543263e-006 1.0001254 -0.002892989
17782.794100389 0.99692923 -0.0077131875 -1.0839396e-005 3.4837762e-005 -5.6784356e-006 0.00027018564
-2.7846079e-005 2.779042e-005 -0.056471929 -0.97821486 1.6683365e-005 4.7843064e-006
1.2458442e-005 0.00023872459 -1.6752225e-005 1.9419052e-005 0.9999454 -0.0028332158
18836.490894898 0.99715936 -0.008393296 -4.3518277e-005 8.0720183e-006 3.1013906e-006 0.00025189575
-1.8090303e-005 4.4602049e-005 -0.11213732 -0.97275072 -1.4540085e-005 1.1048381e-005
1.2029892e-006 0.00026482146 -1.3789455e-005 -1.7861628e-005 0.99991357 -0.002729588
19952.623149689 0.99690568 -0.0087517668 -1.4630969e-005 3.6523674e-005 4.7245039e-006 0.0002479759
-3.2501204e-005 5.1573901e-005 -0.16667485 -0.96431535 -5.9868089e-006 1.7341594e-005
7.4058566e-006 0.00027670374 1.9092304e-005 1.3066671e-005 0.99990958 -0.0029825324
21134.890398366 0.9968999 -0.0094405133 -1.7740953e-005 3.3588352e-005 3.2967255e-005 0.00028564071
-3.6533915e-005 4.5784527e-005 -0.22060853 -0.95266086 -9.4535681e-006 9.5404366e-006
-9.3874951e-006 0.00028632133 1.2294954e-006 8.5418588e-007 0.99985766 -0.0031394244
22387.211385683 0.99688005 -0.0099097211 -1.1296382e-005 2.4920675e-005 -5.4006341e-006 0.00032159334
-1.7551469e-005 5.3442316e-005 -0.27277589 -0.93833524 -2.1719081e-006 2.0731415e-005
1.4151427e-005 0.00029197911 -1.9862786e-005 -4.8988472e-006 0.99993396 -0.0032543968
23713.737056617 0.99694592 -0.010491136 8.9918231e-006 1.6820783e-005 2.019302e-005 0.00032008314
-3.0833377e-005 5.3433752e-005 -0.32328957 -0.92125791 -2.4318264e-005 1.1515679e-005
1.9033456e-005 0.00033290032 -1.8650297e-006 2.3863377e-005 0.99971664 -0.0031602085
25118.864315096 0.99690872 -0.011025538 -1.8422845e-005 4.1059015e-005 -2.0554162e-006 0.00034738061
-2.6043084e-005 5.820053e-005 -0.37199703 -0.90238905 -1.1754899e-005 1.1106027e-005
3.6745911e-005 0.00033569068 1.2700845e-005 1.2056348e-005 0.99994904 -0.0033581695
26607.250597988 0.99699348 -0.011679741 -2.2581666e-005 2.8774763e-005 6.6800585e-006 0.00038045758
-1.3516556e-005 5.595899e-005 -0.41844419 -0.88130307 -1.0340218e-005 1.1518418e-005
1.343425e-005 0.00038005633 -9.7889815e-006 2.6594396e-005 0.99990076 -0.0035244636
28183.829312645 0.99689043 -0.012591374 -2.7567581e-005 4.4853863e-005 -7.8329485e-006 0.0003782885
-3.0030465e-005 5.9607282e-005 -0.46291447 -0.85822642 -2.1915272e-005 5.3068989e-006
3.1041743e-006 0.00038887808 -3.3780496e-005 1.4180393e-005 0.99983466 -0.0036100536
29853.82618918 0.996952 -0.01302014 -2.0707801e-005 5.014487e-005 8.886962e-006 0.00041902269
-2.7818891e-005 7.5461365e-005 -0.50469542 -0.83376706 -1.6460452e-005 3.204219e-005
1.1138077e-005 0.00040124619 -3.0466153e-006 2.7926895e-005 0.99975336 -0.003628212
31622.776601684 0.99701613 -0.014035941 -8.4653921e-006 1.7605145e-005 4.8564624e-007 0.00042128281
-3.6194979e-005 7.4347947e-005 -0.54404163 -0.80821311 -4.3189889e-006 2.7549961e-005
1.5144668e-005 0.00044248128 -2.2661952e-005 3.0443816e-005 0.99977863 -0.0040701455
33496.543915783 0.99697334 -0.014599539 -1.6142059e-005 5.5257336e-005 -5.6516166e-007 0.00046537246
-1.400058e-005 9.2948198e-005 -0.58101672 -0.78152156 -1.9768426e-005 3.2559299e-005
-1.6893146e-005 0.00047579041 -1.4253628e-005 2.0392805e-005 0.99979979 -0.0041570216
35481.338923358 0.99684262 -0.01552571 -2.3407069e-005 4.2040778e-005 1.0063201e-005 0.00049611955
-3.1263153e-005 8.9285626e-005 -0.61566943 -0.75407636 -9.9810704e-006 2.3505581e-005
-1.0995897e-005 0.00049292808 -1.7444192e-005 2.1082218e-005 0.99981093 -0.0043141404
37583.740428844 0.99694264 -0.016559269 -9.7677093e-006 6.2954648e-005 2.0420373e-005 0.00050421554
-4.3731379e-005 0.0001084207 -0.64774168 -0.72638333 -1.9171899e-005 2.505705e-005
1.5850768e-005 0.00051722146 -1.365393e-005 3.9391954e-005 0.99957544 -0.0046231826
39810.71705535 0.99680293 -0.017515404 -3.3754804e-005 6.5919565e-005 2.1262445e-005 0.00053596363
-4.2499385e-005 0.0001116665 -0.67748034 -0.69839799 -2.0650185e-005 3.7061254e-005
2.1454895e-005 0.00056241575 -1.621573e-005 4.6733003e-005 0.99961585 -0.0047472538
42169.650342858 0.99679488 -0.018449334 8.5274978e-006 9.9100464e-005 2.2865603e-005 0.00057797355
-2.9343522e-005 0.00011472567 -0.70490897 -0.67042255 -1.6099117e-005 2.9652809e-005
1.1874935e-005 0.0005972184 -2.3408643e-006 3.5283556e-005 0.99957633 -0.0048489687
44668.359215096 0.99682623 -0.019590132 -1.1590007e-005 7.022504e-005 -1.1665225e-006 0.00061267038
-2.8620088e-005 0.00012174212 -0.73023945 -0.64251071 -1.1155968e-005 3.4277338e-005
2.044525e-005 0.00062111876 -3.5626621e-005 3.1696298e-005 0.99954671 -0.0052362778
47315.125896148 0.99692333 -0.020652452 -2.5278099e-005 6.7074958e-005 9.7142192e-006 0.00065376877
-3.7295405e-005 0.00013271575 -0.75341326 -0.61491448 -1.0115368e-005 3.9390357e-005
1.0730763e-005 0.0006665517 6.453125e-006 2.3401288e-005 0.99944687 -0.0054924875
50118.723362727 0.99669963 -0.021936592 -2.9120132e-005 9.6857926e-005 1.8648749e-005 0.00068170152
-3.6384445e-005 0.00012417721 -0.7746762 -0.58765233 -4.7744179e-006 4.6364989e-005
1.3749789e-005 0.00069707813 -5.5230926e-006 3.3820441e-005 0.9994151 -0.0056260088
53088.444423099 0.99681759 -0.023192765 -2.8534547e-005 6.9088601e-005 1.0181972e-005 0.00073764491
-1.9676281e-005 0.00016356229 -0.79408377 -0.56100214 -8.2558436e-006 4.8838869e-005
9.6361928e-006 0.00074535876 -2.5748719e-005 5.5294076e-005 0.99952638 -0.0059826868
56234.132519035 0.9965685 -0.02477329 -3.5469173e-005 7.9367557e-005 2.7831127e-005 0.0007788415
-3.2927208e-005 0.00016485872 -0.81169844 -0.53512454 -2.8197675e-005 4.3430522e-005
3.0959269e-005 0.00077857712 -2.5128667e-005 3.2555974e-005 0.99938512 -0.0063942978
59566.214352901 0.99662602 -0.026096486 -2.3605806e-005 0.00010293113 6.5953486e-006 0.00081520906
-4.3301396e-005 0.00016543419 -0.82781678 -0.50980371 -2.2939023e-005 4.7809972e-005
3.7855531e-005 0.00080771209 -4.3303667e-006 4.8973034e-005 0.99933052 -0.006574471
63095.734448019 0.99643779 -0.027609434 -2.724672e-005 0.00012382896 2.55909e-005 0.00088964083
-2.696364e-005 0.00017982993 -0.8423155 -0.48521665 -2.2660224e-005 4.6126141e-005
3.5451674e-005 0.00087324076 -3.418472e-006 5.1906089e-005 0.99936348 -0.0070268577
66834.391756861 0.99643183 -0.029207924 -2.5615214e-005 0.0001120068 2.8276061e-005 0.00092674739
-3.9271657e-005 0.00018339591 -0.85551161 -0.46141928 -1.8705334e-005 6.2819054e-005
2.1274389e-005 0.00091494416 4.9478376e-006 7.2310904e-005 0.99947643 -0.0071378495
70794.578438414 0.99623263 -0.030873409 -1.7072642e-005 0.00014273747 1.6335202e-005 0.00098961627
-3.3943699e-005 0.00019973154 -0.86750019 -0.43864253 -1.2483363e-005 6.8819856e-005
1.6479442e-005 0.00097561523 -1.6220863e-005 4.8625927e-005 0.99911863 -0.0077547082
74989.420933246 0.99629372 -0.032782823 -6.2046151e-005 0.00015145779 3.1720112e-005 0.0010362352
-4.2828433e-005 0.00021243602 -0.87830019 -0.41662881 -1.8983539e-005 6.5613822e-005
4.6022018e-005 0.0010449832 1.3525474e-006 5.2358639e-005 0.99925315 -0.007987204
79432.823472428 0.99619126 -0.03464346 -3.3265835e-005 0.0001269982 2.0292795e-005 0.0010752678
-4.3904653e-005 0.00022397371 -0.88809842 -0.39534476 -9.3305616e-006 6.1594204e-005
3.2066615e-005 0.0011002112 -1.664384e-005 5.4141183e-005 0.99915588 -0.0084408708
84139.514164519 0.9961651 -0.036544651 -1.2788343e-005 0.00018524214 5.7573747e-005 0.0011296339
-2.310992e-005 0.00023545485 -0.89684474 -0.3750934 -3.0491359e-005 6.7518653e-005
5.6638604e-005 0.0011736797 3.3657477e-006 6.3238178e-005 0.99909025 -0.0088232085
89125.093813375 0.99612552 -0.038790841 -4.6148762e-005 0.00015859627 5.3778622e-005 0.0012295442
-3.2191216e-005 0.00024663933 -0.9047398 -0.35563761 -1.8298446e-005 7.7514887e-005
3.9073038e-005 0.0012269414 3.4310101e-006 8.4784348e-005 0.99910146 -0.009377351
94406.087628592 0.99600869 -0.041096807 -1.0351978e-005 0.00018576636 5.4001979e-005 0.0012873432
-4.4455941e-005 0.00027618368 -0.91188073 -0.33706957 -2.2357504e-005 8.2046136e-005
6.9423935e-005 0.0013076403 -1.4568497e-005 6.6110282e-005 0.99904835 -0.0097037544
100000 0.99600041 -0.043402828 -1.3978522e-005 0.00020528931 5.7794088e-005 0.0013711769
-3.5262474e-005 0.00027205516 -0.91830039 -0.3192575 -1.8549154e-005 8.3817198e-005
5.1551862e-005 0.0014030454 -1.7741905e-006 9.5384334e-005 0.99918014 -0.010398159
105925.37251773 0.99592108 -0.046079069 -3.8650251e-005 0.00019760236 8.2945233e-005 0.0014571395
-3.2401374e-005 0.00030265705 -0.92405629 -0.30238345 -1.3282004e-005 9.0868103e-005
5.3582429e-005 0.0014501386 -4.8208117e-006 0.000105756 0.99884772 -0.010884936
112201.8454302 0.99581057 -0.048717335 1.3201724e-006 0.00020365445 7.4923184e-005 0.0015231046
-3.6896759e-005 0.00031783231 -0.92923403 -0.28627363 -1.7844352e-005 9.5758107e-005
8.0709564e-005 0.0015316629 -2.7798576e-005 8.7448119e-005 0.99901646 -0.011597793
118850.2227437 0.99558365 -0.05168236 -3.2613025e-005 0.00019733737 7.901316e-005 0.0016278398
-4.7726295e-005 0.00034293195 -0.93385774 -0.27091679 -4.4381241e-006 0.00010196258
7.3324059e-005 0.0016331824 -5.4474344e-006 0.00013211189 0.99916828 -0.012111024
125892.54117942 0.99547863 -0.054624546 -3.5663925e-005 0.00021959745 7.8755344e-005 0.0017263554
-2.4829551e-005 0.00034962164 -0.9379499 -0.25633463 -9.0830799e-006 0.00012121396
9.7677454e-005 0.0017351172 -4.2512235e-007 0.00011521276 0.99921 -0.012860921
133352.14321633 0.99524993 -0.057929821 -2.6683176e-005 0.00024254323 0.00010549536 0.0018167483
-3.1334908e-005 0.00036624187 -0.94175047 -0.24242231 -2.2362212e-005 0.00012381849
8.7455985e-005 0.0018337647 -4.0884629e-006 0.00010298352 0.99894875 -0.013527739
141253.75446228 0.99504274 -0.06147787 -1.4517909e-005 0.00026524937 0.00011754478 0.0019172188
-2.7927472e-005 0.0004010105 -0.94503254 -0.22923532 -8.5415622e-006 0.0001286106
0.00010792488 0.0019555041 -2.0893352e-005 0.00013667994 0.99905038 -0.014284597
149623.56560944 0.99483079 -0.065008834 -2.5118532e-005 0.00029285086 9.8813718e-005 0.0020390374
-3.7146656e-005 0.00041511236 -0.94801241 -0.21667618 -1.9435258e-005 0.00013322379
0.00011598424 0.0020621258 -2.3157958e-005 0.00011114954 0.99901974 -0.015238173
158489.31924611 0.99445748 -0.068792082 -3.0874609e-005 0.00029801371 0.00014811818 0.0021656116
-3.7426853e-005 0.00044791546 -0.95076102 -0.20472103 -1.1663526e-005 0.00012754372
0.00014231101 0.0021992873 -3.5385292e-005 0.00013377448 0.99902844 -0.015999898
167880.40181226 0.9940387 -0.072976641 -3.3762455e-005 0.00028443383 0.00015469996 0.0022768714
-1.8986191e-005 0.0004581346 -0.95321757 -0.19342647 -9.8711071e-006 0.00015145914
0.00016414183 0.0022947455 8.4210769e-006 0.00016507601 0.99900049 -0.016998703
177827.94100389 0.99388772 -0.077252455 -3.1285814e-005 0.00035136531 0.00018759241 0.0024154615
-2.9012414e-005 0.00050361815 -0.95469344 -0.18169267 -5.0600661e-006 0.00015519749
0.00016120276 0.0024426037 -2.5996414e-005 0.00016220457 0.99868447 -0.017924314
188364.90894898 0.99318558 -0.081788898 -3.4563727e-005 0.00035245437 0.00019550619 0.0025432343
-3.1955988e-005 0.00052784907 -0.95713645 -0.17311916 -4.0799973e-006 0.00015702278
0.00018665935 0.0025736799 -4.2702054e-006 0.00015444346 0.99871242 -0.018984841
199526.23149689 0.99275887 -0.086676598 -3.2623997e-005 0.00034988567 0.00022983292 0.0027084968
-3.7453519e-005 0.00055598072 -0.9588908 -0.16336162 -1.4464395e-005 0.00016581197
0.00020632116 0.0027176726 -1.5953194e-005 0.00017368441 0.99876404 -0.020178868
211348.90398366 0.99245942 -0.091715112 -6.713939e-006 0.00037640505 0.00024998112 0.0028455227
-1.6051981e-005 0.00057868101 -0.96043408 -0.15426281 -1.4979993e-005 0.00017318703
0.00022101925 0.0028820259 -3.6666981e-006 0.00018684902 0.99855161 -0.021148516
223872.11385683 0.99184442 -0.0970532 -2.8500206e-005 0.00042037616 0.00027592047 0.0030169163
-1.6412429e-005 0.00062295556 -0.96190393 -0.14566064 1.2318875e-006 0.00019342745
0.00026763944 0.0030418911 -2.4638608e-005 0.00020257523 0.99847466 -0.022346554
237137.37056617 0.9912917 -0.10271382 -7.7605964e-006 0.00044880414 0.00031112469 0.0032059569
-1.6035039e-005 0.00066368631 -0.96303093 -0.13742585 -1.8951283e-005 0.00019263418
0.00030216039 0.0032277743 2.4504661e-006 0.00022947199 0.99844104 -0.023614904
251188.64315096 0.99076694 -0.10890298 -1.427563e-005 0.00045981753 0.00034835259 0.0033664836
-2.4648667e-005 0.00069727778 -0.96425605 -0.12965688 -8.5081217e-007 0.00021682223
0.00034206326 0.0034088057 3.7917914e-007 0.00021794216 0.99848443 -0.025029456
266072.50597988 0.9897939 -0.11518031 3.3490971e-006 0.00048620207 0.00037744586 0.0035580599
-7.3958959e-006 0.00073369197 -0.96518916 -0.12236037 -4.9361256e-006 0.0002319273
0.00034388117 0.003582224 -3.6783642e-006 0.00022037963 0.99818337 -0.02640054
281838.29312645 0.98895395 -0.1222531 -2.2859267e-006 0.00053033244 0.00043679078 0.0037526756
-1.9080193e-005 0.00078130816 -0.96610904 -0.11552894 -1.1245362e-005 0.0002568395
0.00039478746 0.0037706608 4.9481073e-006 0.00025045677 0.99815202 -0.027874848
298538.2618918 0.98799604 -0.12918486 1.5997193e-005 0.00057985756 0.00044857405 0.0039757416
3.7080072e-006 0.00081869343 -0.96679032 -0.10886081 -2.0057259e-006 0.00027129985
0.00043007848 0.0040119844 8.3153609e-006 0.00026681289 0.99804229 -0.029544881
316227.76601684 0.98687607 -0.13678782 -1.3700305e-005 0.00058552786 0.00050304423 0.0041862903
-7.8489065e-006 0.00086662552 -0.96748239 -0.10271143 -1.0661258e-005 0.00027436833
0.00049660116 0.0042257835 4.0299969e-006 0.00027351093 0.99789226 -0.031163255
334965.43915783 0.98554838 -0.14473106 2.6890539e-006 0.00061788905 0.00057580631 0.0044282349
-4.9970445e-006 0.00094173558 -0.96825647 -0.09697035 5.9041604e-006 0.00028501509
0.00054784794 0.004476585 -1.1587709e-005 0.00026786519 0.99764663 -0.032938845
354813.38923358 0.98434007 -0.15306215 -3.1824129e-006 0.00065827789 0.000626177 0.004681028
7.7110826e-006 0.00097084854 -0.96881998 -0.091236256 -6.1415294e-006 0.0002946317
0.00061333837 0.0047116145 -2.1647431e-005 0.00029606806 0.99758935 -0.034829326
375837.40428844 0.98293388 -0.16197275 -2.5232837e-006 0.00071173534 0.00068965327 0.0049351593
3.8651137e-006 0.0010341574 -0.96927994 -0.085970253 -9.4933921e-006 0.00032086912
0.00065965863 0.0049955552 -2.2231468e-005 0.00032903432 0.9973886 -0.036697093
398107.1705535 0.9812271 -0.17149551 1.745772e-005 0.00074483029 0.00075776328 0.0052351514
7.8765606e-006 0.0010920708 -0.96978116 -0.080808476 8.6209075e-006 0.0003436472
0.00072497921 0.005289604 -2.0101619e-005 0.00035195804 0.99732041 -0.038950376
421696.50342858 0.97925365 -0.1813257 5.1377028e-006 0.00078993989 0.0008308742 0.0055033192
2.0373307e-005 0.0011656471 -0.96990091 -0.075722709 1.8530582e-006 0.00034924943
0.00082014746 0.0055427207 1.5761736e-005 0.00036983017 0.99720913 -0.041171424
446683.59215096 0.97729522 -0.19193962 1.0852067e-005 0.00086352194 0.0009133119 0.0058229058
2.2245969e-005 0.001237737 -0.96999747 -0.07212159 1.7563496e-005 0.00038361436
0.00087782781 0.0058531356 5.237514e-006 0.0003592438 0.99677694 -0.043550476
473151.25896148 0.97485536 -0.20280688 2.6403746e-005 0.00087966112 0.0010094078 0.0061279959
3.3848592e-005 0.001309696 -0.97070843 -0.068025939 -2.4919061e-006 0.00039685823
0.00098022528 0.0062002386 -2.0857498e-005 0.00039986768 0.99673444 -0.045994893
501187.23362727 0.97210199 -0.21463202 -4.0587797e-006 0.00095910492 0.001109543 0.0064629219
5.0219067e-005 0.0013802584 -0.97111517 -0.063868694 -9.2796681e-006 0.00043164249
0.0011128266 0.0065332432 2.2472581e-005 0.00042386129 0.99646968 -0.04843558
530884.44423099 0.96910727 -0.22712454 2.0616219e-005 0.00099559198 0.0012346648 0.0068368046
6.0012437e-005 0.0014594675 -0.97138959 -0.059947766 3.1867692e-006 0.0004440739
0.0012003848 0.0068968078 -1.9767205e-005 0.00043366855 0.99636853 -0.051193301
562341.32519035 0.96583885 -0.23985009 2.8775888e-005 0.0010553232 0.0013563259 0.0071613481
6.5355271e-005 0.0015517486 -0.97170764 -0.056268197 -3.764751e-006 0.00046349515
0.0013412302 0.0072737751 1.0936089e-005 0.00046780531 0.99603999 -0.054234311
595662.14352901 0.96224684 -0.2534014 4.905308e-005 0.0011240592 0.0014887169 0.0075855437
7.8172525e-005 0.0016279507 -0.97192043 -0.052810989 -1.069613e-007 0.00049953617
0.0014787834 0.0076707904 -3.6625161e-006 0.00052111782 0.99570727 -0.057350092
630957.34448019 0.95828295 -0.26781997 5.2436702e-005 0.001169341 0.0016549922 0.0080140447
9.1331945e-005 0.0017364487 -0.97204524 -0.049487837 1.9937561e-006 0.00053118845
0.0016036995 0.0081125321 8.4432159e-008 0.00056649541 0.99554807 -0.060582217
668343.91756861 0.95370793 -0.28284767 7.9616126e-005 0.0012472629 0.0017862704 0.00842667
0.00012030912 0.0018210422 -0.97223639 -0.046480179 2.2642967e-006 0.0005525701
0.0017682555 0.0085194008 -7.2175244e-006 0.00057729933 0.99525905 -0.064008228
