!Keysight Technologies,E5080A,MY55100144,A.11.70.03
!Date: Monday, November 13, 2017 17:23:50
!Correction: S11(Full 3 Port(1,2,3)) 
!S12(Full 3 Port(1,2,3)) 
!S13(Full 3 Port(1,2,3)) 
!S21(Full 3 Port(1,2,3)) 
!S22(Full 3 Port(1,2,3)) 
!S23(Full 3 Port(1,2,3)) 
!S31(Full 3 Port(1,2,3)) 
!S32(Full 3 Port(1,2,3)) 
!S33(Full 3 Port(1,2,3)) 
!S3P File: Measurements: <S11,S12,S13>,
!<S21,S22,S23>,
!<S31,S32,S33>:Log Frequency Sweep
# Hz S  RI   R 50
10000 0.99697751 -0.0016778774 -5.2818627e-006 0.00038505657 -2.4399824e-006 0.00015324308
7.1272989e-006 0.00037341804 0.99890012 -0.0036960037 1.628608e-005 0.00070318661
1.8011566e-005 0.00015737744 2.1632854e-005 0.00070312776 0.999807 -0.0023427107
10592.537251773 0.99684447 -0.0019018486 1.9128121e-005 0.00041467263 1.3124403e-005 0.00015593348
-3.1404397e-007 0.0003937718 0.99863821 -0.0037256533 1.5014014e-005 0.00074602943
-3.8035162e-006 0.00017994086 1.2291577e-005 0.0007587024 0.99990582 -0.0021397842
11220.18454302 0.99703491 -0.0019380285 -7.8358253e-006 0.00041890179 -7.6095203e-006 0.00019091903
2.4971889e-005 0.0004283704 0.99874759 -0.0040181777 6.0920697e-006 0.00079374993
-2.7510665e-005 0.00018360491 3.3866672e-006 0.00079776632 0.99995178 -0.0024951717
11885.02227437 0.99695444 -0.0021537165 2.2211309e-005 0.00044507984 2.3285955e-005 0.00019547681
-1.1860602e-005 0.00044072673 0.99896842 -0.004121623 1.170763e-005 0.00083973224
5.2394926e-006 0.00016036397 -1.658725e-005 0.00084302551 1.0000288 -0.0024028039
12589.254117942 0.99707639 -0.0021622309 3.6328515e-006 0.00046951981 1.8547396e-006 0.00020211966
9.239131e-006 0.00047220185 0.99886948 -0.004289207 3.1541047e-005 0.00089764211
8.8285351e-006 0.00020318336 -3.8112958e-007 0.00090548175 0.99986696 -0.0023077447
13335.214321633 0.99714893 -0.0022758846 -1.6475116e-005 0.00049277977 2.0979069e-005 0.00021921952
1.4196812e-005 0.00051347859 0.99916124 -0.004508106 1.0701991e-005 0.00094812515
7.2652915e-006 0.00021229582 1.1166846e-005 0.00094634335 1.0000339 -0.0024879137
14125.375446228 0.99710482 -0.0024352905 1.6722171e-005 0.00051594421 -2.1439309e-006 0.00024797113
-2.855554e-005 0.00053588068 0.99908841 -0.004678925 -2.0391754e-007 0.0010173839
-4.9507034e-006 0.00024080259 -1.4843877e-005 0.0010149055 1.0000296 -0.0023960969
14962.356560944 0.99700075 -0.002588595 -4.7284352e-006 0.00056708121 -6.3702328e-006 0.00024570947
1.3859951e-005 0.0005589159 0.99911004 -0.0047777523 3.4046827e-006 0.0010707518
-5.4194388e-006 0.00024256254 1.4944337e-005 0.0010605616 0.99991602 -0.0027649885
15848.931924611 0.99718434 -0.002795903 8.2899733e-006 0.00060120039 -1.2153873e-006 0.00028004413
-6.7216292e-006 0.00060239085 0.99907452 -0.0052090809 3.8130845e-005 0.0011236602
-1.3104188e-005 0.0002610012 2.1996293e-005 0.0011444566 1.0000511 -0.0024780885
16788.040181226 0.9970476 -0.0029857026 1.6095133e-005 0.00063371623 2.654878e-006 0.00028317954
-5.0600811e-006 0.00058646139 0.99911577 -0.0052406224 1.5186045e-005 0.0011674283
7.2977246e-006 0.0002758909 -9.9197259e-006 0.0011910847 0.99995464 -0.0027770023
17782.794100389 0.99714267 -0.0028631766 -1.8558949e-006 0.00064702472 -1.3813471e-005 0.00026160351
1.7309661e-005 0.00066628528 0.99907374 -0.0056688804 2.4917941e-005 0.0012796726
-1.4547063e-005 0.00030154391 1.369964e-005 0.0012725249 1.0000985 -0.0027897002
18836.490894898 0.99726689 -0.0031115131 -6.339968e-006 0.00071275438 -1.6175845e-005 0.00031239283
3.1006844e-006 0.00071026303 0.99914396 -0.0058931573 2.8214694e-005 0.0013427371
-9.7402954e-006 0.00030188594 3.3656972e-005 0.0013508878 0.99983293 -0.0028540909
19952.623149689 0.99704707 -0.0035119397 1.2139329e-005 0.00073442975 3.5183635e-005 0.00032935475
3.5737357e-005 0.00075163669 0.99915689 -0.0061076698 3.181057e-005 0.0014440484
2.9520847e-006 0.00031569603 9.1416359e-007 0.0014098497 0.9999302 -0.0028933701
21134.890398366 0.99721152 -0.0036120834 7.8463563e-006 0.00079376873 8.2298293e-006 0.00035565632
1.032205e-005 0.00079110608 0.99906451 -0.006516757 6.3782609e-006 0.0014963796
-1.9847259e-005 0.00033890805 3.96375e-005 0.0015005569 0.99986672 -0.0030947935
22387.211385683 0.9971267 -0.0038901644 -3.7298826e-006 0.00084829557 -1.9759011e-006 0.0003703993
1.402447e-005 0.0008448899 0.99905318 -0.0068819062 3.0171319e-005 0.0015873497
-5.3050094e-006 0.00035894985 3.5583595e-005 0.0016029588 0.99981761 -0.0030654515
23713.737056617 0.99713635 -0.0042666607 6.5858521e-006 0.00089218165 -5.1977736e-006 0.00038039059
9.5129753e-006 0.00087970833 0.99928421 -0.0073291846 5.6756704e-005 0.0017000929
-1.8670737e-005 0.00037686864 2.2751497e-005 0.0016939763 0.99977481 -0.0032333776
25118.864315096 0.99723083 -0.0043063676 -1.3772258e-006 0.00092135387 -5.759453e-006 0.00040628991
1.9428127e-005 0.00091979059 0.99901712 -0.0076472173 2.304352e-005 0.0017805713
-8.6489035e-006 0.00039631562 1.690038e-005 0.0017897774 0.9997893 -0.0034352588
26607.250597988 0.9972887 -0.0044414662 1.8450353e-005 0.000988374 -1.9490048e-005 0.00044761263
-1.8792636e-006 0.00099814648 0.99922448 -0.0081339572 1.6408443e-005 0.0019021672
-1.6455018e-006 0.00041330504 2.6710892e-005 0.0018953811 0.9998315 -0.0035555828
28183.829312645 0.99722368 -0.0048578992 3.443913e-005 0.001070391 -1.3143549e-005 0.0004623979
2.2165041e-005 0.0010375531 0.99923617 -0.0084823454 1.6487818e-005 0.0019941446
-7.2718076e-006 0.0004544215 3.1032145e-005 0.0020056749 0.99983406 -0.0036644056
29853.82618918 0.99731618 -0.0050276178 1.0596112e-006 0.0011206472 3.4384821e-006 0.00047490164
2.8645274e-005 0.0011038221 0.99910766 -0.0088204565 2.267029e-005 0.0021201302
7.540977e-007 0.00047870126 3.1426407e-005 0.0020931987 0.99991369 -0.0036751758
31622.776601684 0.99708998 -0.005482615 -7.6547967e-006 0.0011888914 4.4541143e-006 0.00052149122
2.0944919e-005 0.0011730561 0.99916494 -0.009336195 4.145359e-005 0.0022382191
-1.5329585e-006 0.00052248384 3.1211832e-005 0.0022512337 0.99986637 -0.0040150289
33496.543915783 0.99715954 -0.0056517683 1.3905263e-005 0.0012423665 2.5108979e-005 0.00053227652
1.1591718e-005 0.0012461857 0.99917698 -0.009994844 2.7112248e-005 0.0023828833
4.7632248e-006 0.00054559996 5.1430037e-005 0.0023692208 0.99968332 -0.004280325
35481.338923358 0.99705887 -0.006004198 -2.2031194e-005 0.0013164296 1.1446973e-005 0.00056042947
1.5105381e-005 0.0013119924 0.9991942 -0.010524854 4.4106862e-005 0.0025131498
-3.7879611e-006 0.00055376603 3.2319131e-005 0.0025227754 0.99970001 -0.0042626159
37583.740428844 0.99707639 -0.0063915877 5.8960973e-006 0.0014090239 2.6464391e-005 0.00060080562
1.7540959e-005 0.0013860592 0.99929905 -0.011072035 5.0969469e-005 0.0026933881
1.4656113e-005 0.00059697282 3.4500368e-005 0.0026532181 0.9996025 -0.0046035992
39810.71705535 0.99708688 -0.0068067415 8.7294729e-006 0.001495805 5.3758272e-006 0.00064031692
1.7701024e-005 0.0014700004 0.9992162 -0.011853497 7.1624978e-005 0.0028131504
1.8217392e-005 0.00063105999 6.0473885e-005 0.0028384584 0.99949962 -0.0046829996
42169.650342858 0.99703777 -0.0071451198 2.4410643e-005 0.0015784318 3.454584e-006 0.00068196212
1.357153e-005 0.0015706234 0.9991374 -0.012365752 7.526746e-005 0.0029903508
1.1475146e-005 0.00068517809 3.6239704e-005 0.0030024231 0.99952596 -0.0050100628
44668.359215096 0.99710143 -0.007642197 3.3738997e-005 0.0016570737 -5.6869371e-006 0.00072133075
3.0434658e-005 0.0016618283 0.99907261 -0.013192656 6.4251079e-005 0.0031757082
2.4803767e-006 0.00070826872 4.1554111e-005 0.0031738898 0.99948978 -0.0052747778
47315.125896148 0.9972164 -0.0080753015 3.813914e-005 0.0017269697 1.8727562e-006 0.00075033237
1.5220808e-005 0.0017536918 0.99902695 -0.01385361 6.8486428e-005 0.0033405928
1.5231047e-006 0.00077469571 6.8536705e-005 0.0033635483 0.99956274 -0.0054008882
50118.723362727 0.99704015 -0.0085519422 2.6678359e-005 0.0018658246 1.3093164e-005 0.00080637005
4.1368054e-005 0.0018691601 0.99905539 -0.014864169 5.5093013e-005 0.0035327694
2.7592063e-005 0.00081470067 9.2128168e-005 0.0035827269 0.99945939 -0.0056760921
53088.444423099 0.99705344 -0.009004741 1.4280939e-005 0.0019804633 -8.3521007e-007 0.00084686838
1.2842908e-005 0.00197352 0.99903172 -0.015621088 7.7930461e-005 0.0037741342
1.8543946e-005 0.00087375811 8.15475e-005 0.0037554735 0.99960428 -0.0060634087
56234.132519035 0.99703234 -0.0096583245 2.0581751e-005 0.0020674416 1.5319998e-005 0.00089673547
3.2651111e-005 0.0020888986 0.99908161 -0.016565403 8.0431062e-005 0.0039643454
1.0597793e-005 0.00091217877 9.7600489e-005 0.0040089632 0.99947792 -0.0064063105
59566.214352901 0.99709487 -0.01010276 2.1544543e-005 0.0022295858 1.3043815e-005 0.00093248073
2.1017395e-005 0.0021954463 0.9989602 -0.017806286 9.8986558e-005 0.0042461134
1.0125704e-005 0.00094700424 0.00010584905 0.0042215954 0.99921101 -0.0065918257
63095.734448019 0.99693942 -0.010620799 1.9251895e-005 0.0023240093 9.3875324e-006 0.0010121053
1.6151886e-005 0.0023338054 0.9990018 -0.01873895 0.00011577786 0.0044624549
1.8503766e-005 0.001012824 9.8226315e-005 0.0044754292 0.99932241 -0.0069937208
66834.391756861 0.99704409 -0.011329855 3.9967894e-005 0.0024934297 1.3601871e-005 0.0011021998
3.7733029e-005 0.0024779928 0.99889779 -0.019848775 0.00011223934 0.0047321478
1.542523e-005 0.001064781 0.00012213191 0.0047378913 0.99944252 -0.007304538
70794.578438414 0.99693239 -0.011929341 2.5667145e-005 0.0026279972 3.5639623e-005 0.0011444099
1.6668344e-005 0.0026226803 0.99862576 -0.020837421 0.00015623178 0.00503746
3.7927839e-005 0.0011401082 0.00015108022 0.0050054435 0.99926239 -0.0076289074
74989.420933246 0.99689561 -0.012694094 4.520388e-005 0.0027757003 2.5172716e-005 0.0012127664
4.6562564e-005 0.0027869868 0.99876857 -0.022020238 0.00015147106 0.0052957209
6.2873896e-006 0.001205744 0.00016282183 0.005318014 0.9991399 -0.0080681685
79432.823472428 0.99695557 -0.013332388 5.1040108e-005 0.0029549398 2.1103642e-005 0.0012752973
6.1639024e-005 0.0029476762 0.99862581 -0.023233401 0.00017305315 0.0056086113
3.3187669e-005 0.0012563027 0.00017503164 0.005606907 0.99921668 -0.0084890574
84139.514164519 0.99691886 -0.013954245 6.0752081e-005 0.0031422463 2.5060655e-005 0.0013588867
5.4947552e-005 0.0031252967 0.99854445 -0.024644591 0.00017625686 0.0059479047
1.0054825e-005 0.0013690885 0.00018970251 0.0059453901 0.99905682 -0.0087962179
89125.093813375 0.99701834 -0.014895164 3.8738468e-005 0.0032972135 2.7561246e-005 0.0014264726
5.5687928e-005 0.0032976321 0.99855292 -0.02591962 0.00022639065 0.0062800576
3.2023807e-005 0.0014253909 0.00021368144 0.0062994263 0.99901384 -0.0094116367
94406.087628592 0.99692577 -0.015782921 5.611085e-005 0.0035090179 2.6339541e-005 0.0014985373
4.4487941e-005 0.0035275775 0.99843174 -0.027365448 0.00024989367 0.0066595981
4.3480908e-005 0.0015033574 0.0002251308 0.006658141 0.99895531 -0.0098717362
100000 0.99703562 -0.016679022 7.3398071e-005 0.0037174684 2.200065e-005 0.0016209289
8.7424138e-005 0.0036963478 0.99827981 -0.029195452 0.00027373093 0.007030319
4.9536575e-005 0.0016043989 0.00026154693 0.0070724944 0.99909151 -0.010221479
105925.37251773 0.99698329 -0.017649068 8.1480954e-005 0.003918888 4.0760515e-005 0.0016939361
7.482119e-005 0.0039221789 0.99849498 -0.030788189 0.00030252169 0.0074988524
5.0298568e-005 0.0017102329 0.00030520969 0.0074786684 0.99899971 -0.010909338
112201.8454302 0.99700266 -0.018635517 9.4511306e-005 0.0041646669 3.8009577e-005 0.001798793
5.875633e-005 0.0041495827 0.99823302 -0.032686271 0.00032985286 0.0078997547
5.5655615e-005 0.0018035001 0.00031311004 0.0079150014 0.99900657 -0.011436808
118850.2227437 0.9969241 -0.019757144 9.9532772e-005 0.0044005876 4.4857155e-005 0.0019392195
9.1991686e-005 0.0044118515 0.998375 -0.034547508 0.0003806598 0.0083865812
5.2672374e-005 0.0019243567 0.00036492778 0.0083773006 0.99913669 -0.012025891
125892.54117942 0.99710351 -0.020989105 0.00010759025 0.0046823523 5.4082964e-005 0.0020146782
0.00010163948 0.0046740854 0.9982844 -0.036648002 0.00042429368 0.0088703241
4.8418438e-005 0.0020215495 0.00040698858 0.0088888882 0.99923557 -0.0128675
133352.14321633 0.99707925 -0.022206984 0.00011499408 0.0049466882 7.5883851e-005 0.0021400112
0.00012482631 0.0049409829 0.99827158 -0.038836937 0.00043034536 0.0093838442
5.4325297e-005 0.0021361306 0.00044257913 0.0093646003 0.99900663 -0.013491167
141253.75446228 0.9969213 -0.023643116 0.00012755008 0.0052478709 5.7532692e-005 0.0022803936
0.00013834875 0.0052638315 0.99810076 -0.041086055 0.0004836857 0.0099309022
6.9647162e-005 0.002245784 0.0005180068 0.0099153109 0.99908459 -0.014281066
149623.56560944 0.99676144 -0.024921386 0.00014286948 0.0055531706 6.7267181e-005 0.0023741976
0.00015248812 0.005558087 0.99784791 -0.043607101 0.00055081287 0.010508589
8.6672451e-005 0.0024166871 0.00055662787 0.010495004 0.99890995 -0.015199175
158489.31924611 0.99683839 -0.026413878 0.00015927326 0.0058719488 7.0635222e-005 0.0025189142
0.00016656998 0.0058908323 0.99784362 -0.04599414 0.00062144035 0.011109492
8.4708539e-005 0.0025259568 0.0006267904 0.011119992 0.99891132 -0.015920505
167880.40181226 0.99665916 -0.02792519 0.00016703911 0.0062363879 8.8938054e-005 0.0026740378
0.00018547241 0.0062147304 0.99741691 -0.04891314 0.00066741835 0.011759197
8.898801e-005 0.0026699961 0.00070517539 0.01178287 0.99891639 -0.016843943
177827.94100389 0.99670583 -0.029742535 0.00020988578 0.0066067744 0.0001247107 0.0028412347
0.00020554705 0.0065848394 0.99737144 -0.051576354 0.00076675351 0.012452022
0.00010152148 0.0028408936 0.00077423354 0.012446569 0.99869955 -0.01777631
188364.90894898 0.99643242 -0.031268008 0.00023989634 0.006992578 0.00012979923 0.0030217953
0.00022791571 0.0069994982 0.99723309 -0.054760873 0.00084402325 0.013156912
0.00010584504 0.0030124777 0.00082916627 0.013172545 0.99867076 -0.019042823
199526.23149689 0.99639016 -0.033312645 0.00028021834 0.0074120313 0.00015215069 0.0031861519
0.0002620595 0.0074039069 0.9970156 -0.057896528 0.00094638183 0.013920394
0.0001388661 0.0031746982 0.00093990902 0.013960676 0.99856329 -0.020131096
211348.90398366 0.99637145 -0.035277717 0.0003112354 0.007829708 0.00015057536 0.003352554
0.00031932828 0.0078315772 0.9966861 -0.061385982 0.0010232293 0.014704089
0.00012700092 0.003372544 0.0010355298 0.014727653 0.99831778 -0.021343865
223872.11385683 0.99629736 -0.037460372 0.00034280252 0.008295917 0.00014890608 0.0035278122
0.00035199415 0.0083173215 0.99634385 -0.065124989 0.0011445285 0.015575832
0.00012889606 0.0035521204 0.0011531942 0.015578249 0.99834615 -0.022284316
237137.37056617 0.99633545 -0.039491944 0.00038227017 0.0088016968 0.00014330511 0.0037535778
0.00038324611 0.0088150166 0.99603218 -0.068971619 0.0012733295 0.016468447
0.00014966761 0.0037436206 0.0012549477 0.016454974 0.9983145 -0.023563005
251188.64315096 0.99632782 -0.041791033 0.00041835255 0.009337862 0.00017196452 0.0039697331
0.00041744806 0.0093403989 0.99590921 -0.073012851 0.0014094373 0.017414283
0.0001654103 0.0039799088 0.0014058199 0.017398996 0.99823105 -0.025097957
266072.50597988 0.99605787 -0.044235799 0.00047901773 0.0098976791 0.00018445188 0.0042004697
0.00048253531 0.0099111721 0.99539346 -0.07711602 0.0015497449 0.018409744
0.00018545761 0.0041986299 0.0015323935 0.01842477 0.99808562 -0.026467748
281838.29312645 0.99572313 -0.047122285 0.00053501333 0.010483249 0.00020098849 0.0044293501
0.00055983465 0.010483039 0.99491841 -0.081645057 0.0017216895 0.019445654
0.00022633377 0.0044235159 0.0016903733 0.019457964 0.9980002 -0.027935941
298538.2618918 0.99562997 -0.049780414 0.00062817876 0.011113049 0.00025005918 0.0046679992
0.00063671835 0.011116032 0.9943943 -0.086531587 0.0018901629 0.020560196
0.00023365134 0.0047116135 0.0018644168 0.020549739 0.99774975 -0.029506706
316227.76601684 0.9954977 -0.052617744 0.00070464733 0.011782202 0.0002669227 0.0049635791
0.00067090133 0.011767029 0.9940626 -0.091726437 0.0020709783 0.021733372
0.00026001103 0.0049730702 0.0020919773 0.021729574 0.9977358 -0.031009996
334965.43915783 0.99526292 -0.055863496 0.0008006256 0.012461324 0.00027499453 0.0052513047
0.00075957872 0.012452325 0.99341786 -0.096899681 0.0022814535 0.0229415
0.0002769797 0.00525705 0.0022743996 0.022966545 0.99732989 -0.032893579
354813.38923358 0.9950403 -0.058941405 0.0008807361 0.013194413 0.00028677617 0.005541347
0.00089062366 0.013197928 0.99279684 -0.10248046 0.0025039855 0.024241624
0.00032041041 0.0055400841 0.0025101693 0.024259368 0.99731171 -0.034907233
375837.40428844 0.99480844 -0.062275663 0.00099236029 0.013987386 0.00033267497 0.0058266283
0.000976676 0.013979279 0.99190825 -0.10847963 0.0027667701 0.025608763
0.0003130759 0.0058703534 0.0027743857 0.025628746 0.9971779 -0.0366254
398107.1705535 0.99469972 -0.066334695 0.001120574 0.014804446 0.00037106522 0.006197013
0.0011157008 0.014818004 0.9911046 -0.11506044 0.0030539844 0.027048286
0.00036040376 0.0062058959 0.0030640541 0.027082745 0.99694246 -0.038901061
421696.50342858 0.99427456 -0.070238717 0.0012796917 0.015668554 0.00037536875 0.0065575652
0.0012571898 0.015703626 0.99017519 -0.12172955 0.0033272028 0.028560307
0.00036863904 0.006563371 0.0033598158 0.0285777 0.99668586 -0.041033763
446683.59215096 0.99403054 -0.07442981 0.0014205322 0.016617667 0.00041214805 0.00693388
0.0014471057 0.016620116 0.98917675 -0.12860975 0.0036767565 0.030178141
0.00040879037 0.0069416128 0.0036637804 0.030194499 0.996342 -0.04328341
473151.25896148 0.99365282 -0.07860747 0.0016102012 0.017614515 0.00044393996 0.0073165256
0.0016393729 0.017599411 0.98799288 -0.13609624 0.0040303459 0.03186281
0.00043736506 0.007330643 0.0040665846 0.031888817 0.99622476 -0.04582661
501187.23362727 0.99305856 -0.083437681 0.0018462411 0.018631024 0.00048108367 0.0077590281
0.0018435895 0.0186265 0.98703837 -0.14391717 0.0044459561 0.033647284
0.00048564904 0.0077236872 0.0044589085 0.03368073 0.99589545 -0.04825978
530884.44423099 0.99240106 -0.088157482 0.0020810508 0.019717822 0.00052263943 0.008171862
0.0020779264 0.019728977 0.98561329 -0.1522157 0.0048704827 0.035556167
0.00053830014 0.0081986114 0.0048665288 0.035564996 0.99578917 -0.051085711
562341.32519035 0.99204373 -0.093326792 0.0023519949 0.020875482 0.00056151178 0.0086593423
0.0023465236 0.020876653 0.98388886 -0.16118568 0.0053726053 0.037526239
0.00055510714 0.0086560883 0.0053756312 0.037546284 0.99535507 -0.054166112
595662.14352901 0.99177092 -0.098777518 0.0026487135 0.022082673 0.00059248466 0.0091484226
0.0026364352 0.022091538 0.9821561 -0.17063311 0.0058699711 0.03961679
0.00060607598 0.0091699315 0.0058978312 0.039624352 0.99503708 -0.057129353
630957.34448019 0.99109256 -0.10449497 0.0029798348 0.023345843 0.0006516244 0.0096704802
0.0029725104 0.023372643 0.98032123 -0.18044333 0.0064774379 0.041818403
0.00063311768 0.0096858144 0.0064799986 0.041822698 0.99463105 -0.060413718
668343.91756861 0.9902944 -0.11077289 0.0033554907 0.02470755 0.00070333213 0.010224237
0.0033664808 0.024703875 0.9779703 -0.19084537 0.0071200971 0.044168692
0.00069540401 0.010236902 0.0071269278 0.044208575 0.99423581 -0.063731052
707945.78438414 0.98949909 -0.11713411 0.0037887499 0.02612314 0.00074131991 0.010822088
0.0037748732 0.026149651 0.97532237 -0.20182474 0.0078353062 0.046595357
0.00076212769 0.010827585 0.0078343153 0.046618957 0.99371117 -0.067430548
749894.20933246 0.98857802 -0.12415189 0.004273769 0.027639663 0.00080504041 0.011460657
0.0042655338 0.027649488 0.97228134 -0.21324165 0.0086256918 0.049164046
0.00079812697 0.011459764 0.008650505 0.049196608 0.99323797 -0.07111007
794328.23472428 0.98724031 -0.13145642 0.0047689816 0.029226298 0.00084777776 0.012119857
0.004784327 0.029227406 0.97004545 -0.22475876 0.0094359852 0.051931858
0.00087146432 0.012134925 0.0095037185 0.051945746 0.9927609 -0.075176425
841395.14164519 0.98624176 -0.13894445 0.0053755525 0.030852366 0.00091476284 0.012820444
0.0053917053 0.030869747 0.96681565 -0.23831476 0.010427664 0.054806661
