!Keysight Technologies,E5080A,MY55100144,A.11.70.03
!Date: Monday, November 13, 2017 17:21:30
!Correction: S11(Full 3 Port(1,2,3)) 
!S12(Full 3 Port(1,2,3)) 
!S13(Full 3 Port(1,2,3)) 
!S21(Full 3 Port(1,2,3)) 
!S22(Full 3 Port(1,2,3)) 
!S23(Full 3 Port(1,2,3)) 
!S31(Full 3 Port(1,2,3)) 
!S32(Full 3 Port(1,2,3)) 
!S33(Full 3 Port(1,2,3)) 
!S3P File: Measurements: <S11,S12,S13>,
!<S21,S22,S23>,
!<S31,S32,S33>:Log Frequency Sweep
# Hz S  RI   R 50
10000 0.99669272 -0.00092107046 -8.5381856e-007 0.00014431175 1.5183244e-005 0.00016750654
-2.0461941e-006 0.00012765522 0.99887323 -0.003345517 -1.0719994e-005 0.00068802119
5.0213721e-006 0.00019615589 5.0533135e-006 0.00073723 0.99979126 -0.0023613591
10592.537251773 0.99676883 -0.0010122531 5.3416043e-006 0.00013332895 -3.0207591e-005 0.00018143188
5.000265e-006 0.00012122792 0.99872375 -0.0034491385 2.2714198e-006 0.0007198471
-6.8831878e-006 0.00017906501 1.8382405e-005 0.00072639424 1.0000596 -0.0023403261
11220.18454302 0.99688947 -0.0010122672 -1.2156925e-005 0.00014328334 -9.572972e-006 0.00021173309
2.4193587e-005 0.00014030702 0.99896246 -0.0036943022 1.2642981e-005 0.00080232171
1.3728973e-005 0.00020689462 2.3793693e-006 0.00079326442 1.0001339 -0.0025167973
11885.02227437 0.99667728 -0.0011130335 5.1079537e-006 0.00015624383 2.1620669e-007 0.00021806211
4.2191618e-006 0.00013496746 0.998887 -0.0036051618 9.9425797e-006 0.00083612959
3.0613017e-005 0.00021942081 2.6817395e-006 0.00081373495 1.0000464 -0.0023713619
12589.254117942 0.99672407 -0.0013137104 -7.2482012e-006 0.00015912161 7.4920858e-006 0.00022175984
-1.0451024e-005 0.00016767853 0.99898398 -0.0039929906 7.9447045e-006 0.00087917404
-1.3858449e-005 0.00023585839 7.4916647e-007 0.00088562048 0.99992532 -0.0024230732
13335.214321633 0.99692178 -0.0012984975 -5.4803786e-006 0.00017014255 5.0964163e-006 0.00022643682
-9.6086505e-006 0.00016249131 0.99893868 -0.0041097542 -6.059021e-006 0.00093217485
9.9219442e-006 0.00024214394 -5.0870112e-006 0.0009307086 0.99992365 -0.0022389449
14125.375446228 0.99669546 -0.001605176 8.7207027e-006 0.00017538159 -1.7098508e-005 0.00025614549
3.2317294e-006 0.0001756191 0.99894738 -0.0042949812 4.3096179e-006 0.0010005306
1.0296499e-005 0.00024227842 1.1305735e-005 0.00097882748 0.9998638 -0.0024869989
14962.356560944 0.99660826 -0.0016575428 9.5888163e-006 0.00020024396 6.2455633e-006 0.00025032525
9.4640145e-006 0.00018501963 0.99909002 -0.0043756044 2.5900621e-005 0.0010411583
7.8027761e-006 0.00025653059 -1.7388207e-006 0.0010444428 1.0000426 -0.0025832383
15848.931924611 0.99690509 -0.0019963935 -5.9641379e-006 0.00017315953 -4.3836717e-006 0.00028485907
-5.2291048e-006 0.0001868425 0.99894321 -0.0043846942 1.666378e-005 0.0010919928
1.0683899e-006 0.00029938953 3.3646982e-005 0.001118675 1.0000551 -0.002393862
16788.040181226 0.99660689 -0.0018998297 -5.7352872e-006 0.00022022534 5.3009549e-006 0.00029896299
2.6778405e-006 0.0002040322 0.9989506 -0.0048299851 -6.0922389e-006 0.0011731032
-8.1563139e-006 0.00029723736 1.1760063e-005 0.0011813783 0.99992925 -0.0027525749
17782.794100389 0.99677771 -0.001967985 2.9897665e-006 0.00019771597 9.0267413e-006 0.00029009848
-9.5750438e-006 0.00022557292 0.99900985 -0.0050838906 2.4151132e-006 0.0012575774
3.6620972e-006 0.00031420041 1.201863e-005 0.0012587655 1.0000031 -0.0027735536
18836.490894898 0.99676329 -0.0020905468 -1.2325552e-005 0.00021612002 9.273951e-006 0.00031514736
-5.3872295e-006 0.00022981406 0.99907595 -0.0053439001 7.5659641e-006 0.001313387
1.5024387e-005 0.00034373006 4.7240028e-006 0.0013137285 0.99995232 -0.0027534037
19952.623149689 0.99672699 -0.0024442305 -1.335454e-005 0.0002431851 6.4476567e-006 0.00035174168
-2.3906425e-006 0.00023185801 0.99916232 -0.0055214367 2.5513029e-005 0.0013894053
8.9895839e-006 0.00034950004 -3.9768333e-006 0.0013974516 0.99978411 -0.0030155731
21134.890398366 0.99673218 -0.0024876965 -1.7212467e-005 0.00025313933 1.7019363e-005 0.00039344176
-3.6901365e-006 0.00024880283 0.99913275 -0.0058479565 2.45061e-005 0.0014558315
-3.5292958e-006 0.00035180812 1.9178997e-005 0.0014717282 0.99979687 -0.0032265692
22387.211385683 0.99675506 -0.0026387861 -3.6975214e-006 0.00026270573 -3.5139335e-006 0.00040216284
7.7768054e-006 0.00029404578 0.99898297 -0.0060983999 1.7960356e-005 0.0015663564
-2.9679009e-006 0.00040753608 2.74552e-005 0.0015540792 0.99979049 -0.003140382
23713.737056617 0.99677855 -0.0028729148 8.7924354e-006 0.00029098309 1.2234284e-005 0.00041911291
7.1142763e-006 0.00027442322 0.99913287 -0.0064954027 1.9875804e-005 0.0016268253
9.4440184e-006 0.00042558947 1.0269672e-005 0.0016591391 0.99983245 -0.0031645184
25118.864315096 0.99665785 -0.0030849031 -2.4782101e-005 0.00030795622 8.7784674e-006 0.00044154102
-1.8937168e-005 0.00029844884 0.99909317 -0.006849275 1.8509316e-005 0.0017704725
1.6369155e-005 0.00042825926 8.9254027e-006 0.0017507254 0.99983937 -0.0033859757
26607.250597988 0.99666619 -0.0030733643 8.0388891e-006 0.00031175639 1.5732672e-005 0.00046364745
1.4572196e-005 0.00033382379 0.99911249 -0.0071954839 3.1290147e-005 0.001863935
2.3080618e-005 0.00048109473 1.3291066e-005 0.001853259 0.9999758 -0.0035959557
28183.829312645 0.99677938 -0.003533592 -2.3162791e-006 0.00034807986 -7.3602218e-006 0.00048906443
1.2883311e-005 0.00034649481 0.99924749 -0.0075577274 4.9374903e-006 0.0019562393
-5.177676e-006 0.00049527944 2.4399948e-005 0.0019629002 0.99984944 -0.0036767034
29853.82618918 0.99668574 -0.0036850558 -2.1051646e-005 0.00038775045 3.0638339e-006 0.00052150275
-4.1108719e-006 0.00035713948 0.99917394 -0.0078934059 2.4972687e-005 0.0020878213
1.0106168e-005 0.00052648562 3.4522789e-005 0.0020881391 0.99978721 -0.0036211123
31622.776601684 0.99671507 -0.0039251987 7.3281526e-006 0.00040157192 1.0095161e-005 0.00057222013
3.1841139e-006 0.00037100099 0.99903166 -0.0083726058 2.1303971e-005 0.0022160904
-1.2738323e-006 0.00054865028 3.228672e-005 0.0021983138 0.99984962 -0.004059962
33496.543915783 0.99678618 -0.0041105715 -9.2259806e-006 0.00042687447 5.9624313e-006 0.0005989155
9.7168613e-006 0.00040245726 0.99908108 -0.0089570526 2.2452106e-005 0.0023403144
1.8149436e-005 0.00057523308 1.6000156e-005 0.0023439422 0.99971056 -0.0041232342
35481.338923358 0.99660528 -0.0043904055 9.2032195e-008 0.00042655107 -6.5490218e-007 0.00061293703
1.4847412e-005 0.0004468197 0.99920154 -0.0094356667 3.4228757e-005 0.0024913163
6.5321656e-006 0.00060708815 2.2943817e-005 0.002461046 0.99969178 -0.004124308
37583.740428844 0.99665898 -0.0046480931 2.315076e-005 0.00045685639 1.4908151e-005 0.00066402601
-1.0206589e-006 0.00044726199 0.99916166 -0.0098919291 4.0302926e-005 0.0026290619
2.9581652e-005 0.00067269069 1.1006107e-005 0.002613354 0.99964178 -0.004615074
39810.71705535 0.99679124 -0.0047813188 1.3079109e-005 0.00046975017 5.6573513e-006 0.0007104869
4.9483415e-006 0.00049965415 0.99919844 -0.010613189 4.3379008e-005 0.0027745492
4.6901496e-006 0.00069830741 5.7837242e-005 0.002776457 0.99956292 -0.0046975268
42169.650342858 0.99653733 -0.0052665211 1.4521346e-005 0.00052472192 9.690023e-006 0.00075826654
2.3281964e-005 0.00050787994 0.99907428 -0.011008795 4.4504621e-005 0.0029594325
3.2234109e-006 0.00074903818 5.2422747e-005 0.002947975 0.99951863 -0.0049154097
44668.359215096 0.99674541 -0.0054857465 2.0125633e-005 0.00053466304 1.3950998e-005 0.00079983525
6.7423257e-006 0.0005403012 0.99908561 -0.011921966 5.0247123e-005 0.0031011133
1.7976097e-005 0.00079830259 6.738626e-005 0.0031251968 0.99932635 -0.0051598246
47315.125896148 0.99686635 -0.0057445164 -1.5656628e-005 0.00058972096 3.6404915e-006 0.00081999635
2.5256177e-006 0.0005795352 0.99910825 -0.012475859 5.6601504e-005 0.0033199461
3.4471291e-006 0.00083852396 6.6837412e-005 0.0033078257 0.99934644 -0.0054671373
50118.723362727 0.9968006 -0.0061250702 -2.1687059e-005 0.00060464704 1.6864737e-005 0.00088826258
9.3822118e-006 0.00060521287 0.99903643 -0.013304288 5.3931806e-005 0.0034768309
2.4806992e-005 0.00088074082 8.0638711e-005 0.0034977219 0.99946016 -0.0056584869
53088.444423099 0.99671686 -0.0066018696 7.6074189e-006 0.00064053148 -2.5857253e-006 0.00093925477
-1.0541888e-005 0.00064989796 0.99908012 -0.013904894 7.553622e-005 0.0036917699
1.9613977e-005 0.00096313766 6.0555118e-005 0.0037111351 0.99960709 -0.0060377875
56234.132519035 0.99674463 -0.0069786781 -2.5308313e-005 0.00068677904 1.3949316e-006 0.00099174958
5.6060026e-006 0.00069345796 0.99905747 -0.014951916 7.2992516e-005 0.0039224145
1.4888239e-005 0.00098668982 9.0245419e-005 0.0039143898 0.99947202 -0.0063302717
59566.214352901 0.99677688 -0.0072980593 -2.1557526e-006 0.0007362254 1.724715e-005 0.0010712558
1.8869285e-005 0.00073792186 0.99883074 -0.01575076 9.1472779e-005 0.0041779377
3.9111619e-005 0.0010460285 0.00010954959 0.0041654073 0.9992286 -0.0064513362
63095.734448019 0.99664783 -0.0077892789 8.5612146e-006 0.00078289688 2.7890899e-005 0.0010991375
1.1738652e-005 0.00077295373 0.99890429 -0.016665312 8.6490836e-005 0.0044182763
2.6420519e-005 0.0011301631 9.8103104e-005 0.0044135982 0.99949116 -0.0070165447
66834.391756861 0.99660295 -0.0082150809 -2.2046066e-005 0.00080551393 6.0530438e-006 0.0011842672
4.147726e-006 0.00082501728 0.99891669 -0.017675079 0.00012419591 0.0046656169
3.7421345e-005 0.0011625625 9.7949945e-005 0.0046577966 0.99935317 -0.0073665394
70794.578438414 0.99666131 -0.0087321047 1.0438125e-005 0.00088069413 2.406595e-005 0.0012436066
-3.2413066e-006 0.00087213377 0.99871367 -0.018695213 0.0001183772 0.0049446793
3.0152572e-005 0.0012443297 0.00013816751 0.0049452572 0.99921966 -0.0076183658
74989.420933246 0.99667418 -0.0091393357 -6.9865305e-006 0.00092150434 3.3053537e-005 0.0013005511
1.2298138e-006 0.00090785971 0.99885279 -0.019672222 0.00013486618 0.0052113668
2.768607e-005 0.001336013 0.00014893198 0.0052241501 0.99925393 -0.0079768589
79432.823472428 0.99656039 -0.0096938983 -5.1776206e-006 0.0010057088 1.5761814e-005 0.0013969729
-4.034142e-006 0.0009822445 0.99863988 -0.020736225 0.0001638977 0.0055263839
3.1243104e-005 0.0013858188 0.00016533656 0.0055281552 0.99915522 -0.0085164187
84139.514164519 0.99670357 -0.010110461 1.3525243e-005 0.001030085 4.927902e-005 0.0014812225
1.0831003e-005 0.0010354371 0.99872482 -0.021868002 0.00021180314 0.005854974
4.746559e-005 0.0014702309 0.00020751798 0.0058533843 0.99896193 -0.0088665169
89125.093813375 0.9965868 -0.010702197 4.3887721e-006 0.001084623 2.6767939e-005 0.0016138178
5.1888001e-006 0.0010919099 0.99868232 -0.023157185 0.00019549132 0.0062099677
3.8515609e-005 0.0015854785 0.00019426181 0.0061994209 0.99914432 -0.0092920419
94406.087628592 0.99671578 -0.011444923 1.1494649e-005 0.0011435725 2.7505803e-005 0.0016630068
4.49665e-006 0.0011486702 0.99858147 -0.024580743 0.00022735608 0.006572342
4.6438956e-005 0.0016599351 0.00021592795 0.0065446016 0.99910277 -0.0097921016
100000 0.99661785 -0.012042378 4.0996685e-005 0.0012220693 6.2015191e-005 0.0017609871
-4.543997e-006 0.0012354247 0.99839914 -0.025985213 0.00025352699 0.0069185272
4.4593125e-005 0.0017697341 0.00024602312 0.00694262 0.99894947 -0.010366238
105925.37251773 0.99671066 -0.012814689 8.0447653e-006 0.0012976996 5.7831468e-005 0.001859015
1.8882753e-005 0.0013098012 0.99838287 -0.027685607 0.00026806479 0.007353046
5.5699638e-005 0.0018518018 0.00026831237 0.007370749 0.99886715 -0.010834957
112201.8454302 0.99688131 -0.013650968 -4.4313992e-006 0.001358229 4.8734382e-005 0.0019831175
-1.2091188e-006 0.0013587654 0.99829364 -0.029158726 0.00030245783 0.0077984324
5.7875615e-005 0.0019793138 0.00032325645 0.0077854036 0.99902469 -0.011492059
118850.2227437 0.99679232 -0.014437331 2.060555e-005 0.0014492789 8.1943559e-005 0.0020873691
3.7727507e-006 0.0014568261 0.99839103 -0.030733131 0.00034530426 0.008245823
7.6205135e-005 0.0020878832 0.00036570872 0.0082823299 0.99907595 -0.012118123
125892.54117942 0.99684954 -0.015290946 -3.547297e-006 0.001537359 5.9530608e-005 0.0022134252
6.3278412e-006 0.0015414205 0.99830437 -0.032667939 0.00039617252 0.0087290294
6.3257372e-005 0.0021964421 0.00035199331 0.0087326476 0.99903965 -0.012915951
133352.14321633 0.99687624 -0.016229607 -1.8348224e-005 0.0016402159 8.2435537e-005 0.0023394781
1.5301564e-005 0.0016608192 0.99823952 -0.034598984 0.00043793512 0.0092428187
7.0426599e-005 0.0023562426 0.00041775464 0.0092344042 0.99895698 -0.013499035
141253.75446228 0.99682999 -0.017185716 -2.9868173e-005 0.001727787 0.00010274113 0.0024696116
-6.8787599e-006 0.0017315532 0.9981547 -0.036657423 0.0004755453 0.0097628981
8.5436419e-005 0.0024617163 0.0004828526 0.00976199 0.99889827 -0.014266357
149623.56560944 0.99683744 -0.018220922 6.9789394e-006 0.0018409617 0.00010306142 0.0026195005
-1.1334442e-006 0.0018331751 0.99803346 -0.03878339 0.00051718246 0.010354244
8.4684107e-005 0.0026245874 0.00052350404 0.010339118 0.99896562 -0.015300227
158489.31924611 0.99662155 -0.019279834 -8.48338e-006 0.0019713175 0.00012816493 0.0027744423
4.4388771e-006 0.0019436213 0.99788922 -0.041041255 0.00056693802 0.010938887
0.00010229229 0.0027667561 0.00056807062 0.010936544 0.99892837 -0.015871216
167880.40181226 0.99647725 -0.020460626 1.6300326e-005 0.0020663331 0.00011741534 0.0029236069
1.7838162e-005 0.0020661557 0.99773192 -0.043633301 0.0006257192 0.011565335
9.9055622e-005 0.002925666 0.00063778553 0.011585073 0.99895304 -0.016983451
177827.94100389 0.99657869 -0.021553827 1.1551309e-005 0.002193358 0.00010722254 0.0031191206
7.9555566e-006 0.0021777002 0.99761605 -0.046114832 0.00072932354 0.012266736
0.00011335759 0.0031214596 0.0007261131 0.012249969 0.99872261 -0.01785031
188364.90894898 0.99644554 -0.022794841 1.0884067e-006 0.0023140211 0.00014513092 0.0032895964
2.0745854e-005 0.0023122064 0.9974398 -0.049006075 0.0008053077 0.012974531
0.00016080185 0.0032638477 0.00080695981 0.012964283 0.99873722 -0.018950433
199526.23149689 0.99639916 -0.024241729 1.796791e-005 0.002448047 0.00016002054 0.0034822882
7.686489e-006 0.0024574129 0.99735159 -0.051666554 0.00089603383 0.01372573
0.00015359519 0.0034776835 0.00087441143 0.013702658 0.99864954 -0.020160783
211348.90398366 0.99644989 -0.025718071 3.9753126e-005 0.0026196491 0.00017333509 0.0036808734
1.7792494e-005 0.0026098923 0.99706775 -0.05470442 0.00096327974 0.014514102
0.00019851347 0.0036674757 0.0009667658 0.014510158 0.99852252 -0.021139737
223872.11385683 0.99648982 -0.02719827 3.2218319e-005 0.0027764961 0.0002110291 0.0039159427
4.8898513e-005 0.0027736109 0.99681216 -0.058221009 0.0010566326 0.015324276
0.00019736611 0.0038893307 0.0010983481 0.015343606 0.99845022 -0.022276705
237137.37056617 0.99650347 -0.028676134 2.4906254e-005 0.0029412131 0.00021999489 0.0041094674
3.8239396e-005 0.0029541424 0.99654001 -0.061538331 0.0012185829 0.016205842
0.00021167607 0.0041277502 0.0011941702 0.016243458 0.99844366 -0.023741338
251188.64315096 0.99644339 -0.03040058 3.352257e-005 0.00312003 0.00024520466 0.0043530352
2.7302669e-006 0.0031070646 0.99649972 -0.065140411 0.001323786 0.017169245
0.00024338947 0.0043281871 0.0013188379 0.017170984 0.99828577 -0.025075452
266072.50597988 0.99620962 -0.032262035 3.665125e-005 0.00329348 0.0002592316 0.0045737741
3.8360646e-005 0.0033163864 0.9960385 -0.068904094 0.0014469563 0.018113233
0.00025221682 0.0045985188 0.00145031 0.018115224 0.99820065 -0.0263882
281838.29312645 0.99621493 -0.034240369 5.0726405e-005 0.0034872729 0.00028596725 0.0048693563
4.1213352e-005 0.0035171635 0.99566025 -0.072866447 0.0016021116 0.019158233
0.00026596361 0.0048788041 0.0016064938 0.01915112 0.99789125 -0.027777506
298538.2618918 0.9959861 -0.036357783 6.0738104e-005 0.003723118 0.00032065201 0.0051512453
4.2477393e-005 0.0037167484 0.99527895 -0.077023856 0.0017662121 0.020227917
0.00033294232 0.0051412801 0.0017810581 0.020260766 0.99767774 -0.029433357
316227.76601684 0.99603349 -0.038348645 6.3188796e-005 0.0039432468 0.00034889681 0.0054236306
6.7811241e-005 0.0039684554 0.99489737 -0.081795886 0.0019486968 0.021402884
0.00035346797 0.0054261968 0.001963337 0.021389989 0.99759185 -0.031136414
334965.43915783 0.99578077 -0.040717531 7.8561396e-005 0.0041792644 0.00037846962 0.0057548736
8.1775688e-005 0.0042056353 0.99440163 -0.086493261 0.0021324314 0.022606628
0.00036509096 0.0057464857 0.0021521226 0.022599775 0.99758095 -0.032879353
354813.38923358 0.99569327 -0.04298643 0.00010902862 0.0044607148 0.00040048629 0.0060869199
0.00010389101 0.0044431766 0.99379539 -0.091456763 0.0023727776 0.023877669
0.00039736013 0.0060602841 0.0023606636 0.023881013 0.99736154 -0.034656279
375837.40428844 0.99564087 -0.045580372 0.00010653537 0.0047092624 0.00045366221 0.0064113527
0.00012963766 0.0047147642 0.99317676 -0.096884951 0.0025893468 0.025217373
0.00043655976 0.0064176628 0.0026048662 0.025232343 0.99712187 -0.036669582
398107.1705535 0.99544263 -0.048207182 0.0001567146 0.0049955822 0.00049399521 0.0067623714
0.00014983026 0.004981657 0.99244064 -0.1025167 0.0028576506 0.026652968
0.00048159805 0.0067827175 0.0028235496 0.02665912 0.99697453 -0.038716078
421696.50342858 0.99538034 -0.051026847 0.00015683244 0.0053000851 0.00054137735 0.0071511003
0.00016041139 0.0053043813 0.99172348 -0.10856365 0.0031091988 0.028157901
0.00051271386 0.0071795578 0.0031308164 0.028150104 0.99674952 -0.041001257
446683.59215096 0.99516761 -0.054210812 0.00019059502 0.0056730555 0.00056035124 0.0075931214
0.00020836222 0.005625431 0.99085963 -0.11497346 0.0034220265 0.029736791
0.00056389434 0.0075952131 0.003449304 0.029733757 0.99636489 -0.043333244
473151.25896148 0.99490702 -0.057237402 0.00023355009 0.0059816246 0.00064808043 0.0080275601
0.00022478112 0.0059629246 0.99009538 -0.12154638 0.003773815 0.031400815
0.00060226815 0.0079959221 0.0037795973 0.031419903 0.99621165 -0.045724552
501187.23362727 0.99451441 -0.060669754 0.00028318152 0.0063217971 0.00068454439 0.0084557487
0.00028745251 0.0063125938 0.98909783 -0.12858066 0.0041337386 0.033181693
0.00065587915 0.0084483838 0.0041547525 0.033195585 0.99602121 -0.048219919
530884.44423099 0.99427623 -0.064398117 0.00032390971 0.0067057135 0.00072217692 0.0089377426
0.00032386198 0.0067101903 0.98816699 -0.13584377 0.0045428793 0.035045065
0.00073180255 0.0089244675 0.0045467797 0.035074789 0.99572462 -0.051148422
562341.32519035 0.99405092 -0.067901604 0.00041846393 0.007120728 0.00080198958 0.0094338898
0.00039168057 0.0071356953 0.98663795 -0.14413634 0.0049969996 0.03700646
0.00079412607 0.0094516864 0.0049945954 0.037047647 0.9953962 -0.053946286
595662.14352901 0.99380279 -0.071896441 0.00046695324 0.0075846845 0.00086131593 0.0099788699
0.00045126033 0.0075461566 0.9854427 -0.1523148 0.0054852241 0.039059125
0.00086263928 0.0099887438 0.0055094133 0.039100748 0.99505526 -0.057095964
630957.34448019 0.99365723 -0.076167211 0.00054428278 0.0079908576 0.00093136891 0.010557148
0.00052299316 0.007993659 0.98390758 -0.16119415 0.0060220598 0.041262574
0.00095148949 0.010575265 0.0060224035 0.041291159 0.99471825 -0.06039241
668343.91756861 0.99330008 -0.080736771 0.0006138293 0.0084859505 0.0010165949 0.011140956
0.00060594367 0.008477129 0.98196948 -0.17042041 0.0066150944 0.04360909
0.0010094998 0.011145573 0.006630952 0.043607507 0.99418491 -0.063605919
707945.78438414 0.99268329 -0.085471943 0.00073468155 0.0089923013 0.0010974556 0.011792182
0.00072401395 0.0089841038 0.97973186 -0.18043032 0.0072796661 0.045989774
0.0011284254 0.011781506 0.0073071141 0.045993693 0.99398243 -0.067427807
749894.20933246 0.99237543 -0.090563409 0.0008050332 0.0095131388 0.001182896 0.012483778
0.00083751132 0.009511468 0.97733134 -0.19059904 0.0080091991 0.048571657
0.0011929532 0.012451561 0.0080230618 0.048588958 0.99323833 -0.071180508
794328.23472428 0.99158281 -0.09591417 0.00092253252 0.010108829 0.001280066 0.013167922
0.00093419175 0.010086944 0.97560668 -0.20104495 0.0088028135 0.051273894
0.0013205847 0.013177083 0.0087960428 0.051294055 0.99280798 -0.075171992
