!Keysight Technologies,E5080A,MY55100144,A.11.70.03
!Date: Monday, November 13, 2017 17:25:27
!Correction: S11(Full 3 Port(1,2,3)) 
!S12(Full 3 Port(1,2,3)) 
!S13(Full 3 Port(1,2,3)) 
!S21(Full 3 Port(1,2,3)) 
!S22(Full 3 Port(1,2,3)) 
!S23(Full 3 Port(1,2,3)) 
!S31(Full 3 Port(1,2,3)) 
!S32(Full 3 Port(1,2,3)) 
!S33(Full 3 Port(1,2,3)) 
!S3P File: Measurements: <S11,S12,S13>,
!<S21,S22,S23>,
!<S31,S32,S33>:Log Frequency Sweep
# Hz S  RI   R 50
10000 0.99634117 -0.0055777179 3.2278078e-006 -8.0708878e-006 -4.4884373e-006 0.00014781041
-1.3130537e-005 -9.6342483e-006 0.47088838 -0.87588245 -1.6397236e-005 1.6226207e-006
1.6445224e-006 0.00013968976 1.1503549e-005 8.9382484e-006 0.99993259 -0.0024851155
10592.537251773 0.99631256 -0.0060476582 -4.6988598e-006 -2.1616421e-005 -7.2652883e-006 0.00012583677
-4.3351793e-006 -9.5938776e-006 0.42577279 -0.8983919 -1.1907683e-005 3.0051228e-006
6.0995109e-007 0.00010850869 -5.6941772e-006 3.3670553e-006 0.99996698 -0.002219276
11220.18454302 0.99626809 -0.0063462453 2.1662243e-005 1.9876761e-006 1.5909269e-005 0.00013361189
1.7762142e-006 -3.0451913e-006 0.37746221 -0.91921604 8.1706764e-007 9.3043809e-006
8.2372799e-006 0.00014593327 8.2758015e-006 2.6803823e-006 1.0000733 -0.0024186911
11885.02227437 0.9962675 -0.0065762834 -9.035658e-006 -9.0226052e-007 -2.4288008e-006 0.00017377776
9.3574336e-006 -1.3324375e-005 0.32793385 -0.93793076 4.0727687e-006 -1.2881129e-005
3.0235622e-006 0.00015902254 -5.1017782e-006 2.0039819e-005 1.0000811 -0.0023552682
12589.254117942 0.99655634 -0.0069977064 -1.5727029e-006 -8.2754514e-006 2.3891731e-005 0.00015640601
-5.6000572e-006 8.217783e-006 0.27618182 -0.95410275 -1.8659932e-007 -1.7983044e-005
1.3631179e-005 0.00015319775 1.4631794e-005 -5.7634579e-006 0.99992877 -0.0025887312
13335.214321633 0.99648035 -0.0075455988 9.5058886e-006 -3.209538e-007 -7.4836316e-006 0.00016367616
1.1396212e-005 -7.9545489e-006 0.22304893 -0.96810192 -1.8400979e-005 -3.8383027e-006
-1.0252384e-005 0.00019385626 1.3117678e-005 1.5142194e-006 0.99973816 -0.0025174967
14125.375446228 0.99645007 -0.0079442775 1.2356464e-005 8.9124524e-006 1.2104217e-005 0.0001569414
-8.6903528e-006 -1.4069819e-006 0.16834466 -0.97845888 1.9264437e-006 5.2377909e-006
-7.0934102e-006 0.00016455018 -2.2983577e-005 -9.5570058e-006 0.99978632 -0.0023562748
14962.356560944 0.99644744 -0.0083951913 8.5089114e-006 1.1256552e-006 1.6483629e-005 0.00015061024
1.6241931e-005 5.0717172e-006 0.11263359 -0.98669922 3.847974e-007 1.4907077e-005
-3.9524261e-006 0.00017251585 1.3275831e-005 5.7860634e-006 0.99982035 -0.0026920873
15848.931924611 0.99659634 -0.0090558073 -2.2667151e-005 1.2453804e-005 1.0869411e-005 0.00020973354
8.3647983e-006 5.6813692e-006 0.055882122 -0.99113029 1.3255999e-005 7.5585281e-006
6.2547783e-006 0.00018990556 1.814564e-005 7.8125431e-006 1.0000929 -0.0024982828
16788.040181226 0.99640459 -0.0096205827 -5.3956996e-006 4.7130025e-006 -1.662377e-005 0.00020954864
-8.3449368e-006 3.7874765e-006 -0.00070094434 -0.99255407 1.0104928e-006 -4.4608598e-007
2.3446817e-005 0.00021208674 -8.1444368e-006 4.9575556e-006 0.99985778 -0.0026937192
17782.794100389 0.99649596 -0.0098299207 7.7122746e-007 -5.5023725e-006 -4.7616054e-006 0.00022800494
1.1197185e-005 1.7949102e-005 -0.057626266 -0.99049097 2.7507443e-007 8.1351e-006
-8.6765091e-008 0.0002185979 -2.5761622e-006 -4.6735369e-007 0.9999373 -0.0028092964
18836.490894898 0.99647027 -0.010584997 3.5244146e-005 -6.5191243e-006 -3.4133348e-006 0.00023273008
1.1630126e-005 -3.8861253e-007 -0.11401727 -0.98577708 -2.8682673e-006 5.9374787e-007
5.6179706e-006 0.00022791285 -5.6440176e-006 -3.7729019e-006 0.99982667 -0.0027221667
19952.623149689 0.99644166 -0.011184507 -2.9446917e-006 -6.2740264e-006 2.7213388e-005 0.00024392488
4.9513205e-006 -2.3396825e-007 -0.16949219 -0.97775203 -8.1648625e-007 2.3526718e-005
1.2302823e-008 0.00024835565 2.464338e-006 -8.4276093e-007 0.99979532 -0.0028533726
21134.890398366 0.99653089 -0.011847607 1.7580249e-005 -8.8646348e-006 -2.7494996e-005 0.00027260566
5.655158e-006 -2.6218972e-006 -0.22421353 -0.96663016 4.813227e-006 -3.205234e-006
6.7992337e-006 0.00025180951 -2.7534621e-005 1.5523545e-005 0.99987525 -0.0029679365
22387.211385683 0.99645865 -0.012544618 -9.9881727e-006 -8.6838118e-006 -5.5704442e-007 0.00028769841
-4.8669717e-006 -2.9694522e-006 -0.27721301 -0.95269555 -3.2280868e-006 1.9834335e-006
7.456094e-006 0.0002842581 -2.7902372e-005 -7.6451643e-006 0.99962306 -0.0031401098
23713.737056617 0.9964968 -0.013325277 2.6330647e-005 -3.0034798e-007 1.4888344e-005 0.00031983433
1.7426446e-006 -2.1390251e-006 -0.328917 -0.93599027 -7.4230938e-006 2.112791e-006
8.9257537e-006 0.0002774765 -6.0469715e-006 -2.734037e-006 0.99971575 -0.0030301355
25118.864315096 0.99635786 -0.014239498 -6.6307157e-006 2.444553e-006 1.7520686e-006 0.00032526566
-8.9908872e-006 -3.1974823e-006 -0.37844312 -0.91715235 -1.9484078e-006 -1.1327881e-005
-8.4693529e-006 0.00031273911 4.2967586e-006 2.2343222e-006 0.9998095 -0.0035006308
26607.250597988 0.99635673 -0.014780799 -1.852833e-005 1.3859675e-005 -1.4533687e-006 0.00034104183
6.991246e-007 1.0527127e-005 -0.42596686 -0.89629173 -1.329137e-005 -1.1617102e-006
-1.7522312e-007 0.00035437537 -1.4693317e-005 -2.6157031e-006 0.99980134 -0.003573071
28183.829312645 0.99639314 -0.01586947 1.3732792e-005 2.7909247e-005 -2.1996886e-005 0.00032120166
-3.9882311e-006 5.0590938e-006 -0.47142312 -0.87324411 9.0478634e-006 -1.3222355e-005
5.5683777e-006 0.00035309725 8.3454424e-006 1.8939205e-006 0.99982077 -0.0036973187
29853.82618918 0.99639541 -0.016852228 9.9750087e-006 -3.9533852e-006 -2.2195104e-006 0.00036366758
1.6153095e-006 9.6566764e-006 -0.51415628 -0.84868926 -1.4886698e-005 -4.0318837e-006
1.2129484e-006 0.00038265006 -8.4050989e-006 1.3165742e-005 0.99970347 -0.0037647807
31622.776601684 0.9961738 -0.017932892 3.0242454e-006 1.7451008e-005 1.9538895e-005 0.00039111928
3.9180732e-006 5.9043523e-006 -0.55447572 -0.82308501 1.9198003e-006 -3.2644829e-007
-2.9900523e-006 0.00040070439 -1.444927e-005 2.6895611e-006 0.99981755 -0.0040315879
33496.543915783 0.99646735 -0.018774839 -1.4199719e-007 1.8589933e-005 8.123945e-006 0.00041658862
-1.459165e-005 -8.7313929e-006 -0.59246927 -0.79627544 8.1710659e-006 -1.2969464e-006
1.362322e-005 0.0004119034 -1.639593e-005 -3.4265108e-006 0.99970657 -0.0042144675
35481.338923358 0.99617231 -0.019968294 -2.5294185e-006 1.1089654e-005 1.5059542e-005 0.00043754472
3.163243e-006 1.8604464e-006 -0.62794876 -0.76864797 -1.2520101e-005 6.019081e-006
5.5616106e-006 0.00041795816 -9.1825859e-006 -9.0820913e-006 0.99968737 -0.0043082549
37583.740428844 0.99626851 -0.021106772 -1.1747521e-005 7.9219353e-007 7.2356165e-006 0.00046287634
-3.4836517e-006 -2.4623544e-006 -0.66088176 -0.74063981 5.7018415e-006 3.6393444e-006
9.3436429e-006 0.00045588287 -1.6352312e-006 -5.4387729e-006 0.99962521 -0.0045750933
39810.71705535 0.99624991 -0.022352789 6.7497249e-006 1.8103719e-005 9.5723017e-006 0.00049999123
7.2853568e-006 5.3996887e-006 -0.69140434 -0.71249557 -5.9041431e-006 6.184569e-006
1.6624032e-005 0.00049493427 6.7829897e-006 1.265633e-005 0.99950308 -0.004771308
42169.650342858 0.99605966 -0.023571866 -3.9023125e-006 -1.0866907e-005 1.3030853e-005 0.00051543891
-1.0275244e-005 -8.1966991e-006 -0.71967763 -0.68412197 9.6873555e-006 1.9360841e-005
1.9583247e-005 0.00052631326 1.1117763e-005 9.2762921e-006 0.99940246 -0.0049949232
44668.359215096 0.99630725 -0.024983842 -1.4481458e-005 1.9153105e-005 2.1466021e-005 0.00055007212
2.0979785e-006 4.0425516e-006 -0.74572802 -0.65581554 -4.7440417e-006 6.7871401e-006
1.2305345e-005 0.00054465089 -6.3431817e-006 9.7731681e-006 0.99945235 -0.005160226
47315.125896148 0.99630505 -0.026522163 -1.1869216e-005 -3.4708264e-005 9.0727008e-006 0.0005947501
-1.0921295e-006 7.7887953e-006 -0.76957691 -0.62782556 -7.9214842e-006 -4.237244e-006
1.4010697e-005 0.00056747155 2.7999981e-006 8.8647612e-006 0.99946845 -0.0054944716
50118.723362727 0.99615645 -0.02800682 -2.4129091e-005 -7.7507201e-007 1.6724849e-005 0.00061833259
-7.3860897e-006 5.7853281e-006 -0.79148114 -0.60015351 7.3931001e-006 6.0243315e-006
-3.15791e-006 0.00063208555 3.1832221e-006 1.3051672e-005 0.9993149 -0.0057243397
53088.444423099 0.99604881 -0.029753409 -6.3208563e-006 1.2672896e-005 9.3036891e-007 0.00064718671
-3.7260199e-006 -1.0555876e-006 -0.81156838 -0.57310319 3.8158059e-006 2.7568751e-006
2.2890807e-005 0.00066442939 -1.0226312e-005 1.2036301e-005 0.99953103 -0.0060583083
56234.132519035 0.99606073 -0.031497069 8.8733141e-006 7.104838e-006 7.2845528e-006 0.00070159242
-4.0126665e-006 7.6800688e-006 -0.82970202 -0.54665315 -5.0088693e-006 4.3678119e-006
2.3239025e-005 0.00070500036 3.3209981e-005 1.8273302e-005 0.99947256 -0.0063083177
59566.214352901 0.99595958 -0.033364631 1.6528345e-005 -3.0944027e-006 1.6115759e-005 0.00075852935
5.0347794e-006 9.2812625e-006 -0.84629554 -0.52091676 4.4148242e-006 8.6135597e-006
2.6207925e-005 0.00071684719 1.7834087e-005 1.9241388e-005 0.99913025 -0.0066103479
63095.734448019 0.99582142 -0.035333559 -5.3067203e-007 6.0068696e-006 3.4946326e-005 0.00077221193
-3.1835159e-006 -4.6670107e-006 -0.86121994 -0.49585587 1.8607122e-006 -1.1779747e-005
1.768871e-005 0.00077196077 1.3975974e-005 -3.9458999e-007 0.99932814 -0.0069495034
66834.391756861 0.99571323 -0.037321057 -1.5358868e-005 -2.5643196e-006 5.9600484e-006 0.00083159667
-5.0373151e-006 2.7495723e-006 -0.87489516 -0.47165945 -9.4401148e-006 1.594983e-005
2.003577e-005 0.00083695172 1.7551649e-005 -1.5531892e-005 0.99942553 -0.0072268886
70794.578438414 0.99561888 -0.039529674 -2.2135391e-005 1.1327631e-005 4.1527939e-005 0.00086068979
5.6215727e-006 7.3606702e-006 -0.88721108 -0.44845748 6.2281074e-006 1.2092903e-005
2.7034672e-005 0.00086474203 8.8504057e-006 -2.9945213e-006 0.99905282 -0.0078303311
74989.420933246 0.99551302 -0.041909311 1.3425994e-005 2.3765471e-005 4.3314525e-005 0.00092680799
9.6158037e-006 -5.8832023e-007 -0.89837939 -0.42591634 -6.9990288e-006 -1.2178779e-005
5.3170133e-005 0.00093087507 9.7743095e-006 1.9818022e-005 0.99925065 -0.0079745101
79432.823472428 0.99538809 -0.044286948 -1.7293916e-005 9.9764238e-006 2.8529086e-005 0.00097414281
-6.1615151e-006 1.4596563e-005 -0.90853179 -0.4042207 -6.4156097e-007 -1.9940835e-006
4.1481413e-005 0.00095322874 -6.3143793e-006 1.873337e-005 0.99903399 -0.0084133754
84139.514164519 0.99523193 -0.046892412 -1.4985018e-005 1.9638594e-006 5.5552347e-005 0.0010322193
-7.7969071e-006 1.6818514e-005 -0.91750264 -0.38359982 8.1313628e-006 4.5028069e-006
5.9620965e-005 0.0010511405 6.8627846e-006 5.0177641e-006 0.99896044 -0.008866692
89125.093813375 0.99512947 -0.049589247 1.3343933e-005 -1.891043e-005 3.0909152e-005 0.00108957
-5.1155739e-006 8.8908928e-006 -0.92573529 -0.36370695 -2.5726868e-006 1.120943e-006
2.9686076e-005 0.0010965737 -2.412133e-006 1.3795177e-005 0.99914205 -0.0094339754
94406.087628592 0.99491417 -0.052579556 1.4900539e-005 -8.0729733e-006 6.5073022e-005 0.0011694944
-3.9736242e-006 2.9420137e-006 -0.9331153 -0.3447473 1.512081e-006 -1.7933498e-006
5.1668285e-005 0.0011490479 -1.2154949e-006 6.8231316e-007 0.99916792 -0.0097571304
100000 0.99479711 -0.055677239 -2.0345844e-005 -9.2023001e-006 7.3672425e-005 0.0012533606
-6.1728069e-006 1.1896954e-005 -0.93963802 -0.32655773 1.5445366e-005 1.2671974e-005
5.3711687e-005 0.0012193067 -8.129395e-007 1.6733124e-005 0.99897784 -0.010405439
105925.37251773 0.99471903 -0.05891316 -1.2240765e-005 -4.6565983e-006 7.2242336e-005 0.0013028892
-6.8675872e-006 1.0530215e-005 -0.94563586 -0.3093318 9.8143737e-006 8.9662881e-006
6.8947404e-005 0.0013084243 -3.3591052e-006 2.7854949e-005 0.9989332 -0.010756301
112201.8454302 0.99454284 -0.062406875 1.4848779e-005 -1.0532385e-005 7.6008313e-005 0.0013888162
-6.3635607e-006 1.4225065e-005 -0.95094258 -0.29290116 6.4666906e-006 1.429471e-005
7.9606158e-005 0.0013773284 3.2622854e-006 -1.5610985e-005 0.99900711 -0.011502544
118850.2227437 0.9943096 -0.065979742 3.6444001e-006 1.9308187e-005 7.7246776e-005 0.0014693955
-7.3751517e-006 1.2236577e-005 -0.95571184 -0.27711427 -1.0365356e-005 7.4128234e-006
0.00010070981 0.0014562372 9.8004302e-006 -1.2999174e-006 0.99892414 -0.012094053
125892.54117942 0.99411279 -0.069952942 -1.8686658e-005 4.2937761e-005 0.00010359943 0.0015498978
-1.892899e-006 1.5409527e-005 -0.96007633 -0.26220983 -1.5106483e-005 3.7979858e-006
0.0001085523 0.0015495974 -2.2940925e-005 -3.1951822e-006 0.99916536 -0.012660708
133352.14321633 0.99366736 -0.074201755 7.510946e-007 4.1462076e-006 0.00010995753 0.0016408897
5.7498437e-006 1.0620919e-005 -0.96393561 -0.24795507 -1.0127009e-005 5.6856443e-006
0.00010452922 0.0016259946 -1.3029177e-005 1.4928171e-005 0.99885976 -0.013458979
141253.75446228 0.99348521 -0.078548484 -6.7820264e-007 -1.1318469e-005 0.00013716212 0.0017150312
-7.4920226e-006 1.1484355e-005 -0.96729481 -0.23455738 1.1099714e-006 -6.6868672e-008
0.00014177682 0.0017326843 -1.9213865e-006 2.5252466e-005 0.99909157 -0.014259934
149623.56560944 0.99296653 -0.083136611 -2.1390999e-005 2.0363352e-006 0.00015096771 0.0018408282
-3.5430744e-006 2.567913e-005 -0.97046947 -0.22173719 7.9436968e-006 -4.8760585e-006
0.00012684778 0.0018009624 -5.3117542e-006 2.1582628e-005 0.99879563 -0.015257994
158489.31924611 0.99247974 -0.088137172 -1.288639e-005 5.3777062e-006 0.00010696854 0.0019368208
-1.6179472e-005 9.5367759e-006 -0.97318977 -0.20952688 2.1289643e-006 -1.9818851e-006
0.0001516312 0.0019354254 1.6460599e-005 1.8179545e-006 0.99888259 -0.016030258
167880.40181226 0.9919458 -0.093312331 -1.0645597e-005 1.1330869e-005 0.0001385022 0.0020227346
-2.0443522e-006 1.9709409e-005 -0.9757008 -0.19784819 7.6153028e-006 1.6676846e-005
0.00015331076 0.0020665491 -2.1705604e-005 -1.0660344e-005 0.99880636 -0.016942762
177827.94100389 0.99139643 -0.098771594 -1.8836352e-005 1.1490364e-005 0.00018801597 0.0021706792
-7.3005804e-006 1.6063894e-005 -0.97732663 -0.18596779 5.408886e-006 2.1994547e-005
0.00018923062 0.0021731597 2.4288927e-005 2.5918349e-005 0.99874145 -0.017974565
188364.90894898 0.99072897 -0.10449977 -6.9728071e-006 2.4607072e-005 0.00020732931 0.0022845771
-1.7847793e-005 2.3077138e-005 -0.97974783 -0.17710365 -1.7862626e-006 4.473171e-006
0.00019918325 0.0022859201 -2.4554291e-005 3.4059569e-005 0.99872297 -0.019057628
199526.23149689 0.98999059 -0.11071911 -2.0538653e-005 1.1283355e-005 0.00022549188 0.0024390428
-1.2392464e-005 1.2638441e-005 -0.98159885 -0.16715643 -6.3272691e-006 2.7914693e-005
0.0002311378 0.0024309268 -1.1766932e-005 -5.7642874e-006 0.998519 -0.020242903
211348.90398366 0.98936146 -0.11728404 -1.5049997e-005 3.4654015e-005 0.00026554626 0.0025548132
-1.9231238e-005 1.2860989e-005 -0.98328996 -0.15785684 -1.0074597e-005 1.1393837e-005
0.00023625551 0.0025553233 -1.3106005e-005 1.416175e-005 0.99854684 -0.021306101
223872.11385683 0.98857319 -0.12410707 -1.5643354e-005 1.190969e-005 0.00029407715 0.0027284943
-8.1541175e-006 1.8747751e-005 -0.98471177 -0.14899535 -2.3501843e-006 1.7496689e-006
0.00028907909 0.0026968347 1.310609e-006 3.6398393e-005 0.99851108 -0.022262489
237137.37056617 0.98754466 -0.13144277 -2.64599e-005 1.8430555e-005 0.00030553102 0.0028539186
-1.365915e-005 1.9323736e-005 -0.98594207 -0.14061023 6.1211831e-006 1.1381037e-005
0.00030317335 0.0028700649 6.2635909e-006 8.0506452e-006 0.99842578 -0.023538787
251188.64315096 0.98647982 -0.13910365 -1.2188461e-005 4.4761423e-006 0.00036199627 0.0030367447
-1.1390367e-005 1.4975156e-005 -0.98708618 -0.13270815 -8.1353073e-006 1.5089571e-005
0.00034386426 0.0030288862 -4.6032812e-007 2.153505e-005 0.99833077 -0.025067644
266072.50597988 0.9853186 -0.14734645 -4.3591062e-005 1.9102679e-005 0.00038146978 0.0032179798
-1.5985635e-005 1.8889006e-005 -0.98813003 -0.12524033 -2.0124514e-006 2.1540873e-005
0.00037562466 0.0031931072 -1.5930669e-005 2.2491646e-005 0.99818343 -0.026484054
281838.29312645 0.98389685 -0.15596034 -3.3394585e-006 1.7281342e-005 0.00042361559 0.0033626088
-2.7862652e-005 1.8206696e-005 -0.98899925 -0.11816068 -1.0062711e-006 1.8180637e-005
0.00043659692 0.0033651653 3.357334e-006 7.512057e-006 0.99804658 -0.028004397
298538.2618918 0.98229402 -0.16492248 -4.9951726e-005 8.9815121e-006 0.00046325452 0.0035635405
-2.631891e-005 3.8951574e-005 -0.98979634 -0.11136954 -1.6913441e-006 9.8188812e-006
0.00048931636 0.003550695 -1.1267461e-005 3.0367188e-005 0.99792022 -0.029639047
316227.76601684 0.98062241 -0.1746446 -2.6804593e-005 3.8105838e-005 0.00053403236 0.0037670261
-2.6246717e-005 2.9186858e-005 -0.99049896 -0.10503432 -5.7827961e-006 1.3853452e-005
0.00053666811 0.0037812986 -4.9736133e-007 2.1418251e-005 0.99765879 -0.031108744
334965.43915783 0.97865456 -0.1848473 -2.2792437e-005 1.3561915e-005 0.00058646599 0.0039691734
-2.2850147e-005 2.6147531e-005 -0.99125189 -0.099213198 -1.5332287e-005 2.5384865e-005
0.00058664952 0.0039694961 -7.3934111e-006 1.6530346e-005 0.99770528 -0.032845952
354813.38923358 0.97671431 -0.19545981 -3.4811852e-005 3.8744372e-005 0.00064321654 0.0041971928
-2.7988019e-005 3.7623955e-005 -0.99183369 -0.093405172 1.028418e-005 2.8612008e-005
0.00065997837 0.0041840342 -1.8771868e-006 4.1505546e-006 0.99759585 -0.034772705
375837.40428844 0.97426546 -0.20675056 -3.621653e-005 2.9636083e-005 0.00070651522 0.0044241864
-3.5567755e-005 3.7470592e-005 -0.99229085 -0.087907843 -1.3447161e-005 2.3618961e-005
0.00071753829 0.0044241869 -5.9084036e-006 1.9632944e-005 0.99752676 -0.03671151
398107.1705535 0.97180265 -0.21874955 -3.2293581e-005 1.8803605e-005 0.00077515654 0.004668945
-3.9517843e-005 2.4322815e-005 -0.99277008 -0.082627721 -3.3067283e-006 1.7660981e-005
0.000788946 0.0046721199 1.2356846e-005 3.4636723e-005 0.99734998 -0.039023839
421696.50342858 0.96861643 -0.23136269 -4.148452e-005 1.8555349e-005 0.00089233677 0.0049116467
-4.9886439e-005 3.8949271e-005 -0.99300295 -0.07748051 -3.5207038e-006 2.3091987e-005
0.00089808035 0.0049228645 -1.1945909e-005 3.1509968e-005 0.99718148 -0.041160084
446683.59215096 0.96539086 -0.2446233 -4.6876943e-005 3.2662945e-005 0.00092755473 0.0051815626
-6.8905872e-005 5.0522896e-005 -0.99304193 -0.073786773 -6.0740928e-007 2.5650052e-005
0.00096529 0.0052016219 5.3122693e-007 1.8388093e-005 0.99662393 -0.043504857
473151.25896148 0.96154541 -0.25846183 -4.5695491e-005 3.034884e-005 0.0010586274 0.0054819644
-5.0749233e-005 4.7849724e-005 -0.99376166 -0.069575839 -1.1625432e-005 3.322876e-005
0.0010570001 0.005452272 1.4506314e-005 3.9146256e-005 0.99664015 -0.045886874
501187.23362727 0.95725453 -0.27328011 -6.8753659e-005 5.2470055e-005 0.0011564392 0.0057424996
-6.8996647e-005 4.0156487e-005 -0.99418586 -0.065333366 -1.0097669e-005 3.0567713e-005
0.0011600034 0.0057787881 -4.12093e-006 5.1817391e-005 0.99639428 -0.048437234
530884.44423099 0.95266783 -0.28889224 -8.4503052e-005 6.1698607e-005 0.0012893357 0.0060923155
-7.1067552e-005 4.6630852e-005 -0.99442053 -0.061334308 -2.3274333e-005 4.0075032e-005
0.0012911402 0.0060594599 5.0015683e-006 2.3874099e-005 0.99636978 -0.051224127
562341.32519035 0.9474802 -0.30502412 -7.9615376e-005 6.0007958e-005 0.0014332845 0.0063937688
-7.9352925e-005 4.6799189e-005 -0.994757 -0.05757669 -2.6560152e-005 3.4660032e-005
0.0014280297 0.0064100842 -7.1210625e-006 2.0600715e-005 0.99594569 -0.054157343
595662.14352901 0.94192457 -0.32194462 -7.7738179e-005 7.2641669e-005 0.0015922996 0.0067364057
-9.2044887e-005 6.3263265e-005 -0.99498212 -0.054047655 -1.463028e-005 3.7532627e-005
0.0015865489 0.0067482125 -3.4290604e-006 3.0676303e-005 0.99588811 -0.057287108
630957.34448019 0.93575233 -0.3398923 -0.00011326009 4.5624754e-005 0.0017288686 0.0071098432
-8.7248693e-005 6.5178574e-005 -0.99510729 -0.050626766 -1.4774794e-005 4.1001404e-005
0.0017214464 0.0070981435 -3.0628449e-005 3.1547032e-005 0.99553013 -0.060672034
668343.91756861 0.92861813 -0.35875562 -0.00010708351 8.4670028e-005 0.0019446927 0.0074788062
