!Keysight Technologies,E5080A,MY55100144,A.11.70.03
!Date: Monday, November 13, 2017 17:24:07
!Correction: S11(Full 3 Port(1,2,3)) 
!S12(Full 3 Port(1,2,3)) 
!S13(Full 3 Port(1,2,3)) 
!S21(Full 3 Port(1,2,3)) 
!S22(Full 3 Port(1,2,3)) 
!S23(Full 3 Port(1,2,3)) 
!S31(Full 3 Port(1,2,3)) 
!S32(Full 3 Port(1,2,3)) 
!S33(Full 3 Port(1,2,3)) 
!S3P File: Measurements: <S11,S12,S13>,
!<S21,S22,S23>,
!<S31,S32,S33>:Log Frequency Sweep
# Hz S  RI   R 50
10000 0.9967919 -0.0018936249 2.8543584e-006 0.00046073797 1.4203283e-005 0.00014721589
0.00024507078 0.00047304956 0.99795884 -0.0038749261 2.7395246e-005 0.00073379208
-1.1610204e-005 0.00016457899 3.5329693e-005 0.00071367132 0.99983966 -0.0023684455
10592.537251773 0.99694347 -0.0021417558 -2.0462925e-005 0.00047938342 7.027973e-006 0.00017072994
0.00019979947 0.00050043245 0.9980005 -0.003948851 7.6653341e-006 0.00076425815
1.2066567e-005 0.00019051613 7.078891e-006 0.00074787962 0.99997693 -0.0023268389
11220.18454302 0.99708861 -0.0021825773 -1.6282589e-005 0.00054424413 1.2708504e-005 0.0001790244
0.00015150527 0.00051716738 0.99804842 -0.0041520651 5.4350899e-006 0.00081504369
-5.1456882e-006 0.00017650276 1.8558459e-005 0.00079115009 0.99986815 -0.0023121575
11885.02227437 0.99687064 -0.0021859775 -1.3971197e-005 0.00055576029 3.8104504e-006 0.0001933692
0.00012399796 0.00053743727 0.99825478 -0.0042361449 2.5313991e-006 0.00085031969
2.5372365e-005 0.00018625817 1.9305421e-006 0.00085374853 0.99994296 -0.0024700386
12589.254117942 0.997033 -0.0023778973 5.6393169e-006 0.00056537229 -6.1719038e-006 0.00020778427
0.00011040542 0.00058504631 0.99823427 -0.0044407593 2.9146702e-007 0.00089543225
-1.0152662e-005 0.00018304784 1.5054314e-005 0.00091885857 1.0000957 -0.0024976332
13335.214321633 0.99713182 -0.0024936276 1.3921962e-005 0.00060712587 -7.5625762e-006 0.00022509987
9.8815224e-005 0.00064558152 0.99852341 -0.0047394 1.3436814e-005 0.00094856869
-2.8637098e-006 0.00020342175 1.3372314e-005 0.00096770964 0.99996138 -0.002474003
14125.375446228 0.99695843 -0.0027904301 -5.0393214e-006 0.00065214577 3.571784e-006 0.00023169097
0.00010212874 0.00064798229 0.99843216 -0.0049230792 2.2416596e-006 0.00099298661
2.294327e-006 0.00021691257 5.8637106e-006 0.0010004818 1.0001301 -0.0024818303
14962.356560944 0.99703193 -0.0027746484 -8.2305332e-006 0.00068634341 1.9907651e-005 0.00021252573
8.378554e-005 0.00068527448 0.99842209 -0.0049927686 1.9950778e-005 0.0010539987
-9.4803872e-006 0.00024561596 2.9742721e-005 0.0010705569 1.0000644 -0.0026873059
15848.931924611 0.99714214 -0.0031194489 -6.8095742e-006 0.00072126131 -1.7547836e-005 0.00026624164
8.803932e-005 0.00072932942 0.99830037 -0.0052904864 1.5538511e-005 0.0011547509
-8.8402321e-006 0.00025413861 4.3172163e-006 0.0011378181 1.0001453 -0.0025530094
16788.040181226 0.99706483 -0.0033360478 -6.2590884e-006 0.00079115049 -1.1184786e-005 0.00028129679
8.2459526e-005 0.00079103053 0.99839234 -0.0054654363 3.4791916e-005 0.0011994533
4.7829944e-006 0.00027213787 1.1375881e-005 0.0011901638 0.99991971 -0.0028522878
17782.794100389 0.99706566 -0.0032558963 2.4720108e-005 0.00080728129 -3.5502867e-006 0.00026934722
0.00010159924 0.0008426698 0.99861628 -0.0058665262 6.4305432e-006 0.001252675
8.1744911e-006 0.00027983414 1.5199224e-005 0.001260317 0.999937 -0.0028046749
18836.490894898 0.99706638 -0.0033490101 -1.0145624e-006 0.00088059332 1.616358e-005 0.00029964696
8.8494831e-005 0.00085794524 0.99857283 -0.0061904937 6.1179094e-006 0.0013452028
-5.258672e-006 0.00030350959 1.6891001e-005 0.0013421831 0.99992007 -0.002846489
19952.623149689 0.99704272 -0.003806374 -5.0465146e-006 0.00091962458 -9.8602877e-006 0.0003160318
8.0581878e-005 0.00092460512 0.99857658 -0.0064659542 7.8491157e-006 0.0014281946
1.6748816e-005 0.00032000124 -9.0868116e-006 0.0014187875 0.99997991 -0.002862857
21134.890398366 0.99714535 -0.0039480929 -7.1501527e-006 0.00098371715 -1.6424223e-005 0.00033165741
8.2138627e-005 0.00099053292 0.9985078 -0.0066994694 2.5990947e-005 0.0015063802
-1.1326616e-005 0.00034453371 9.6797312e-006 0.0015173202 0.99977666 -0.0031099548
22387.211385683 0.99705052 -0.0043449267 5.6930394e-006 0.0010126022 -2.9443031e-006 0.00036808089
0.00010222199 0.0010541305 0.99868971 -0.0070296191 1.4079136e-005 0.0015863176
1.3235531e-005 0.00034576567 1.4756991e-005 0.0015929645 1.000035 -0.003094642
23713.737056617 0.99706948 -0.0046105795 -2.8420397e-006 0.0010993353 1.4417284e-005 0.0003757333
8.1831924e-005 0.0011116968 0.99866939 -0.0074340296 2.9337723e-005 0.001692834
4.5018046e-006 0.00039642409 2.8741028e-005 0.0017021849 0.99979103 -0.0031351733
25118.864315096 0.99715739 -0.0047214231 1.6808663e-005 0.0011838479 1.7137556e-005 0.00040475288
9.3804731e-005 0.0011711631 0.99849463 -0.0077240737 2.5887211e-005 0.0017952332
1.622526e-005 0.00041712189 1.5000933e-005 0.0017793749 0.99992931 -0.0034242214
26607.250597988 0.99716187 -0.0048931497 -2.841451e-007 0.0012354582 -6.9900498e-006 0.00044985846
7.2981355e-005 0.0012502263 0.99861169 -0.0082971845 3.522565e-005 0.0018945782
3.4857039e-006 0.00043361294 4.6611924e-005 0.0018884414 0.99981779 -0.0034523697
28183.829312645 0.99709946 -0.00544794 1.7732045e-005 0.0013006311 -5.083949e-006 0.00044762157
9.3945506e-005 0.0013178552 0.99871743 -0.0086447001 2.1751626e-005 0.0020062558
8.3069335e-006 0.00044569524 2.216469e-005 0.0020090959 0.99988997 -0.0036148787
29853.82618918 0.99718249 -0.0057224361 -6.9586654e-006 0.0013716229 2.147178e-005 0.00044907877
9.8683951e-005 0.0013779415 0.9986853 -0.0091312686 5.2977222e-005 0.0021416021
-6.8023219e-006 0.00047496532 2.0207126e-005 0.0021142152 0.99976671 -0.0037174595
31622.776601684 0.99707222 -0.0060582114 -3.7238037e-006 0.0014466881 1.1566171e-005 0.00049019675
8.6392676e-005 0.0014743076 0.99860376 -0.0096926633 2.2416843e-005 0.002233536
8.8900588e-006 0.00049611123 3.8007987e-005 0.0022304971 0.99992412 -0.0040537296
33496.543915783 0.99703664 -0.0063813296 5.475988e-006 0.0015431844 1.0684601e-006 0.00054275512
8.9851506e-005 0.0015579102 0.99875474 -0.010346715 3.7813366e-005 0.0023970224
-7.4716813e-006 0.00054251432 2.3519711e-005 0.002374266 0.99973869 -0.0041637942
35481.338923358 0.99703246 -0.0066566817 1.4202406e-005 0.001642358 -7.6651213e-006 0.0005599914
8.6710694e-005 0.0016622283 0.9987728 -0.010985113 4.2425694e-005 0.0025163975
6.3011335e-006 0.00057023211 4.3341726e-005 0.0025265685 0.99968898 -0.0042123315
37583.740428844 0.99706131 -0.0072066137 1.8581266e-005 0.0017317592 2.8281167e-006 0.00061086338
7.6944685e-005 0.0017623639 0.99870414 -0.011563282 5.1139046e-005 0.002681351
6.9947669e-007 0.00059562013 5.6604178e-005 0.0026834491 0.9995808 -0.0045898291
39810.71705535 0.99704987 -0.0074447552 2.0837369e-005 0.0018357753 8.5027041e-006 0.00064465922
9.4634357e-005 0.0018539457 0.99861413 -0.012201467 7.1512448e-005 0.0028452133
8.1892549e-006 0.00064919179 5.6149929e-005 0.002846464 0.9997142 -0.004686045
42169.650342858 0.99689931 -0.0078897364 8.4161993e-006 0.0019492938 3.8515568e-006 0.00065326167
0.00011656378 0.0019711398 0.99875718 -0.012941706 6.4340929e-005 0.0029987313
1.2288457e-006 0.00066152232 4.2204691e-005 0.0030146185 0.99969119 -0.0050112889
44668.359215096 0.9971419 -0.0084515139 2.8214128e-005 0.0020629843 8.1771695e-006 0.00071135833
0.00012168163 0.0020676099 0.99865711 -0.013672318 6.2118568e-005 0.0031764295
1.7833425e-005 0.00071355817 4.2544161e-005 0.003185825 0.99942386 -0.0051711784
47315.125896148 0.99713826 -0.008904052 2.3630431e-005 0.0021763716 1.5779915e-005 0.0007429418
8.18966e-005 0.0022100101 0.99867731 -0.014426913 8.6680928e-005 0.0033728904
-1.1170225e-005 0.00075081858 8.4348278e-005 0.0033814397 0.99948299 -0.0054684384
50118.723362727 0.99705875 -0.0093295835 2.6927553e-005 0.0023314459 1.9530041e-006 0.00078660803
0.0001034878 0.0023487012 0.99860078 -0.015233551 7.5315249e-005 0.0035717057
-4.5938191e-006 0.00078783138 7.4167823e-005 0.0035725154 0.9994868 -0.0056060296
53088.444423099 0.99712616 -0.0099857021 3.7153404e-005 0.0024352423 2.6445954e-005 0.00085083494
0.0001015403 0.0024822152 0.99866664 -0.016222743 8.9679022e-005 0.0037886845
1.3643616e-005 0.00085688039 8.5466309e-005 0.0037703835 0.99942631 -0.0059386808
56234.132519035 0.99711847 -0.010668967 3.286474e-005 0.0025952952 2.7426427e-006 0.00089729269
0.00011106527 0.0026243813 0.99849379 -0.017244799 9.9545949e-005 0.0040112208
3.6932033e-005 0.00090166833 0.00011497539 0.0039992784 0.99941617 -0.0061427522
59566.214352901 0.99709255 -0.011280376 4.3318792e-005 0.002742029 2.7129711e-006 0.00094532757
0.00011627425 0.0027529348 0.99857825 -0.018272975 8.7973356e-005 0.004227737
-2.4095817e-007 0.0009475103 8.9477377e-005 0.0042255968 0.9993425 -0.0066147526
63095.734448019 0.9969117 -0.011788829 4.4454799e-005 0.0029028442 5.1563998e-006 0.0010058893
0.0001151971 0.0029316435 0.99850774 -0.019402536 0.00010790428 0.0044900943
2.7651364e-005 0.001003455 0.00011238944 0.0044699362 0.99929112 -0.0069813132
66834.391756861 0.99682558 -0.01258118 5.6053224e-005 0.0030689521 1.0311684e-006 0.0010485498
0.00010930975 0.0031132323 0.99835813 -0.020527743 0.0001265445 0.0047357948
2.3538947e-005 0.0010708803 0.00014196757 0.0047692419 0.99937052 -0.0073525207
70794.578438414 0.99682206 -0.013291409 6.4897213e-005 0.0032753979 2.706783e-005 0.0011279761
0.00010899408 0.0033038971 0.99820423 -0.021638686 0.0001381941 0.0050367033
4.3887896e-005 0.0011275496 0.00013951179 0.0050187544 0.99920964 -0.007587322
74989.420933246 0.99694711 -0.01400306 6.9709437e-005 0.0034470519 1.9194313e-005 0.0011807549
0.00012183202 0.0034855541 0.99834424 -0.022706956 0.00016365376 0.005315226
3.2453074e-005 0.0011875676 0.00015457932 0.0053091315 0.99925703 -0.0079587335
79432.823472428 0.99691266 -0.01488961 6.5963046e-005 0.0036672214 2.53089e-005 0.0012737975
0.00014240919 0.0036952647 0.99822789 -0.024041345 0.000161858 0.0056150355
2.3433919e-005 0.0012658158 0.00017701778 0.0056253616 0.99908698 -0.0085638072
84139.514164519 0.99684018 -0.01556152 5.2555151e-005 0.0038682651 1.9104897e-005 0.0013493915
0.00015342671 0.0039172652 0.99818134 -0.025421541 0.00019565079 0.0059734676
2.5708781e-005 0.0013291512 0.00021044261 0.0059457142 0.99897051 -0.0087945461
89125.093813375 0.99682087 -0.01653604 7.500076e-005 0.0040920009 2.0522366e-005 0.0014202965
0.00015085311 0.0041634832 0.99817675 -0.026890818 0.000240935 0.0063073067
2.9416011e-005 0.0014177145 0.00020762256 0.0063050296 0.99906707 -0.0093646133
94406.087628592 0.99685484 -0.017571133 8.4351996e-005 0.0043503391 2.9296782e-005 0.0014930121
0.00017787532 0.0043917308 0.99819928 -0.028544364 0.00025485191 0.0066712792
3.5341956e-005 0.0015020319 0.00023515406 0.0066875466 0.99909836 -0.0097930506
100000 0.99698019 -0.01840847 9.5126648e-005 0.0046177316 3.2333217e-005 0.0016004625
0.00016627218 0.0046577998 0.99796945 -0.030216554 0.00028586164 0.0070635853
2.6231615e-005 0.0015967507 0.00027239401 0.0070646638 0.99897993 -0.010230553
105925.37251773 0.99687707 -0.019673647 9.348763e-005 0.004864682 3.5677258e-005 0.0016807792
0.00016558878 0.0049242862 0.99817812 -0.031850085 0.00029105769 0.0074641104
4.6847566e-005 0.0016662616 0.00030215294 0.0074750455 0.99897021 -0.010804414
112201.8454302 0.99668336 -0.020768743 0.00012097563 0.0051666126 3.5173351e-005 0.0017736057
0.00019477187 0.0052281865 0.99801207 -0.033680044 0.00032619783 0.007917935
5.7577654e-005 0.0017964587 0.00031141262 0.007916471 0.99900097 -0.011498668
118850.2227437 0.99693513 -0.02209145 0.00013492668 0.0054782797 2.4759631e-005 0.0018760681
0.00020071623 0.0055408753 0.9979282 -0.035575014 0.0003640496 0.0083857002
3.1909673e-005 0.0018854962 0.0003569767 0.0084047206 0.99912173 -0.012075965
125892.54117942 0.99690944 -0.023264252 0.00013858518 0.0058260649 5.4904169e-005 0.0019749613
0.00022269614 0.0058789598 0.99798322 -0.037880361 0.00039791063 0.0088921422
3.9361315e-005 0.0019762446 0.00039559382 0.008889338 0.99912208 -0.012841544
133352.14321633 0.99687803 -0.024592914 0.00016886354 0.0061412831 3.8835187e-005 0.0020730093
0.00023183263 0.0062051076 0.99788266 -0.040136877 0.00046201565 0.0094027407
6.6759399e-005 0.0021218858 0.00045154337 0.009406846 0.99899513 -0.013376782
141253.75446228 0.99672282 -0.026227839 0.00019630423 0.0065438137 7.7980738e-005 0.0022253159
0.00024677382 0.006577963 0.997576 -0.042600777 0.00049981778 0.0099318875
6.4525819e-005 0.0022400795 0.0005088757 0.0099432394 0.99889737 -0.01433604
149623.56560944 0.99682331 -0.027580103 0.00021572871 0.0069279517 6.754644e-005 0.0023705678
0.00027785994 0.006972665 0.99740601 -0.045029417 0.00057555852 0.010516643
7.1322167e-005 0.0023675745 0.00055589183 0.01051307 0.99889773 -0.015266062
158489.31924611 0.99670333 -0.029433325 0.00023329086 0.0073148445 6.2270985e-005 0.0024915535
0.00031475018 0.0073743756 0.99728936 -0.047572959 0.00063494709 0.011127294
8.4759071e-005 0.0024925647 0.00062519038 0.011122989 0.99899417 -0.015921939
167880.40181226 0.99647176 -0.031154456 0.00029185307 0.0077544996 0.00010647235 0.002655633
0.00033995567 0.0078302054 0.99711835 -0.050380517 0.00070074794 0.011774454
9.429903e-005 0.0026654541 0.00066746696 0.011751475 0.99885011 -0.016815685
177827.94100389 0.99663305 -0.03291218 0.00029250269 0.0082024755 9.7091899e-005 0.0027994048
0.00038079315 0.008297584 0.99702513 -0.053576916 0.00075770071 0.012462268
0.00010253856 0.0028149823 0.00078976428 0.012460616 0.99875343 -0.017816596
188364.90894898 0.99625707 -0.03483934 0.00034933593 0.008688665 0.00011219448 0.0029555922
0.00041611688 0.0087848799 0.99670595 -0.056634542 0.00084666803 0.013164232
9.940302e-005 0.0029711383 0.00086040399 0.013181657 0.99850595 -0.019074608
199526.23149689 0.99619269 -0.036953602 0.0003822431 0.0092218369 9.9170822e-005 0.0031317833
0.0004536811 0.0092954105 0.99661493 -0.060085859 0.00095484685 0.013950458
0.00011559448 0.0031320604 0.00092602649 0.013920529 0.99864554 -0.020081721
211348.90398366 0.9961226 -0.039158717 0.00043993193 0.0097588478 0.0001428166 0.0033256446
0.00051948981 0.0098461332 0.99627352 -0.063363448 0.0010628433 0.014737641
0.00011464557 0.0033411575 0.0010421374 0.014733798 0.99843603 -0.021163078
223872.11385683 0.99604917 -0.041435387 0.00047598456 0.010339556 0.00013506424 0.0034991773
0.0005412614 0.010438439 0.99588948 -0.067297474 0.0011679706 0.015578128
0.00013125429 0.0035153755 0.001155777 0.015591869 0.99851871 -0.0222187
237137.37056617 0.99591011 -0.043830369 0.00053740881 0.010947031 0.00016588536 0.0037052215
0.00061285892 0.011058137 0.99553543 -0.071345471 0.0012993875 0.016470477
0.00013087942 0.0037167154 0.0012740495 0.0164665 0.99828053 -0.02351729
251188.64315096 0.99586034 -0.046525821 0.00060054613 0.011597607 0.00015500147 0.0039045599
0.00067605893 0.011700579 0.99525893 -0.07555791 0.0014255655 0.017438868
0.00016685446 0.0039411769 0.0014377522 0.017459417 0.9983511 -0.02506697
266072.50597988 0.99568266 -0.049205031 0.0006803351 0.012280763 0.00020245387 0.0041388501
0.000750935 0.012408091 0.99476004 -0.079896025 0.0015861272 0.018424666
0.00019068927 0.0041643786 0.0015574518 0.018418645 0.99812973 -0.026372729
281838.29312645 0.99549598 -0.052283615 0.00077501393 0.013037846 0.00019168589 0.0043769246
0.00087676389 0.013129656 0.99432188 -0.084441639 0.0017255136 0.019460563
0.00019558381 0.0043951059 0.0017495552 0.019456904 0.99810946 -0.027817417
298538.2618918 0.99523622 -0.055305034 0.00083631382 0.013780216 0.00021323103 0.0046635638
0.00095000886 0.013886739 0.99384588 -0.089287944 0.0018953331 0.02058257
0.0002010641 0.0046469262 0.0019173323 0.020564137 0.99790573 -0.029430654
316227.76601684 0.99500191 -0.058495067 0.00096442021 0.014613672 0.00021744061 0.0049064583
0.0010529628 0.014746244 0.99330723 -0.094772644 0.0021239885 0.021716125
0.00023022125 0.0048994622 0.0021109581 0.021747548 0.99755746 -0.031223327
334965.43915783 0.99480885 -0.061993301 0.0011099579 0.015488274 0.00026441546 0.0051906551
0.0011790226 0.015596724 0.99281323 -0.10011065 0.0023255593 0.022954904
0.00023925451 0.0051990286 0.0023279027 0.022973193 0.99738032 -0.032896373
354813.38923358 0.99446321 -0.065424681 0.0012488245 0.016417375 0.00026170575 0.0055048498
0.0013152601 0.016522786 0.99209607 -0.10591934 0.0025612374 0.024239974
0.00026865592 0.00547997 0.0025519372 0.024278728 0.9973917 -0.034903575
375837.40428844 0.99416006 -0.069355041 0.00138088 0.017385151 0.0002764836 0.0058240234
0.0014751073 0.017509153 0.99108821 -0.11216896 0.0028118705 0.025621764
0.00030080305 0.0058083017 0.0028351152 0.025632164 0.99729425 -0.036589444
398107.1705535 0.99396664 -0.073476367 0.0015841635 0.018404387 0.00030041876 0.0061438354
0.0016716588 0.018539086 0.99007022 -0.11880337 0.0030990161 0.027089056
0.00033248783 0.0061318097 0.0030925591 0.027092846 0.99697155 -0.038850762
421696.50342858 0.99350929 -0.07786236 0.0017870161 0.019485032 0.00032679329 0.0064911703
0.0018399123 0.019653207 0.98929262 -0.12570149 0.0033704219 0.028599337
0.00036383432 0.0064971992 0.0033837908 0.028596804 0.99660301 -0.041135769
446683.59215096 0.99326295 -0.082491189 0.0020036127 0.020620314 0.00036069838 0.0068611512
0.0020840941 0.020787219 0.98820257 -0.13303593 0.0037231075 0.030186035
0.00037394569 0.0068790005 0.0037396762 0.030226769 0.99632698 -0.043189365
473151.25896148 0.99283963 -0.087270983 0.00226639 0.021846198 0.00041181126 0.0072557707
0.0023433242 0.022017406 0.98692763 -0.14067426 0.0041019781 0.03188042
0.00041254648 0.0072603468 0.0041267946 0.031911742 0.99611938 -0.045857176
501187.23362727 0.99217838 -0.092533402 0.0025370263 0.023109358 0.00042424229 0.0076899845
0.0026374874 0.023279887 0.98581117 -0.14892156 0.0045283269 0.033661176
0.0004276268 0.0076745842 0.0045087729 0.033671848 0.99598479 -0.048163395
530884.44423099 0.99131101 -0.097834416 0.0028418051 0.024453236 0.00044518252 0.0081116669
0.0029579317 0.024644133 0.98436451 -0.15748039 0.0049620001 0.03556231
0.00048596386 0.0081244968 0.0049714111 0.035574839 0.99578941 -0.051123224
562341.32519035 0.99086404 -0.10349085 0.0032153751 0.025886802 0.00048360761 0.0085823182
0.0033275147 0.026090888 0.98252159 -0.1667913 0.0054651913 0.037547126
0.00050034578 0.0085769845 0.0054662488 0.037563045 0.99529308 -0.054074798
595662.14352901 0.99027574 -0.10958014 0.0036154261 0.027390461 0.00053110236 0.0090565523
0.0037312326 0.027584219 0.98051077 -0.17628784 0.0059935926 0.039623793
0.00051327352 0.0090916986 0.0059777354 0.039626628 0.99502933 -0.057201505
630957.34448019 0.98949665 -0.11601932 0.0040757773 0.028958542 0.00056992203 0.0096003134
0.0042051175 0.029165529 0.97855943 -0.18646304 0.0065825437 0.041843332
0.00056860666 0.0096145505 0.0065726042 0.041846119 0.99461412 -0.060436048
668343.91756861 0.98853177 -0.122849 0.0045642019 0.03062297 0.00059565081 0.010149785
0.0047156448 0.030834654 0.97617877 -0.19722001 0.0072414493 0.044165421
0.00060753239 0.010150182 0.0072398013 0.044159085 0.99430382 -0.063695267
707945.78438414 0.98752302 -0.12991658 0.0051234118 0.032363553 0.0006191234 0.010734859
0.0052851168 0.032610819 0.97347909 -0.2086 0.0079640346 0.046617046
0.00066670007 0.010760499 0.0079980958 0.046629224 0.99386537 -0.067546323
749894.20933246 0.98654193 -0.13767479 0.0057768784 0.034217283 0.00068353373 0.011352608
0.005928915 0.034485668 0.97023785 -0.22034574 0.0087806424 0.049179487
0.0007045049 0.011390468 0.0087743392 0.04919054 0.99320817 -0.071287669
794328.23472428 0.98485017 -0.14575949 0.0065147677 0.036159899 0.00074813294 0.012045901
0.0066527911 0.036399774 0.96778852 -0.2323443 0.0096506085 0.051901527
0.00075490115 0.012049166 0.0096564339 0.051913582 0.99258387 -0.07518217
841395.14164519 0.98372233 -0.15386865 0.0073028766 0.038186558 0.00079559162 0.012745867
0.0074292878 0.038456652 0.96437001 -0.24613941 0.010626401 0.054773413
0.00077350001 0.012750435 0.010628226 0.054788113 0.99232483 -0.079557046
