!Keysight Technologies,E5080A,MY55100144,A.11.70.03
!Date: Monday, November 13, 2017 17:23:42
!Correction: S11(Full 3 Port(1,2,3)) 
!S12(Full 3 Port(1,2,3)) 
!S13(Full 3 Port(1,2,3)) 
!S21(Full 3 Port(1,2,3)) 
!S22(Full 3 Port(1,2,3)) 
!S23(Full 3 Port(1,2,3)) 
!S31(Full 3 Port(1,2,3)) 
!S32(Full 3 Port(1,2,3)) 
!S33(Full 3 Port(1,2,3)) 
!S3P File: Measurements: <S11,S12,S13>,
!<S21,S22,S23>,
!<S31,S32,S33>:Log Frequency Sweep
# Hz S  RI   R 50
10000 0.99684739 -0.0016583822 7.9610963e-006 0.0003315717 1.0801768e-005 0.00017854825
-2.9875846e-006 0.000354863 0.99878567 -0.0037105496 1.3001536e-005 0.00070727099
5.8359192e-006 0.00015183624 1.716975e-005 0.00069422921 0.99990427 -0.0024852916
10592.537251773 0.99691868 -0.0017806198 -1.3533003e-005 0.00038492333 -2.7761823e-006 0.00017626891
1.1730875e-005 0.00035203525 0.99876195 -0.0038584399 1.9793557e-005 0.00072828762
-1.1156752e-005 0.00017314705 -1.0650565e-006 0.00074559241 1.0000163 -0.0021952954
11220.18454302 0.99707425 -0.0019340989 2.2030558e-006 0.0004140893 -2.2789052e-005 0.00017607337
9.7555676e-006 0.00039119506 0.99881947 -0.0040685143 6.0621987e-006 0.00079215661
-1.426424e-005 0.00018836763 1.0541645e-005 0.00080509658 1.0000576 -0.0023375875
11885.02227437 0.99681872 -0.0020440517 3.2953549e-006 0.00040532491 1.273226e-006 0.0001965884
2.6965017e-005 0.00038685949 0.99866277 -0.0040082601 6.768078e-006 0.0008424574
-8.5483171e-006 0.00020374767 2.3110897e-006 0.00084306515 1.0001298 -0.0023563688
12589.254117942 0.99689597 -0.0021169495 -7.6115011e-006 0.00041623245 -5.7937582e-006 0.00019748998
-2.1929529e-006 0.00041662983 0.99900651 -0.0043407213 4.8824227e-006 0.00091951468
-7.5345606e-006 0.00019833124 1.5309766e-006 0.00089750014 1.0001966 -0.0025672074
13335.214321633 0.99703163 -0.0021123351 8.0063382e-006 0.00047024494 -2.0450059e-006 0.00022567133
7.5313278e-006 0.00046049067 0.99899709 -0.0044677183 2.872297e-005 0.00097248977
1.0186808e-005 0.00021169116 -2.2001088e-005 0.00094237225 0.9999935 -0.0023911472
14125.375446228 0.99693531 -0.0023640953 6.5927011e-006 0.00049652561 -5.8551827e-006 0.00021845713
8.1905619e-006 0.00048742798 0.99883127 -0.004690588 1.4066615e-005 0.00098735688
2.1171038e-006 0.0002291745 -4.2863335e-006 0.00099483097 1.0001167 -0.0026057786
14962.356560944 0.99692857 -0.0025000863 3.1041443e-005 0.00050529995 5.3304243e-006 0.00024058722
9.8802157e-006 0.00053241529 0.99897313 -0.0048085251 -9.162578e-006 0.0010568838
1.0017763e-005 0.00022664668 -1.7175391e-006 0.001068646 1.000093 -0.0026466271
15848.931924611 0.99718571 -0.0027485471 -2.9232072e-007 0.00056481874 -1.1426062e-005 0.00024163676
1.1644368e-005 0.0005536268 0.99896413 -0.0050272075 1.81626e-005 0.0011317868
1.6275895e-006 0.00025341322 -2.331509e-006 0.0011124461 1.0001359 -0.0025154662
16788.040181226 0.99695748 -0.0029436962 2.1092996e-005 0.0005861622 -2.9562593e-006 0.0002454838
2.7940291e-006 0.00058375363 0.9989481 -0.0052070022 4.7350345e-006 0.0011932997
5.246312e-006 0.00028032844 2.4402529e-005 0.0011939408 0.99989766 -0.002834196
17782.794100389 0.99705857 -0.0028355939 2.6960593e-006 0.00061940681 5.5519549e-006 0.00027850064
-1.3477087e-005 0.00061377021 0.99893433 -0.0056467224 -2.2585791e-006 0.0012869569
-4.7485919e-006 0.00028904315 2.3316365e-005 0.0012491326 0.99992448 -0.0027925104
18836.490894898 0.99713695 -0.0030025565 -9.9235913e-006 0.00065508671 -9.2568616e-006 0.00030456317
2.8435009e-006 0.00066142052 0.99901897 -0.005876197 5.4733523e-006 0.001331889
1.1566027e-005 0.00030770514 2.4648141e-006 0.0013188907 0.99995267 -0.0028412403
19952.623149689 0.99714702 -0.0032996682 3.3361064e-006 0.0006819563 1.5006396e-005 0.00032565513
2.0397399e-006 0.00070643215 0.99901992 -0.0061852159 1.9516998e-005 0.0014241352
-1.4779832e-006 0.00034210525 2.7967426e-006 0.0014107116 0.99993557 -0.0028374535
21134.890398366 0.99706101 -0.0036131765 1.6434546e-005 0.00072950375 4.5040892e-006 0.000355525
-6.0182157e-007 0.00074246118 0.99901044 -0.0064423503 2.1185522e-005 0.0014956644
6.7106394e-006 0.00032588409 2.1006042e-006 0.0015284589 0.99981076 -0.0031371673
22387.211385683 0.99696994 -0.0037519878 -1.221141e-005 0.00078131963 1.1138241e-005 0.00036253716
1.7147904e-005 0.0007792791 0.99898815 -0.0068761604 1.4409431e-005 0.0015919267
1.5646587e-005 0.00034591591 9.4413181e-006 0.0015975907 0.99980462 -0.0030628773
23713.737056617 0.9968828 -0.0039607575 1.0434544e-005 0.00082140707 -4.2161651e-006 0.00039131005
2.6306045e-005 0.00082927215 0.99914336 -0.0071700066 3.2772678e-005 0.0017019276
-3.4609209e-006 0.00037828647 3.1518473e-005 0.0017035843 0.99968189 -0.0031506887
25118.864315096 0.99703836 -0.004285723 -2.6276839e-005 0.00085921021 4.9354067e-006 0.00041738324
1.6172875e-006 0.00087064784 0.99904561 -0.0074878144 2.2343711e-005 0.0017847336
-3.21056e-006 0.00040660825 6.0527505e-006 0.0017963583 0.99994856 -0.0033677644
26607.250597988 0.99717313 -0.0043069241 2.3629813e-005 0.00091072521 -2.4684996e-006 0.00041879097
6.5488587e-007 0.0009028677 0.99906313 -0.008086469 1.4565323e-005 0.0018856018
2.7059572e-005 0.00041689354 5.4276838e-006 0.0019091483 0.99988848 -0.0035100428
28183.829312645 0.99706447 -0.0048273578 9.8148876e-006 0.00097505411 1.2766616e-005 0.00045212501
6.104935e-006 0.00097106781 0.99912822 -0.0082861725 2.731414e-005 0.002005117
7.1686973e-006 0.0004507027 3.1378448e-005 0.002005788 0.99991196 -0.0036509088
29853.82618918 0.9970752 -0.0049210535 -9.7474363e-008 0.0010444187 2.9405301e-006 0.00047644484
2.282457e-006 0.0010300089 0.99899477 -0.0087276017 3.3931155e-005 0.0021160759
2.1947615e-005 0.00047909492 2.7754049e-005 0.0021115202 0.99979299 -0.0036604533
31622.776601684 0.99696189 -0.0053207427 -4.8156162e-006 0.0010882692 -7.9984156e-006 0.0004952568
1.4238448e-006 0.0011083531 0.9989922 -0.0092396876 3.1766769e-005 0.0022446346
5.6186841e-006 0.0005131748 3.7762322e-005 0.0022618545 0.9999072 -0.0040324978
33496.543915783 0.99715358 -0.0055260039 1.9705152e-005 0.0011609725 9.2572664e-006 0.00053800445
1.1721751e-005 0.001175286 0.99903679 -0.0099682547 3.8421927e-005 0.0023570284
5.4225916e-006 0.00054272724 3.5455643e-005 0.0023814349 0.99973613 -0.0040879413
35481.338923358 0.99710006 -0.0058733602 1.706191e-006 0.0012250266 1.6459369e-005 0.00058347592
3.1396933e-006 0.0012389942 0.99924219 -0.010420501 4.4732042e-005 0.0025131362
1.2510027e-005 0.00058768876 3.2617896e-005 0.0025203689 0.99969751 -0.0043663485
37583.740428844 0.99700361 -0.006225368 -1.3504552e-005 0.00129972 -5.4824613e-006 0.00063063926
2.014358e-005 0.0013009821 0.99916387 -0.011101355 4.8874557e-005 0.0026724814
7.4067793e-006 0.00061644096 5.251844e-005 0.0026648282 0.99954557 -0.0045401677
39810.71705535 0.99708343 -0.0065852758 1.4801917e-005 0.0013810772 1.0846587e-005 0.00065689418
5.3185677e-006 0.0013799213 0.99918413 -0.011595584 3.8844904e-005 0.00283723
3.3899632e-005 0.0006570259 5.1123563e-005 0.0028297841 0.99957967 -0.004711275
42169.650342858 0.99690872 -0.0069414885 4.2885343e-008 0.0014652043 1.9417785e-006 0.00068564119
1.612195e-005 0.0014707289 0.99902242 -0.012332861 6.549622e-005 0.0029927448
5.2101876e-007 0.0006726284 3.5214118e-005 0.0029970335 0.99960583 -0.0050096116
44668.359215096 0.99713498 -0.0073547191 -2.2214364e-007 0.0015535061 -1.2470628e-005 0.00073129294
1.6734055e-005 0.0015546005 0.99909943 -0.013018609 6.7361594e-005 0.0031754789
3.1556639e-005 0.00073339714 5.041423e-005 0.0031806871 0.99947 -0.0052858079
47315.125896148 0.99717546 -0.0077264803 2.1312588e-005 0.0016458221 6.7545279e-006 0.00076723244
3.0800871e-005 0.0016369411 0.99906659 -0.013806559 7.5922107e-005 0.0033570447
1.2683847e-005 0.00075460837 7.4814474e-005 0.0033487226 0.99949634 -0.0054679546
50118.723362727 0.99707317 -0.0081984792 1.5769085e-005 0.001769217 2.3738423e-006 0.00082324306
2.7197826e-005 0.0017364748 0.99901825 -0.01482623 6.2112616e-005 0.0035461942
2.3629425e-005 0.00082228187 7.538643e-005 0.0035375291 0.99945754 -0.005715013
53088.444423099 0.99699384 -0.0087298909 1.3925226e-005 0.0018326592 1.5615671e-005 0.00085535942
2.7645536e-005 0.0018336512 0.99906015 -0.015479302 8.5656102e-005 0.0037775289
1.2934005e-005 0.00086551922 8.2091756e-005 0.0037474635 0.99951744 -0.0060141217
56234.132519035 0.99699742 -0.0093439752 2.9911283e-005 0.0019441295 1.2445171e-005 0.00091052009
9.1492166e-006 0.00194738 0.99893588 -0.016627312 8.0149126e-005 0.0039795204
2.945242e-005 0.00090630807 8.3718907e-005 0.003996158 0.99946499 -0.0062692543
59566.214352901 0.99703711 -0.0098735429 2.0106449e-005 0.0020651883 1.0703128e-005 0.0009652031
3.6855654e-005 0.0020716779 0.99887562 -0.017464666 7.8645404e-005 0.0042173164
1.7842087e-005 0.00097733235 0.00010212337 0.0042211767 0.99927139 -0.006520655
63095.734448019 0.99687117 -0.010381671 8.4621843e-006 0.0021963457 1.964388e-005 0.0010175637
3.5698329e-005 0.0021971758 0.99874115 -0.018571036 9.8125151e-005 0.0044675265
9.3736198e-006 0.0010392489 0.0001129752 0.0044831512 0.99938077 -0.0069799568
66834.391756861 0.99690503 -0.010986524 2.7695427e-005 0.0023229436 3.7323211e-005 0.0010845769
9.7358707e-006 0.0023157189 0.9987576 -0.019660436 0.00012210679 0.0047378014
4.4545995e-006 0.0010762177 0.00013579424 0.0047101537 0.99940616 -0.0072680726
70794.578438414 0.99688643 -0.011605598 4.4615077e-005 0.0024532215 1.2135326e-005 0.0011427628
2.6815303e-005 0.0024467399 0.99845076 -0.020764401 0.00013000566 0.0050134272
4.5267898e-005 0.0011404243 0.00013176096 0.0050147246 0.99911916 -0.0078023826
74989.420933246 0.99680996 -0.012289812 3.6998634e-005 0.002604607 3.3333476e-005 0.0012165976
4.2505562e-005 0.0025966668 0.99873942 -0.02179382 0.00015576919 0.0053367391
2.2993721e-005 0.0012001036 0.00014948988 0.0053254873 0.9992525 -0.0080516804
79432.823472428 0.99691743 -0.012774819 4.5363529e-005 0.0027521024 2.5343777e-005 0.001265917
3.2404703e-005 0.002753048 0.99868393 -0.023016147 0.00018446348 0.0056035281
2.4975736e-005 0.0012613478 0.00016279775 0.0056258217 0.99915773 -0.008504035
84139.514164519 0.99681228 -0.013690976 5.3974145e-005 0.0029095155 1.7040285e-005 0.0013703754
4.8423244e-005 0.0029127027 0.99852502 -0.024331734 0.0001997192 0.0059509445
1.7925062e-005 0.0013671264 0.00018796702 0.0059486036 0.99899262 -0.0087989615
89125.093813375 0.99691558 -0.014469618 2.8694431e-005 0.0030636033 3.5467165e-005 0.0014420912
3.7203929e-005 0.0030856943 0.99855322 -0.02577058 0.00021153157 0.0062812646
3.0698302e-005 0.0014380431 0.00022168711 0.006322124 0.99913585 -0.0095313452
94406.087628592 0.99688441 -0.015335225 4.809496e-005 0.0032844348 3.6335256e-005 0.0015316055
3.5864701e-005 0.0032744582 0.99844027 -0.027216954 0.00023803279 0.0066726292
2.8319486e-005 0.001506114 0.00023216475 0.0066783978 0.99917251 -0.009819095
100000 0.99685544 -0.016196202 6.7513894e-005 0.0034688732 3.0546948e-005 0.0016048169
7.7567587e-005 0.0034673454 0.99829495 -0.028919902 0.00027687394 0.0070498856
1.7077506e-005 0.0016232993 0.00028011657 0.007059426 0.99909121 -0.010316183
105925.37251773 0.99693024 -0.017089278 8.5260377e-005 0.0036684708 3.1818687e-005 0.0016813283
7.8341393e-005 0.0036762443 0.99838573 -0.030543441 0.00029387302 0.0074575855
3.3727145e-005 0.001693339 0.00026832003 0.0074686939 0.99904424 -0.010888908
112201.8454302 0.99690622 -0.018284112 9.4332914e-005 0.0038893353 7.4517688e-005 0.0018108852
8.9917812e-005 0.003883204 0.9983474 -0.032217305 0.00033670216 0.0078937868
6.8501256e-005 0.0018296707 0.0003112675 0.007922275 0.9990105 -0.011385337
118850.2227437 0.99689364 -0.019173775 8.2299382e-005 0.0041138926 3.7425241e-005 0.0019008144
8.6992688e-005 0.0041163014 0.99830347 -0.034275785 0.00034551069 0.0083717946
5.5993674e-005 0.0019001713 0.00034387934 0.00838097 0.99907172 -0.012190104
125892.54117942 0.99705845 -0.020379871 9.6380718e-005 0.0043437323 5.0913968e-005 0.0020278941
8.8077482e-005 0.0043694484 0.99816805 -0.036360431 0.00039800029 0.0088508846
5.1664771e-005 0.0020293011 0.00040625143 0.0088906279 0.99905044 -0.012805327
133352.14321633 0.99693179 -0.02160904 8.1616854e-005 0.0046143341 6.8907837e-005 0.0021421015
0.00010647697 0.0046159043 0.99812722 -0.0385205 0.00046781512 0.0093998546
6.0294915e-005 0.0021582057 0.00046827903 0.0093895877 0.99896288 -0.01353326
141253.75446228 0.99682963 -0.022942016 9.7864387e-005 0.0048782676 7.3333365e-005 0.0022634347
0.00011634186 0.0048807231 0.99788713 -0.040773481 0.00050450861 0.0099121686
8.0087426e-005 0.0022632955 0.00050173362 0.0099272225 0.99903417 -0.014382993
149623.56560944 0.99686933 -0.024145944 0.00013280542 0.0051967576 7.1799754e-005 0.0023837581
0.00013117085 0.0051793936 0.99775738 -0.043264698 0.00054251077 0.010523539
7.781657e-005 0.0024266143 0.00057225738 0.01049901 0.99890637 -0.015172536
158489.31924611 0.99681652 -0.025593773 0.00015772731 0.0054830615 6.072722e-005 0.0025466743
0.00012157005 0.0054944349 0.99785906 -0.045549311 0.00060691679 0.011109557
8.9452151e-005 0.0025216392 0.00061163923 0.011138229 0.99890524 -0.015932059
167880.40181226 0.99664372 -0.02726635 0.00014851116 0.0058085341 0.00011715459 0.0027036059
0.00016600465 0.0058187833 0.9974128 -0.048302229 0.00067193084 0.011773026
0.00010038353 0.0026825988 0.00067379756 0.011765738 0.99892414 -0.016953476
177827.94100389 0.99676418 -0.028776964 0.00017625638 0.0061510433 0.00011366486 0.0028540941
0.0001865833 0.0061740074 0.99733388 -0.05132471 0.00076436816 0.012438651
0.00011144547 0.0028550306 0.00075354188 0.012439706 0.99884349 -0.017926285
188364.90894898 0.99648601 -0.030381855 0.00018448786 0.0065267063 0.00010689345 0.0030096443
0.00022080538 0.0065233097 0.9970094 -0.054333232 0.00084600836 0.013155135
0.00012464897 0.0030126679 0.00085223647 0.013166227 0.99864578 -0.019031448
199526.23149689 0.99633431 -0.03226842 0.00026014954 0.0069156773 0.00013735511 0.003167832
0.00023009175 0.0069275629 0.99703652 -0.057418134 0.00092829153 0.013904137
0.00010773347 0.003181065 0.00092053536 0.01392197 0.99857652 -0.019936929
211348.90398366 0.99640912 -0.034308359 0.00027636808 0.0073533892 0.00012841592 0.0033776821
0.00026162816 0.0073570628 0.996696 -0.060879942 0.0010254 0.014704015
0.00012211745 0.0033551685 0.0010418064 0.014733997 0.9984746 -0.021161959
223872.11385683 0.9962613 -0.036162604 0.00028898465 0.0077669946 0.00016064419 0.0035550026
0.00030915841 0.0077670407 0.99633104 -0.064594433 0.0011467404 0.015553414
0.00014143495 0.0035608415 0.0011200967 0.01555661 0.99845296 -0.022387363
237137.37056617 0.99621451 -0.038370516 0.00033126789 0.0082268827 0.00014996799 0.0037614494
0.00033034474 0.0082285767 0.99600142 -0.06826254 0.0012565647 0.016468424
0.00017129164 0.003736923 0.0012654976 0.016465543 0.99841666 -0.023557562
251188.64315096 0.99640048 -0.040639941 0.00036817353 0.0087174075 0.00018034199 0.0040227682
0.00036982889 0.0087347254 0.9957571 -0.072334848 0.0013753262 0.017414264
0.00017684452 0.0039956784 0.0013950618 0.017406339 0.99819553 -0.02496874
266072.50597988 0.9960295 -0.043133061 0.0004268284 0.00924055 0.00020328346 0.0041811974
0.0004383699 0.0092373323 0.99537253 -0.076490059 0.0015439775 0.018405275
0.00020279647 0.0042018164 0.0015528795 0.018398153 0.99806702 -0.026434498
281838.29312645 0.99585223 -0.045768902 0.00048958207 0.0098008858 0.00019046417 0.0044517843
0.00047067995 0.0098088672 0.9948765 -0.080844328 0.0017028004 0.019459201
0.00021928332 0.0044693076 0.0016964253 0.019444402 0.99797291 -0.02797945
298538.2618918 0.99565554 -0.048334714 0.00055987918 0.0103719 0.00025161004 0.0047101136
0.00054046093 0.010383817 0.99459571 -0.085510917 0.0018806433 0.020546405
0.00024210422 0.0047197868 0.001885212 0.020559849 0.99768829 -0.029447302
316227.76601684 0.99553925 -0.051136438 0.00064477598 0.010975912 0.00027224908 0.004975223
0.00061612163 0.011006617 0.99403793 -0.090873487 0.0020528878 0.021694465
0.00026381746 0.0049737361 0.0020462857 0.021708436 0.99768108 -0.031170726
334965.43915783 0.99531502 -0.054176793 0.00070686318 0.011667413 0.00030028896 0.0052366764
0.00071899273 0.011667553 0.99331313 -0.096182376 0.0023083519 0.022937544
0.00029611395 0.0052736108 0.0022914708 0.022949833 0.99743533 -0.032946222
354813.38923358 0.99519157 -0.057369396 0.00079551531 0.0123244 0.00031343469 0.0055616782
0.00080990692 0.012359399 0.99274701 -0.10154792 0.0025266998 0.024245607
0.00030105308 0.0055589755 0.0025132475 0.024254834 0.99742526 -0.034681518
375837.40428844 0.99495625 -0.060661025 0.00090854667 0.01305231 0.00031178613 0.0058976868
0.00090037315 0.013060738 0.9918676 -0.10756727 0.0027575078 0.025594823
0.0003409131 0.0058561373 0.0027710695 0.025616383 0.99714339 -0.036678102
398107.1705535 0.99479574 -0.064267747 0.0010165734 0.013842699 0.00034677683 0.0062317853
0.0010243728 0.013854465 0.99108613 -0.1139543 0.0030352061 0.027061036
0.00034289304 0.0062020971 0.0030297015 0.027040312 0.99672186 -0.038839977
421696.50342858 0.99433768 -0.068043485 0.0011207995 0.014683574 0.00039634344 0.0065345052
0.0011550701 0.014674114 0.99028128 -0.12040737 0.003333939 0.028564461
0.00038746381 0.0065756314 0.0033284167 0.028570885 0.99659556 -0.041173015
446683.59215096 0.99413306 -0.072224177 0.0012898429 0.015539707 0.00042214405 0.0069460538
0.0013047089 0.015545461 0.98921657 -0.12760219 0.0036443502 0.030166717
0.00041269837 0.0069335508 0.0036776976 0.030187467 0.99644321 -0.043319203
473151.25896148 0.99376774 -0.07632523 0.0014712091 0.016443072 0.00045675435 0.0073541761
0.0014732728 0.016441552 0.98819363 -0.13494447 0.0040425612 0.031886738
0.00047096566 0.0073406789 0.0040327837 0.031868991 0.99610984 -0.04576052
501187.23362727 0.99323231 -0.081006601 0.0016784401 0.017396944 0.0004890674 0.0077642002
0.0016748924 0.017407965 0.98709005 -0.14270344 0.0044055381 0.033628788
0.00049311109 0.0077772872 0.0044248542 0.033657469 0.99589723 -0.048298247
530884.44423099 0.99269307 -0.085688673 0.0018599434 0.01842214 0.00050494348 0.0081907138
0.0018828292 0.018439304 0.98583633 -0.15089181 0.0048599266 0.035534561
0.00053202285 0.0082131261 0.004865482 0.035561256 0.99586678 -0.051050119
562341.32519035 0.99222106 -0.090577446 0.0021169791 0.019523321 0.00055987586 0.0086476058
0.0021109802 0.019511962 0.9840886 -0.15979303 0.0053255414 0.037539635
0.00057756208 0.0086852731 0.0053410353 0.03755185 0.99540877 -0.054186832
595662.14352901 0.99185497 -0.095842294 0.0024057063 0.020643387 0.00060371624 0.0091451425
0.0024057231 0.020666724 0.98233485 -0.16894686 0.0058432105 0.039602805
0.00061548821 0.0091797654 0.0058787493 0.039629601 0.99503618 -0.057149209
630957.34448019 0.99147922 -0.10147637 0.0027123606 0.021847602 0.00065548625 0.0097044203
0.0026995288 0.021884263 0.98042274 -0.17883618 0.0064330567 0.041809849
0.00067008974 0.0096887164 0.0064362143 0.041820828 0.99463195 -0.060445707
668343.91756861 0.99067527 -0.10741486 0.0030617861 0.023125436 0.00068977417 0.010271644
0.0030444618 0.023124263 0.9783529 -0.18901134 0.0070760804 0.044157851
0.00071978057 0.010294997 0.0070867925 0.044162698 0.99440086 -0.063716419
707945.78438414 0.98987103 -0.11378051 0.0034275751 0.024471873 0.00077930448 0.01087394
0.0034291914 0.02447027 0.97546667 -0.19997504 0.0077935811 0.04663112
0.00077070959 0.010858655 0.0078318687 0.046600994 0.99377435 -0.067434646
749894.20933246 0.98906201 -0.12063151 0.0038958946 0.025841666 0.00083141599 0.011475752
0.0038744349 0.025862552 0.97261542 -0.21133806 0.0085699838 0.04915816
0.00084988482 0.011482967 0.0085960394 0.049178686 0.99324828 -0.071064405
794328.23472428 0.98796463 -0.12769279 0.0043536783 0.027333608 0.000912285 0.012125921
0.0043703923 0.027350865 0.97048962 -0.22286189 0.0093945637 0.051912244
0.00091473589 0.01215357 0.009431324 0.05192155 0.99278855 -0.075225472
841395.14164519 0.98691517 -0.13495861 0.0049080136 0.028905811 0.00096102455 0.01285984
0.004908781 0.028897844 0.9674015 -0.2362335 0.010366078 0.054777633
