!Keysight Technologies,E5080A,MY55100144,A.11.70.03
!Date: Monday, November 13, 2017 17:25:32
!Correction: S11(Full 3 Port(1,2,3)) 
!S12(Full 3 Port(1,2,3)) 
!S13(Full 3 Port(1,2,3)) 
!S21(Full 3 Port(1,2,3)) 
!S22(Full 3 Port(1,2,3)) 
!S23(Full 3 Port(1,2,3)) 
!S31(Full 3 Port(1,2,3)) 
!S32(Full 3 Port(1,2,3)) 
!S33(Full 3 Port(1,2,3)) 
!S3P File: Measurements: <S11,S12,S13>,
!<S21,S22,S23>,
!<S31,S32,S33>:Log Frequency Sweep
# Hz S  RI   R 50
10000 0.99602824 -0.0054473486 3.7553937e-006 -1.1259969e-005 -6.9776734e-006 0.00010567591
1.7551391e-005 5.0365275e-006 0.47092798 -0.87575597 -4.4094304e-006 -1.2646154e-005
1.707302e-006 0.00011589823 -1.4657938e-006 1.4432844e-006 0.99975389 -0.002277076
10592.537251773 0.99626499 -0.0060718912 -1.7084152e-005 -3.0019187e-006 -1.2983698e-005 0.0001266952
-1.2140342e-005 3.064941e-006 0.42561498 -0.89848226 -1.1497192e-005 6.5848844e-006
7.3212013e-006 0.00012546514 1.2512142e-005 -4.7532653e-006 0.99985117 -0.0022578605
11220.18454302 0.9962858 -0.0064144684 -3.5849575e-006 2.5107791e-005 -1.512823e-006 0.00014310183
-1.5138583e-005 3.9317706e-006 0.37753871 -0.91913301 -5.3187923e-006 -5.2721375e-006
6.4220289e-006 0.00012969729 -1.2550423e-005 -4.9795131e-006 1.0000479 -0.0023911907
11885.02227437 0.99611109 -0.0066058966 4.4041881e-006 1.2043378e-006 -1.3863905e-005 0.00015944253
-1.0105827e-005 -1.5118727e-006 0.32794023 -0.93794376 -1.7833687e-005 8.6253169e-007
1.002265e-005 0.00015777285 1.8487823e-005 -8.3666064e-006 0.9999373 -0.0023642404
12589.254117942 0.99624896 -0.0068076951 -9.7505717e-006 -1.7559636e-005 5.084893e-006 0.00014973839
4.3168975e-006 -5.0757169e-008 0.27627066 -0.95411396 -5.6788376e-006 -6.8594436e-006
8.2566899e-008 0.00017484932 1.1029681e-005 1.4319581e-005 0.9999823 -0.0024836222
13335.214321633 0.99637717 -0.0073360861 5.8405703e-006 -5.6060098e-006 2.5869182e-005 0.00015253387
7.9576357e-006 7.6568513e-006 0.22297424 -0.96799797 -9.2221544e-006 -3.2061698e-006
-1.7426317e-005 0.00015728547 7.6039555e-008 -1.8101977e-005 0.99978703 -0.0024433145
14125.375446228 0.99616271 -0.008051103 4.4269655e-006 -1.2797881e-005 2.573265e-005 0.00016336086
7.6396418e-006 2.04143e-006 0.1683262 -0.97835106 1.1992422e-005 3.6089536e-006
-1.4935827e-005 0.00019439922 1.8754517e-005 1.0992254e-006 0.99986154 -0.0025309676
14962.356560944 0.99611586 -0.0085236058 7.4595041e-006 -6.5551685e-006 1.9254529e-005 0.00018324803
-7.0954206e-006 -5.8497005e-007 0.11265075 -0.98672479 6.2899931e-006 -7.6674651e-006
2.0317568e-005 0.00018222774 3.6345544e-005 -1.2516034e-005 0.99992245 -0.002594277
15848.931924611 0.99639606 -0.0088807605 -5.8640767e-006 -2.8970285e-006 -1.3080771e-005 0.00020283081
-8.1403914e-006 -8.4252524e-006 0.056001008 -0.9911148 -1.5438068e-006 -1.0436809e-005
1.2016229e-005 0.00020283132 -6.9721723e-006 1.0775844e-005 0.99998951 -0.0026709607
16788.040181226 0.99614203 -0.0095766773 -5.8476394e-006 1.8420354e-006 -7.3179522e-006 0.00018112471
-1.5919522e-006 -1.2203533e-005 -0.00073241052 -0.99246281 1.1073289e-005 1.3018906e-005
2.9107166e-006 0.00020012373 1.1348187e-005 -1.2098953e-005 0.99997652 -0.0026756641
17782.794100389 0.99630982 -0.0098794904 -9.5094683e-006 1.003033e-005 1.4496899e-006 0.00024063878
4.1082981e-006 1.6334761e-005 -0.057648208 -0.99042839 -1.9771928e-006 2.0538422e-005
1.2261404e-005 0.00020763827 -9.9413583e-006 -1.3899342e-005 0.99993706 -0.0027957594
18836.490894898 0.99636823 -0.01050642 1.0757696e-005 -1.5457894e-005 -1.2296588e-006 0.00022713763
-1.3035362e-005 7.299102e-006 -0.11398137 -0.98561323 -4.3706641e-006 -2.2074551e-005
2.698141e-005 0.00022516656 9.6472868e-006 -4.2975007e-006 0.99986553 -0.0027484514
19952.623149689 0.99632686 -0.011104699 4.7053773e-006 -8.9249852e-006 8.3819823e-006 0.00023064316
5.1268235e-006 1.714728e-006 -0.16942059 -0.97770327 -5.1860497e-006 1.9698268e-006
2.4601337e-005 0.00024885879 1.8892382e-005 8.0744103e-006 0.99994045 -0.0028569833
21134.890398366 0.99633783 -0.011693539 7.3437282e-006 -1.3256175e-005 1.1423673e-005 0.00023934887
-1.163382e-006 -1.5078078e-005 -0.22418118 -0.96657473 -6.5546919e-006 -1.328642e-006
7.694297e-006 0.00025417967 1.1029055e-005 -2.2013855e-006 0.99986088 -0.0030773014
22387.211385683 0.99630356 -0.012633445 3.3881937e-005 5.2727769e-006 -8.9295627e-006 0.00026833685
1.0653511e-005 -6.3708455e-007 -0.27735505 -0.95267463 -3.2607925e-006 -1.8852429e-006
-2.5565539e-006 0.00027064231 -1.131693e-006 -4.079845e-006 0.99987364 -0.0032364165
23713.737056617 0.99630582 -0.013288458 2.7548218e-005 -9.0586418e-006 -1.7922357e-005 0.00029547742
-6.5385916e-006 4.4101857e-006 -0.32899573 -0.93595862 4.0528762e-006 -2.4239173e-006
1.5278514e-006 0.00031398641 -6.9504663e-006 -1.6305436e-005 0.99965864 -0.0030358019
25118.864315096 0.99620098 -0.014140413 -1.9377021e-006 -1.1125984e-005 2.0581079e-005 0.00029558095
1.3877795e-006 9.111709e-006 -0.37841845 -0.91724706 1.1881773e-005 -4.9294631e-006
8.9171408e-006 0.00030638179 2.5357893e-005 1.7305023e-005 0.99981588 -0.0033956999
26607.250597988 0.99625713 -0.014805333 -1.4560862e-006 1.0609023e-005 1.3418375e-005 0.00033323062
-1.0294492e-005 -1.3806775e-005 -0.42605847 -0.89618456 -1.1050713e-005 -7.3539707e-007
4.0134423e-006 0.00033948992 -1.1763184e-005 1.3673687e-007 0.99989951 -0.0035883235
28183.829312645 0.99626195 -0.015831521 -3.0310557e-005 1.7828168e-005 -1.1106124e-005 0.0003489833
8.5399497e-006 -6.004343e-006 -0.47157693 -0.87332797 -7.9159299e-006 7.7418408e-006
-2.1675199e-007 0.0003670658 -1.9119054e-005 1.2624291e-005 0.9997201 -0.0036561284
29853.82618918 0.99626374 -0.016742842 -4.6768575e-005 -2.2551014e-005 1.7390979e-005 0.00037884453
-6.839276e-006 -1.0572569e-005 -0.51427257 -0.8486833 4.5123102e-006 3.0121362e-006
2.0803296e-005 0.0003812261 9.7946177e-006 -1.8125547e-005 0.99982649 -0.0036134054
31622.776601684 0.99614936 -0.017755328 6.1635351e-006 -4.494967e-006 -1.160624e-005 0.00040451851
3.7133746e-006 4.8138932e-006 -0.55450809 -0.82313538 -3.871495e-007 -2.0317225e-006
2.9927205e-007 0.00039065027 -1.8175901e-005 -1.3234396e-005 0.99974638 -0.004102719
33496.543915783 0.99620038 -0.018667039 -1.3350646e-005 8.3605232e-007 5.0785811e-006 0.00040387677
1.4773697e-006 1.5485864e-005 -0.59245753 -0.7962302 9.3750532e-006 -5.4215479e-006
5.3943131e-006 0.00039594219 2.1126709e-006 -2.225219e-005 0.99969482 -0.0042550783
35481.338923358 0.9961099 -0.019764703 4.8211467e-007 1.4559917e-005 6.6283728e-006 0.00044397422
9.4085481e-006 -7.3449365e-007 -0.62795073 -0.76870644 9.0535596e-006 9.1473239e-006
-7.5991879e-006 0.00041919274 4.139777e-006 1.2316871e-005 0.99963427 -0.0042228089
37583.740428844 0.99612862 -0.020964932 2.4416559e-005 -9.920107e-006 6.5342256e-006 0.0004601999
-5.4780262e-006 3.4225974e-007 -0.66086054 -0.74070519 5.0796139e-006 5.618358e-006
2.4364395e-005 0.00045267658 -1.3792906e-006 2.1195353e-006 0.99955475 -0.0044941492
39810.71705535 0.99625075 -0.022139518 1.1289906e-005 -5.9359081e-006 1.2423105e-005 0.00050038419
3.3483548e-006 -7.0573537e-006 -0.69150013 -0.7123667 -7.6713586e-006 1.8565578e-006
-1.2467207e-006 0.00048848399 1.4859865e-005 1.420117e-005 0.99957722 -0.0047200331
42169.650342858 0.99601555 -0.023480453 -3.8050326e-005 8.1592871e-006 2.31792e-005 0.0005188401
-1.6458864e-005 1.0443967e-005 -0.71970987 -0.68407923 1.4979722e-005 1.0607471e-005
2.3705719e-005 0.00051431055 -1.6666705e-005 -4.6913069e-006 0.9997068 -0.0050162943
44668.359215096 0.99610543 -0.02484178 1.4364571e-005 5.2253672e-006 1.2521006e-005 0.00053044019
3.7974053e-006 9.6430003e-006 -0.74569017 -0.65582234 1.3411918e-005 1.8224458e-005
-4.6197642e-006 0.00056305376 -1.0327776e-005 1.4658938e-005 0.9994036 -0.0052142236
47315.125896148 0.99609959 -0.026322145 -1.2370949e-005 2.5166895e-005 1.7020127e-005 0.00058944937
-1.4504113e-006 2.1935703e-006 -0.7695471 -0.62777042 -1.0437321e-005 1.1764091e-006
1.085363e-005 0.00059321738 1.8483871e-006 1.2535883e-006 0.99953395 -0.005366263
50118.723362727 0.99595451 -0.02793234 9.6278482e-006 1.9506288e-005 2.4633406e-005 0.00062060083
4.8714569e-006 1.8854445e-006 -0.79150355 -0.60014266 -5.5420783e-006 5.7606303e-006
6.8614349e-006 0.00063536398 4.4435433e-006 1.2458077e-005 0.99943745 -0.0056241574
53088.444423099 0.99600977 -0.029542236 -1.1721236e-005 -1.7673388e-005 3.5137848e-006 0.0006611112
1.6886261e-008 9.9609451e-006 -0.81160933 -0.57304168 -4.6551845e-006 -3.5065516e-006
2.2106127e-005 0.0006575351 -2.1320995e-005 -1.0894566e-005 0.99951398 -0.0060424097
56234.132519035 0.99581885 -0.031367917 -1.3772813e-005 2.4261288e-005 7.9284991e-006 0.00068301096
-1.3198301e-005 9.454192e-006 -0.82976735 -0.54658246 -1.2369635e-005 -9.9482941e-006
9.7334541e-006 0.00071480015 -9.7036536e-006 -6.2014724e-006 0.99948758 -0.0063266605
59566.214352901 0.99569923 -0.033191182 -9.3201043e-006 -7.9290739e-006 3.8719554e-005 0.00073408295
1.1556652e-006 -1.2890267e-006 -0.84626138 -0.52086455 -5.9743306e-006 8.6994969e-006
3.2497639e-005 0.00072682829 -1.0537899e-005 1.4669851e-005 0.99917662 -0.0066057085
63095.734448019 0.99555331 -0.035137016 2.1584507e-005 3.5785113e-006 6.2326526e-006 0.0007792472
6.0313164e-006 7.0615965e-006 -0.86132091 -0.49585259 -1.0144962e-006 1.2596812e-005
1.0029876e-005 0.00079110626 -2.554294e-006 1.0733105e-005 0.99937624 -0.0069158929
66834.391756861 0.99575925 -0.037065957 2.0086425e-005 6.1200403e-006 2.9496765e-005 0.00082514522
8.1897116e-007 1.7115199e-005 -0.87488073 -0.47162575 -3.9954077e-007 -4.2625502e-006
3.4727007e-005 0.0008114269 3.0042867e-005 1.5441809e-005 0.99939597 -0.0074794102
70794.578438414 0.99549061 -0.03931655 1.7409842e-005 2.4290244e-005 2.9230858e-005 0.00087505142
-3.2873263e-006 1.2878531e-005 -0.88723975 -0.44845462 -1.1348603e-005 1.239434e-005
1.6186363e-005 0.00087083614 -8.4318833e-007 1.2732969e-005 0.99917316 -0.0076831924
74989.420933246 0.99540967 -0.041613642 2.2104727e-005 2.5303201e-005 1.4034232e-005 0.00091481366
6.3114308e-006 6.0309749e-006 -0.89843684 -0.42593193 6.4630453e-006 8.1154294e-006
3.1957014e-005 0.00091953063 1.9147123e-005 1.5097045e-006 0.99907988 -0.0079984823
79432.823472428 0.99527842 -0.043984834 -1.2078112e-005 1.2545314e-005 3.6370468e-005 0.00097562186
1.2402312e-005 7.7992507e-007 -0.90856314 -0.40422982 8.1585695e-006 1.0490639e-005
4.0994906e-005 0.0009703206 -9.5125934e-006 1.1979824e-005 0.9991765 -0.0084795617
84139.514164519 0.99525714 -0.046573382 2.7291419e-006 1.2402552e-005 4.4535282e-005 0.0010412184
2.73675e-006 4.7661179e-006 -0.91749811 -0.3836143 -3.7694194e-006 9.7281209e-006
3.5120756e-005 0.0010368363 1.3771033e-005 -1.2005216e-006 0.99901539 -0.0087423725
89125.093813375 0.99497288 -0.049300108 -1.5324233e-006 -9.1638949e-006 5.2676507e-005 0.001113975
2.2307011e-006 8.3615205e-006 -0.92569411 -0.36370477 -3.7890363e-006 7.2902071e-006
5.6660738e-005 0.0010845368 -3.7834902e-006 -7.6692786e-006 0.99907362 -0.0094680376
94406.087628592 0.99487352 -0.052191775 -1.1778703e-005 2.2938564e-006 2.1390879e-005 0.0011815324
-8.3274053e-006 1.1755452e-005 -0.9330883 -0.34477341 -1.6137072e-005 1.2278812e-005
4.2361105e-005 0.0011558353 -2.5902795e-005 -1.9009256e-005 0.99916828 -0.0098100537
100000 0.99481362 -0.055308353 1.2614886e-005 -4.5214229e-006 4.8684647e-005 0.0012328493
-1.4582718e-005 1.1650654e-005 -0.93966556 -0.32657671 -1.3630701e-005 9.7741331e-006
6.5650485e-005 0.0012214604 -5.6330714e-006 2.3413666e-005 0.99890822 -0.010277485
105925.37251773 0.99450785 -0.058716279 1.6031967e-005 2.7640965e-005 5.9169539e-005 0.0013090139
5.2045948e-006 8.9502864e-006 -0.94565594 -0.3092877 -8.8569132e-006 1.1080509e-005
7.0736562e-005 0.0013125994 1.0724845e-005 -1.7510273e-006 0.99898064 -0.010781066
112201.8454302 0.99443036 -0.06198293 2.585464e-006 1.3222886e-005 7.2401635e-005 0.0013683049
-2.0884663e-006 1.3108209e-005 -0.95098412 -0.29278123 -2.0143621e-006 1.6624856e-005
7.2215029e-005 0.0013773617 7.3204174e-006 -7.6692895e-006 0.99898362 -0.011572151
118850.2227437 0.99422228 -0.065678179 -1.4669145e-005 2.8772078e-005 8.1515042e-005 0.0014648496
-7.7479781e-006 4.9892296e-006 -0.95577025 -0.2771464 2.0195116e-006 9.3950794e-006
7.9572812e-005 0.0014620513 -4.6093901e-005 1.9514697e-005 0.9991551 -0.012137993
125892.54117942 0.9940905 -0.069552049 4.991727e-007 6.9000826e-006 9.6991484e-005 0.0015448363
-5.8634173e-006 1.3995331e-005 -0.96008366 -0.26220781 -3.2970852e-006 2.4245408e-005
8.9638939e-005 0.0015507 -4.7375343e-006 3.2771881e-005 0.99912709 -0.012904591
133352.14321633 0.99365902 -0.073802486 6.7836918e-006 1.3652506e-005 0.0001145319 0.0016485675
-8.2785782e-006 8.2741699e-006 -0.96397215 -0.2479804 5.4071488e-006 8.9697332e-006
0.00010773254 0.001649007 4.7860362e-006 -1.796662e-005 0.99891788 -0.013584407
141253.75446228 0.99341786 -0.078127228 1.995674e-005 2.0287094e-005 0.00011919576 0.0016981482
-3.6337881e-006 1.2622047e-005 -0.96732676 -0.23447929 -6.5040326e-006 -1.0388298e-005
9.8882243e-005 0.0017307494 4.2586016e-006 -6.3781936e-006 0.99902803 -0.014291072
149623.56560944 0.99281448 -0.082718931 1.8782538e-006 2.7176504e-005 0.00013936734 0.0018607738
-1.638204e-005 1.2566792e-005 -0.970465 -0.22169811 -1.1002719e-005 1.9090174e-005
0.00011456209 0.0018157858 -1.3175941e-005 1.1788366e-005 0.99893093 -0.015268996
158489.31924611 0.99243081 -0.08748503 2.1155861e-006 1.598391e-006 0.00015735593 0.0019488955
-8.5449489e-007 2.1429862e-005 -0.97325635 -0.20950384 -3.5266107e-006 6.6875655e-006
0.00015967245 0.001935772 -1.0858185e-005 -1.421466e-005 0.99903041 -0.015855888
167880.40181226 0.99195921 -0.092785761 -1.3629858e-005 2.47232e-005 0.00016563463 0.0020525991
-4.9871092e-006 6.3002644e-006 -0.97572005 -0.197844 2.1939372e-006 1.6674912e-005
0.00016199073 0.0020549071 6.62293e-006 3.1529784e-005 0.99899751 -0.01701352
177827.94100389 0.99137598 -0.098249599 -1.8235143e-005 5.5504838e-006 0.00018154763 0.0021801989
-1.1249283e-005 1.2908946e-005 -0.97729468 -0.18585508 5.3538986e-007 2.1737424e-005
0.00020450431 0.002181167 3.7914608e-006 1.6415852e-005 0.99874067 -0.017922223
188364.90894898 0.99072504 -0.10397641 -1.6607246e-005 1.5928438e-006 0.00019747952 0.0022731333
-1.5176094e-005 7.2197026e-006 -0.97976977 -0.17710301 5.8506225e-006 1.0198648e-005
0.00018928996 0.0022781182 -9.6402682e-006 2.5957715e-005 0.99871987 -0.019050123
199526.23149689 0.9900263 -0.11003622 -1.4203551e-005 1.9227939e-005 0.00022185658 0.0024008818
-1.0091318e-005 1.8043705e-005 -0.98164344 -0.16718794 -6.0054031e-006 -3.4329096e-006
0.0002273366 0.0023936273 -7.298634e-006 2.3161809e-005 0.99870646 -0.020140393
211348.90398366 0.9892872 -0.11654563 -4.0953764e-006 1.3962285e-005 0.00027509104 0.0025507824
-8.9672985e-006 1.5525031e-005 -0.98331326 -0.15781008 -8.1651524e-006 4.8046022e-006
0.00023025992 0.0025752964 -1.0795084e-005 1.542501e-005 0.99853104 -0.021110242
223872.11385683 0.98850816 -0.12327862 -3.1170105e-006 1.7398903e-005 0.00028842772 0.0027174603
-2.9287779e-005 6.8916252e-006 -0.98476136 -0.14901766 -7.7825907e-006 6.6279631e-006
0.0002657134 0.0026907895 2.0519269e-006 2.3888451e-005 0.9984709 -0.02239058
237137.37056617 0.98759902 -0.13060252 -9.0795802e-006 1.5268803e-005 0.00032806967 0.0028424398
-2.0079189e-005 1.1195964e-005 -0.98597109 -0.14060748 -6.4657461e-006 6.7574065e-006
0.00031011208 0.0028494908 -1.5957721e-005 2.1470056e-005 0.99831337 -0.023579689
251188.64315096 0.98666096 -0.13820043 -3.6224556e-005 1.7158574e-005 0.00034243401 0.0030237767
-1.8762659e-005 1.0058185e-005 -0.98712629 -0.13262604 -3.1712732e-006 2.0926173e-005
0.00035974642 0.003032807 1.5360406e-006 8.7731405e-006 0.99837172 -0.025134956
266072.50597988 0.98526633 -0.14631514 -2.1781863e-005 1.0169103e-005 0.00039321763 0.0031933822
-2.2612565e-005 2.296067e-005 -0.98814845 -0.12521815 -5.2904411e-006 1.4249372e-005
0.00039898427 0.0032112992 2.052733e-005 -1.6962458e-005 0.99809486 -0.026412213
281838.29312645 0.98382658 -0.15516613 3.8532539e-006 -4.2086427e-008 0.00040971645 0.0033537529
-2.0793026e-005 3.1831758e-005 -0.98898607 -0.11816186 3.4222394e-006 2.3266304e-005
0.00042836787 0.0033701081 6.1283458e-006 1.703194e-005 0.99802995 -0.027939018
298538.2618918 0.98239827 -0.16401015 -2.3951612e-005 1.3509351e-005 0.00047210779 0.0035631042
-3.0641091e-005 1.2966723e-005 -0.98984426 -0.11138888 -5.0459748e-006 2.7503691e-005
0.00047519026 0.0035745294 -2.1699678e-005 1.0739385e-005 0.99803805 -0.029509146
316227.76601684 0.9807744 -0.17362426 -3.3423792e-005 1.6481254e-005 0.00053559762 0.0037652936
-2.7712194e-005 1.8687811e-005 -0.99053633 -0.10508594 -1.727266e-005 1.436348e-005
0.00050898379 0.0037637907 -1.3866982e-005 2.6600208e-005 0.99783182 -0.031185895
334965.43915783 0.9788205 -0.18372458 -5.0190803e-005 2.31553e-005 0.00056426279 0.0039861905
-2.7824928e-005 2.8853943e-005 -0.99126333 -0.099201083 -8.9561973e-007 9.3771359e-006
0.00057930133 0.0039828084 -7.1085742e-006 4.3692857e-005 0.99753207 -0.033036709
354813.38923358 0.97671753 -0.19424005 -4.2491367e-005 2.1424563e-005 0.00063935912 0.0042088083
-3.3235545e-005 4.076241e-005 -0.99185574 -0.093397133 -8.0006021e-006 2.1103417e-005
0.00063807977 0.0041949931 -5.5280848e-006 1.9147599e-005 0.9976241 -0.034863666
375837.40428844 0.97449362 -0.20558818 -4.6393208e-005 2.7528511e-005 0.00072601141 0.0044164089
-2.8784063e-005 2.9795468e-005 -0.99227399 -0.087913141 -4.9388486e-006 1.9100091e-005
0.00070901925 0.0044345292 -7.233938e-006 3.4205976e-005 0.99749482 -0.036801733
398107.1705535 0.97182071 -0.21744305 -3.6167792e-005 5.7502599e-005 0.0007622001 0.0046748081
-3.4741188e-005 2.5643616e-005 -0.99283338 -0.082666114 -8.9252053e-006 2.8984565e-005
0.00080654642 0.0046837013 -1.2244812e-005 2.9120047e-005 0.99725014 -0.039108995
421696.50342858 0.9689272 -0.22989845 -4.4084394e-005 5.4084758e-005 0.00087771192 0.0049374313
-5.8404643e-005 2.8281949e-005 -0.9930166 -0.07747101 -4.4168373e-006 2.7049813e-005
0.0008626777 0.0049347323 1.66569e-006 2.530573e-005 0.99716598 -0.041157719
446683.59215096 0.96559852 -0.24326216 -5.0395774e-005 3.448642e-005 0.00094800961 0.0052077938
-4.46876e-005 4.4591703e-005 -0.99306035 -0.073779888 4.3319855e-007 2.2086391e-005
0.00095450127 0.0052018939 2.8203758e-006 6.9302537e-006 0.99670804 -0.043439604
473151.25896148 0.96198946 -0.25700244 -5.7775418e-005 6.7007248e-005 0.0010539934 0.0054575438
-5.246888e-005 3.37124e-005 -0.99375844 -0.069542922 -1.7420123e-005 1.635178e-005
0.0010559472 0.0054806704 -3.2251734e-005 3.31253e-005 0.9967047 -0.045993261
501187.23362727 0.95761764 -0.27172297 -7.0056441e-005 3.8909733e-005 0.0011852336 0.0057587759
-6.5628061e-005 4.0381048e-005 -0.99417722 -0.065345623 -5.3505346e-006 3.030681e-005
0.0011823068 0.0057790005 -6.3578664e-006 4.8442722e-005 0.99666691 -0.048449699
530884.44423099 0.95300943 -0.28708506 -5.7744524e-005 5.4886968e-005 0.0012699574 0.0060636192
-6.9122616e-005 4.3335687e-005 -0.99446058 -0.061282702 -1.9997564e-005 2.5508236e-005
0.0012831442 0.0060772817 -1.0488862e-005 1.3227326e-005 0.99630278 -0.051166169
562341.32519035 0.94806325 -0.30334243 -8.3269828e-005 4.3249038e-005 0.0014205296 0.0064166402
-8.4953208e-005 4.9283393e-005 -0.99477679 -0.057577632 6.8651593e-007 3.6394322e-005
0.0014050994 0.0064181453 -3.8980208e-005 4.3616703e-005 0.99604791 -0.054143392
595662.14352901 0.94248444 -0.32006454 -0.00010145365 5.2009469e-005 0.0015675009 0.0067521757
-8.7552355e-005 6.0682196e-005 -0.99497235 -0.054012813 -1.6141628e-005 4.8163212e-005
0.0015700093 0.0067299372 -1.2456842e-005 4.016329e-005 0.99579865 -0.057307947
630957.34448019 0.93630546 -0.33812433 -9.4009425e-005 7.6708726e-005 0.0017253164 0.0070718853
-0.00010944464 7.4966563e-005 -0.99514925 -0.050640162 -2.3000828e-005 3.2513286e-005
0.0017347323 0.0071286117 -1.8876372e-005 4.3011583e-005 0.99568945 -0.060679182
668343.91756861 0.92915618 -0.3567287 -0.00010633784 7.488647e-005 0.0019081553 0.0074534263
