!Keysight Technologies,E5080A,MY55100144,A.11.70.03
!Date: Monday, November 13, 2017 17:25:53
!Correction: S11(Full 3 Port(1,2,3)) 
!S12(Full 3 Port(1,2,3)) 
!S13(Full 3 Port(1,2,3)) 
!S21(Full 3 Port(1,2,3)) 
!S22(Full 3 Port(1,2,3)) 
!S23(Full 3 Port(1,2,3)) 
!S31(Full 3 Port(1,2,3)) 
!S32(Full 3 Port(1,2,3)) 
!S33(Full 3 Port(1,2,3)) 
!S3P File: Measurements: <S11,S12,S13>,
!<S21,S22,S23>,
!<S31,S32,S33>:Log Frequency Sweep
# Hz S  RI   R 50
10000 0.99490178 -0.005570617 3.2311882e-006 -1.1339703e-005 9.664861e-006 0.00011424057
-7.3802912e-006 3.544086e-006 0.47068331 -0.8757143 -8.2133511e-006 -9.112513e-006
7.703823e-006 0.00014589562 7.3939286e-006 -4.1698436e-006 0.99973094 -0.0022874228
10592.537251773 0.9950273 -0.0057537011 2.4462888e-006 4.1441076e-006 -1.9466228e-005 0.00012786005
-1.0449769e-006 -4.1740409e-006 0.42566743 -0.89847702 -2.1133903e-005 1.1149308e-005
-1.217408e-006 0.00014618078 7.4954264e-006 3.8346566e-006 0.99999911 -0.0021953527
11220.18454302 0.99523205 -0.0063284836 -8.7503731e-006 -2.3056115e-005 7.2092657e-006 0.00014240024
7.8581825e-006 -9.3980276e-007 0.37738737 -0.91906703 2.4146477e-006 -1.1203213e-005
2.0262616e-005 0.00015528126 4.2658058e-007 7.2301177e-006 1.0000314 -0.0024907137
11885.02227437 0.99505931 -0.0066362391 2.7450633e-006 4.7446038e-006 -8.4324211e-006 0.00014008481
8.1187336e-006 8.4488138e-006 0.32787305 -0.93788862 7.0782573e-007 -3.1192044e-006
4.3924024e-006 0.00013021303 -4.9534365e-006 2.1615051e-005 0.99998945 -0.00211758
12589.254117942 0.99513483 -0.0071303598 1.0049966e-005 3.5745825e-006 -2.9784817e-006 0.00017101633
-1.668119e-006 -9.5719033e-006 0.27625316 -0.95415497 -6.5597651e-006 1.1471958e-005
-1.4948727e-005 0.00015867334 3.4671364e-006 7.6834822e-006 1.0000104 -0.0025202038
13335.214321633 0.995332 -0.0073391204 -2.7404606e-006 9.4403151e-007 3.7562443e-006 0.00014765242
-7.7451496e-006 1.6120721e-005 0.22283679 -0.96805203 3.9214333e-006 7.5402286e-006
8.1507724e-006 0.00017469183 6.6996831e-006 -1.9822897e-005 0.99993145 -0.0024441334
14125.375446228 0.99515784 -0.0078246193 7.9235724e-006 -5.7298575e-006 6.1798783e-006 0.00017066533
-7.146486e-006 -9.9085637e-006 0.16823038 -0.97839797 5.7578627e-006 -6.6357679e-006
-9.0728272e-006 0.00017399064 -1.4274956e-008 -5.2488731e-006 1.0001543 -0.0023496898
14962.356560944 0.99513948 -0.0082511492 2.6263056e-006 -1.8735896e-005 4.8547386e-006 0.00019184318
-4.0492745e-007 -4.3931991e-006 0.11254969 -0.98676002 -1.6637949e-005 2.8602897e-006
-1.1075202e-005 0.00020266128 -1.1535507e-006 -3.2108255e-006 1.000001 -0.0027101065
15848.931924611 0.99529946 -0.0088662356 -6.0151301e-006 2.6842117e-006 1.3844328e-005 0.00018540175
1.3969568e-005 1.4641985e-006 0.05589525 -0.9911052 -1.3748839e-005 -1.5555473e-006
1.5253697e-005 0.00021663024 2.7827811e-005 -1.7720015e-005 1.0000392 -0.0024251398
16788.040181226 0.99517012 -0.0093342206 -1.4983623e-005 -8.2837751e-006 -3.1114421e-006 0.00023074038
-9.210441e-006 3.5040616e-006 -0.00080136949 -0.99248946 -7.2175685e-006 7.1765326e-006
6.4477631e-006 0.00020548084 -1.3934086e-005 -3.6162805e-006 0.99988544 -0.0027606026
17782.794100389 0.99524546 -0.0095476722 1.0338499e-005 -1.5882861e-005 -5.3400995e-006 0.00022612848
7.4941319e-008 -4.5528263e-006 -0.057674494 -0.99044776 1.1739292e-005 -4.141094e-006
-6.8860595e-006 0.00021708714 -1.2089208e-007 1.8748038e-005 0.99990427 -0.002773294
18836.490894898 0.9952746 -0.010243757 -1.5063157e-005 -8.568315e-006 1.4722331e-005 0.00023263578
-6.3255134e-006 -8.3730511e-006 -0.11409733 -0.98577058 6.3668099e-006 -5.3838803e-006
1.0613394e-006 0.00022094995 -1.1434326e-005 -1.4137174e-006 0.99987686 -0.0028920451
19952.623149689 0.99529213 -0.010905888 2.1205035e-006 -3.1073337e-006 3.1500933e-006 0.0002620719
9.1409474e-006 2.1062851e-006 -0.16946349 -0.97777385 -1.3584556e-005 -5.4149236e-006
3.093294e-006 0.00024669865 -3.1453985e-006 -1.7083474e-005 0.99987113 -0.0028959822
21134.890398366 0.99533361 -0.011523489 -5.0349845e-006 -4.957988e-006 1.0100179e-005 0.00022613534
7.4218028e-006 6.1918677e-006 -0.22430801 -0.96657777 2.4871501e-006 1.1776374e-006
4.4293706e-006 0.00025040173 1.4429806e-007 -5.021499e-006 0.99970281 -0.0029905397
22387.211385683 0.99516803 -0.012402349 -3.2605803e-005 -1.623535e-005 -9.7522625e-006 0.00028133171
-1.1530676e-006 2.6615396e-006 -0.27729294 -0.95261502 1.0134195e-005 2.401717e-005
2.3522916e-006 0.00027487721 2.0024216e-005 -5.5445007e-006 0.99977338 -0.0030950168
23713.737056617 0.99520046 -0.013199123 5.6050426e-006 9.1445399e-006 1.2855275e-005 0.00028751904
-3.2180631e-006 1.0415334e-006 -0.32898667 -0.93592656 -1.8682329e-006 1.3012533e-005
1.0552233e-005 0.00030070471 2.3918888e-005 3.0866454e-006 0.99970961 -0.0031267139
25118.864315096 0.99519455 -0.013832664 -5.3977692e-006 1.6093074e-005 6.2494214e-006 0.00031853205
-1.3743387e-006 1.8988071e-006 -0.37857282 -0.91725999 -7.621411e-006 -5.3556555e-006
7.6488805e-006 0.0003111783 -5.0901772e-006 -2.1524276e-005 0.99983376 -0.0033603441
26607.250597988 0.99531549 -0.014409888 1.5889584e-005 -1.9640083e-006 -5.9456088e-006 0.00033783141
-1.8824627e-005 1.4855887e-006 -0.42602327 -0.89623988 -1.1300522e-006 1.5566597e-005
1.2948418e-005 0.00034060027 1.3299609e-005 -7.7766299e-006 0.99983537 -0.0035433241
28183.829312645 0.99525309 -0.01544576 -1.8718785e-005 5.4581706e-006 1.1705243e-005 0.00037066717
-6.8678332e-006 5.784284e-006 -0.4714382 -0.87326312 1.2691447e-006 1.2265521e-005
-4.569154e-006 0.00034689836 3.20716e-006 -1.0895666e-005 0.9998281 -0.0035494885
29853.82618918 0.99536484 -0.016377162 1.2033489e-005 -8.0001355e-006 -8.9405576e-006 0.0003667601
-1.5735719e-005 1.7077706e-006 -0.51424193 -0.84876013 2.2018512e-006 2.7897627e-006
-4.0201057e-006 0.00037814889 -9.5106216e-006 -1.2412113e-005 0.99980533 -0.0036101369
31622.776601684 0.99514544 -0.01739515 -2.2714474e-005 4.9324995e-006 1.0573536e-005 0.00039081235
-8.106399e-007 6.0391703e-006 -0.55462742 -0.82314968 5.5513965e-006 -3.0200561e-006
1.0987099e-005 0.00040575981 1.4693361e-006 1.4879537e-006 0.99985212 -0.0040772823
33496.543915783 0.99521667 -0.018168056 -1.4055535e-005 -7.0682936e-006 2.1001204e-005 0.00043051376
5.4773068e-006 -1.8660862e-006 -0.59255964 -0.7962594 -4.4350568e-006 9.7703196e-006
1.8651315e-005 0.00040649404 2.3540822e-006 1.1749228e-005 0.99969888 -0.0042383331
35481.338923358 0.99503058 -0.019455696 -2.004962e-005 2.6803695e-005 9.8176474e-007 0.00043105261
4.6013542e-007 2.6547766e-006 -0.62795371 -0.76865608 -1.0965115e-005 -1.749277e-006
2.3189957e-006 0.00042311361 -3.0014688e-005 7.459837e-006 0.99966979 -0.0043130284
37583.740428844 0.99507189 -0.020500321 -6.3199882e-006 1.892523e-006 3.363486e-005 0.00042403524
3.9437878e-006 -8.8200653e-007 -0.6609208 -0.74076098 -4.1723515e-006 7.8283765e-006
-4.3052232e-006 0.00045651651 -1.119645e-005 -6.0470925e-006 0.99969703 -0.0045256033
39810.71705535 0.99506974 -0.021722868 9.4725792e-006 2.2180713e-005 5.9722288e-006 0.0004951086
-3.3020801e-006 4.3845234e-006 -0.69157571 -0.71246225 -1.1975566e-006 1.4853076e-005
2.1861273e-005 0.00049529446 6.2402528e-006 -8.9388395e-006 0.99956399 -0.0047747502
42169.650342858 0.99503589 -0.022931674 -1.5310648e-005 -1.012142e-005 1.927122e-005 0.00052324514
-7.0994115e-006 1.6230244e-006 -0.71977651 -0.68408173 -8.2645802e-006 1.1202698e-006
-6.9974026e-006 0.00053794048 -1.2321141e-005 9.2156106e-006 0.99940175 -0.0050071408
44668.359215096 0.99506259 -0.024314756 -1.1110757e-005 -1.1998288e-005 2.9785333e-005 0.00056204578
6.8597028e-006 6.8630789e-006 -0.74581039 -0.65584916 2.2369604e-006 7.1749611e-007
2.3720624e-005 0.00054935832 -2.9804778e-006 4.0118161e-006 0.99947011 -0.005220769
47315.125896148 0.99511117 -0.025711931 -8.8920724e-006 -9.8781618e-007 1.5008539e-005 0.0005798213
-1.8798447e-006 3.3333447e-006 -0.76971453 -0.62785977 -6.1684327e-006 4.3848145e-006
2.1555741e-005 0.00057678623 4.7592298e-006 2.3055858e-005 0.99955678 -0.0053620697
50118.723362727 0.99494988 -0.02723689 2.4810581e-005 1.0961775e-005 -1.2895202e-005 0.0006109862
-1.1402948e-005 5.327243e-007 -0.79159731 -0.6001451 3.4467096e-006 -3.8563585e-006
8.9599225e-006 0.00061371742 1.2624755e-005 1.527922e-006 0.99942797 -0.0055861054
53088.444423099 0.99491256 -0.028914761 -6.1788678e-006 -3.4944569e-005 2.7506085e-005 0.00066073629
-7.9183455e-006 1.0013111e-006 -0.81165868 -0.57313883 3.4284064e-006 -7.8107496e-007
1.0980375e-005 0.00065237773 2.1066523e-006 5.1870816e-006 0.99951279 -0.0059402161
56234.132519035 0.99485612 -0.030679403 7.0186951e-007 -2.6665117e-005 2.8833596e-005 0.00071179413
7.4623495e-006 -5.4174438e-006 -0.82975417 -0.54659414 -3.889274e-006 3.5775106e-006
2.1459166e-005 0.00068979571 8.7956196e-006 -1.0965996e-005 0.99929839 -0.006313812
59566.214352901 0.99477494 -0.032485705 -8.5330221e-006 -9.1944031e-007 1.0496527e-005 0.00073664531
-1.1953282e-005 -3.1432751e-006 -0.84640306 -0.52096403 9.6199674e-006 1.1112934e-005
4.3887478e-005 0.00072106643 1.3400588e-005 1.3050889e-005 0.99912184 -0.006592751
63095.734448019 0.99468029 -0.034298051 -1.5892771e-005 2.3399805e-005 1.6661072e-005 0.00078596588
2.5737168e-006 4.7405324e-006 -0.86142772 -0.49584705 7.1242484e-006 4.7861377e-006
2.2674765e-005 0.00078128284 -3.0373362e-006 1.5560954e-005 0.99946064 -0.0069234599
66834.391756861 0.99464709 -0.036233962 -7.5484957e-007 9.4272573e-006 3.4505472e-005 0.00080860197
6.1503497e-006 9.4571163e-008 -0.87496322 -0.47167578 9.3245462e-006 -4.915627e-006
3.2145308e-005 0.00081487733 -2.4994537e-005 -9.2109913e-006 0.99937528 -0.0072361687
70794.578438414 0.99442714 -0.038451985 1.422604e-005 -2.1651389e-005 3.1873518e-005 0.00087744941
-7.8512112e-006 3.6046579e-008 -0.88728201 -0.44852298 2.3794275e-006 -5.6526275e-008
4.3080316e-005 0.00087773072 -2.8514725e-005 -6.8740442e-006 0.99919611 -0.0076255389
74989.420933246 0.99431986 -0.040643711 1.047987e-005 -1.2440892e-005 1.1239754e-005 0.00091916783
-1.9076369e-006 4.8142289e-007 -0.89855218 -0.42590848 -1.4864035e-005 9.0129106e-006
3.3538508e-005 0.0009203995 -9.4678799e-006 2.4021614e-005 0.99912035 -0.0081011811
79432.823472428 0.9941678 -0.043057568 1.5769494e-005 2.3487231e-005 5.0208517e-005 0.00097272801
7.4773093e-006 -1.4908472e-006 -0.90862352 -0.40422723 -6.9481898e-006 2.1844717e-006
2.5966518e-005 0.00097402668 -8.4257044e-007 1.641171e-005 0.99903888 -0.0084874583
84139.514164519 0.99407154 -0.045481436 -8.0141381e-006 9.6994854e-006 5.7929672e-005 0.0010544385
-1.19631e-005 -1.4543119e-006 -0.91753423 -0.38355345 -7.4508298e-006 1.3310745e-005
5.8652546e-005 0.0010358063 -4.4180529e-006 -1.626946e-005 0.99900395 -0.008763602
89125.093813375 0.99399185 -0.048200302 -1.9641409e-005 2.5603627e-005 5.4856409e-005 0.0010944696
1.8483365e-007 7.5685548e-006 -0.92583877 -0.36369261 2.5993396e-007 9.5521864e-006
4.7953265e-005 0.0011024737 -1.4797381e-005 1.0647545e-005 0.99910605 -0.0092801088
94406.087628592 0.99393535 -0.051030945 -5.7813436e-006 7.5615562e-006 6.0244893e-005 0.0011609232
2.1298868e-006 1.0244642e-005 -0.93314618 -0.34475037 7.953814e-006 2.1527439e-006
4.3846412e-005 0.0011685818 1.0193514e-005 -6.8081386e-006 0.99903405 -0.0097819986
100000 0.99385148 -0.053928737 1.9318211e-006 1.131001e-005 5.9470847e-005 0.0012529348
-1.0565294e-005 7.8066905e-006 -0.9397983 -0.32655969 -1.149426e-006 1.5466117e-005
5.9342881e-005 0.0012226929 -1.8153549e-006 3.1828033e-006 0.99913836 -0.010407973
105925.37251773 0.99360573 -0.057160247 -2.4560017e-005 1.4882599e-005 9.1586589e-005 0.0013055201
-3.1191594e-006 1.3318932e-005 -0.94570363 -0.309302 3.8502653e-006 -2.266971e-006
7.7947188e-005 0.0013077493 5.313474e-006 3.1151194e-005 0.99878621 -0.010853658
112201.8454302 0.993478 -0.060704421 8.6110185e-006 2.1060494e-005 0.00010168145 0.0013688387
-9.4384933e-007 1.0550951e-005 -0.95102662 -0.29278523 8.958632e-006 7.7927443e-006
4.4546847e-005 0.0013732772 -8.8999659e-006 -6.9879029e-006 0.99897546 -0.011558536
118850.2227437 0.99320668 -0.064132474 5.7227485e-006 5.4686739e-006 0.00011070801 0.0014508644
2.6963562e-006 1.0216399e-005 -0.9558689 -0.27718598 6.089715e-007 5.4760285e-006
9.6456031e-005 0.0014613866 -2.0030444e-005 1.123675e-005 0.99900538 -0.012093865
125892.54117942 0.99302107 -0.06800288 -1.1331547e-005 -1.9812143e-005 8.9882116e-005 0.0015390071
-4.6938053e-006 5.2040623e-006 -0.96013743 -0.26221997 2.3416835e-006 7.4563832e-006
9.5863717e-005 0.0015550932 -1.4644355e-005 1.773413e-005 0.9990719 -0.012822462
133352.14321633 0.99275482 -0.07204178 -1.0520207e-005 2.3858122e-006 0.0001156547 0.0016369123
-1.2171789e-005 1.8876113e-005 -0.9640196 -0.24798068 -1.0510644e-005 9.0422845e-006
9.6741802e-005 0.0016437416 1.6596282e-006 -2.6502287e-006 0.99894869 -0.013490503
141253.75446228 0.9924171 -0.076366909 1.4069599e-005 -1.2072471e-005 0.00012547534 0.0017301824
-7.2981466e-006 3.9810311e-006 -0.96737874 -0.23448794 -7.1597042e-006 3.450908e-006
0.00013451988 0.0017462006 -3.6147458e-006 9.5160694e-006 0.998999 -0.014327536
149623.56560944 0.99197435 -0.08075469 -2.7223818e-005 5.2506209e-007 0.00012375251 0.0018305102
-1.0995343e-005 9.485424e-006 -0.97052801 -0.22170292 1.0030122e-005 -5.5254662e-007
0.0001433796 0.0018181474 2.2083674e-005 1.7594308e-005 0.99876755 -0.015142404
158489.31924611 0.9915179 -0.085531414 -3.3515629e-005 -2.2290892e-006 0.00014130386 0.0019321461
-1.8173525e-005 4.862849e-006 -0.97333169 -0.20950165 3.712446e-006 1.4869513e-005
0.00016043308 0.0019453889 -4.7377339e-006 5.4192283e-006 0.99891865 -0.015962731
167880.40181226 0.9911204 -0.090609781 -2.2373317e-005 3.9012793e-006 0.0001619184 0.0020366851
-2.3330367e-006 1.6834851e-005 -0.97580218 -0.1979039 -2.8444325e-007 2.0333106e-005
0.00016473646 0.0020350951 -2.0339821e-005 2.4392686e-005 0.99881232 -0.016988004
177827.94100389 0.99055207 -0.095931932 -1.4637194e-005 1.0405924e-005 0.00017470376 0.002149933
-1.5547375e-005 -2.1993224e-006 -0.97742873 -0.18588069 1.1872795e-005 7.6425595e-006
0.00019119028 0.0021778722 -5.5726736e-007 9.2828968e-006 0.9986673 -0.017917706
188364.90894898 0.9899404 -0.10142155 -1.0346987e-005 1.0062958e-005 0.0002097602 0.0022779312
-6.8877953e-006 8.1314265e-006 -0.97986031 -0.17710565 -7.3387496e-006 9.68319e-006
0.00020987753 0.0022894694 -2.8465802e-006 -1.2028687e-006 0.99857086 -0.01896058
199526.23149689 0.9892019 -0.10743764 -2.0280886e-005 2.274586e-005 0.00021928365 0.0024327482
-2.1613851e-005 3.7754583e-006 -0.98169261 -0.16712973 -1.8738141e-006 6.5663362e-006
0.000227333 0.0024364996 1.0521152e-005 2.3644694e-005 0.99863237 -0.020117199
211348.90398366 0.98865771 -0.11389367 9.0267476e-006 1.4248537e-005 0.00024168292 0.0025686366
-1.3391491e-005 1.1197043e-005 -0.9833501 -0.15783685 -2.3996326e-006 9.3221979e-006
0.00024559483 0.0025602879 -5.6799331e-006 1.6284877e-005 0.99847054 -0.021248352
223872.11385683 0.98780626 -0.12046558 -1.2693812e-005 1.8071078e-005 0.00025869906 0.0027031661
-2.4219031e-005 1.3317394e-005 -0.98479068 -0.14898077 1.7252044e-006 1.4484732e-005
0.00028618512 0.0027269647 3.0169358e-007 -1.2932249e-005 0.99838376 -0.022367982
237137.37056617 0.98692352 -0.12755382 -7.2091706e-007 2.4800995e-006 0.00033678036 0.0028832678
-1.0463469e-005 2.2832472e-005 -0.98601782 -0.14056106 -2.1811761e-006 7.4539257e-006
0.00031756717 0.0028702891 -1.430438e-005 1.4336514e-005 0.99847108 -0.02358878
251188.64315096 0.98596025 -0.13503911 2.7206129e-006 5.5096348e-006 0.00035096708 0.0030424306
-2.3007171e-005 1.1423686e-005 -0.98719239 -0.13267675 -2.5791549e-006 2.0569281e-005
0.00032143216 0.0030267511 1.4596677e-007 2.3199493e-005 0.99834526 -0.025112422
266072.50597988 0.98462766 -0.14300118 -2.7634442e-005 1.8765853e-006 0.00038200268 0.0031918879
-2.122855e-005 2.4197858e-005 -0.98818725 -0.12520024 -3.3954043e-006 2.6063441e-005
0.00037635461 0.0031927335 -4.716559e-006 2.0915069e-005 0.99820787 -0.026508208
281838.29312645 0.98334587 -0.15152058 -2.3515078e-005 2.4100549e-005 0.00043247963 0.003366166
-2.1421627e-005 7.5033054e-006 -0.98907506 -0.1181931 -9.8143039e-007 1.9234138e-005
0.00041233588 0.0033694978 -1.2891005e-005 1.1372955e-005 0.99814457 -0.027746022
298538.2618918 0.98190725 -0.16021936 -3.1521729e-005 2.4636651e-005 0.00047011062 0.0035634346
-3.0810239e-005 2.1625385e-005 -0.98993587 -0.11140081 -9.7169573e-007 1.2465553e-005
0.00047225473 0.0035537982 -5.2750629e-006 2.2232121e-005 0.99791622 -0.029555533
316227.76601684 0.98039019 -0.16968597 -3.9477451e-005 2.4460376e-005 0.00049242302 0.0037671337
-2.8406044e-005 2.1961745e-005 -0.99063879 -0.10506817 -4.8216948e-006 1.2874691e-005
0.00051158399 0.0037765724 -1.1002924e-005 1.9909523e-005 0.99776095 -0.031119801
334965.43915783 0.97855407 -0.17944545 -3.0517771e-005 1.2835088e-005 0.00055408076 0.0039555733
-2.4432074e-005 2.7880245e-005 -0.99138707 -0.099210821 -1.032655e-005 9.9902918e-006
0.00058508298 0.0039799227 -1.6502758e-005 2.8842551e-005 0.99751878 -0.033088472
354813.38923358 0.97656506 -0.18960507 -2.8247379e-005 1.9674118e-005 0.00062111346 0.0041755592
-4.2362815e-005 2.4690467e-005 -0.99193174 -0.093420833 -5.2403357e-006 1.8333685e-005
0.00064554368 0.0042001465 -2.2408951e-005 3.6445097e-005 0.99756056 -0.034818944
375837.40428844 0.97441554 -0.20073546 -2.9683029e-005 3.3835066e-005 0.00071503146 0.0044200555
-3.6803689e-005 3.2226362e-005 -0.99237609 -0.087918244 -1.61391e-005 1.6359703e-005
0.00070430449 0.0044338708 -8.5796428e-006 2.7374705e-005 0.99748725 -0.036822468
398107.1705535 0.97189659 -0.21252941 -5.8125945e-005 5.0007613e-005 0.00076288282 0.0046835155
-3.1886993e-005 2.9915491e-005 -0.99291778 -0.082598649 -6.1399319e-006 3.531816e-005
0.00077433942 0.0046660635 -1.3119408e-005 1.5437603e-005 0.99720782 -0.038966909
421696.50342858 0.9690851 -0.22473995 -4.6870155e-005 2.3110002e-005 0.00086148962 0.0049093841
-5.1588144e-005 2.6038724e-005 -0.9930436 -0.077493943 4.7439294e-006 2.9566967e-005
0.00084490463 0.0049236496 -1.7830564e-005 3.7898455e-005 0.99697471 -0.041185092
446683.59215096 0.96589142 -0.23747696 -6.8615795e-005 5.9948292e-005 0.00096228864 0.0051875818
-6.0814833e-005 4.2349478e-005 -0.99314362 -0.073794693 -2.4028116e-006 2.5048204e-005
0.00096135284 0.00518014 7.6283504e-006 1.8808969e-005 0.99666333 -0.04354351
473151.25896148 0.96239436 -0.2510488 -7.3626063e-005 2.1228469e-005 0.0010440326 0.0054553561
-5.1754032e-005 4.8396756e-005 -0.99385083 -0.069605663 -1.4006833e-005 9.6122267e-006
0.0010462602 0.0054714349 -1.6244147e-005 1.9136767e-005 0.99673194 -0.045965075
501187.23362727 0.95840758 -0.2655156 -4.1314477e-005 1.7733426e-005 0.0011633961 0.0057574026
-7.3295792e-005 4.4326393e-005 -0.9942739 -0.065299764 -1.4532557e-005 2.8088765e-005
0.0011602467 0.0057819341 -1.0920145e-005 2.4459747e-005 0.99650753 -0.048418146
530884.44423099 0.95383745 -0.28060687 -6.3351981e-005 5.8182279e-005 0.0012900789 0.0060864263
-6.3692591e-005 4.0393654e-005 -0.99453431 -0.061332632 -1.7711718e-005 2.8876453e-005
0.0012764321 0.0060660057 2.8289444e-006 3.4412828e-005 0.99626225 -0.051172372
562341.32519035 0.94907159 -0.29643995 -7.8597586e-005 4.9108039e-005 0.0013815365 0.0064208834
-7.1619914e-005 4.7707268e-005 -0.99486262 -0.057590391 -2.6170132e-005 2.7763939e-005
0.0013876216 0.0063984795 -1.8191044e-005 9.238337e-006 0.99617696 -0.05403737
595662.14352901 0.94370359 -0.31291378 -0.00010069818 5.3522042e-005 0.0015306816 0.006746287
-9.4173425e-005 5.0708371e-005 -0.99509835 -0.054004643 -2.1999016e-005 4.0276707e-005
0.0015544909 0.0067338152 -1.6907316e-005 4.5380966e-005 0.99585438 -0.057299577
630957.34448019 0.93779302 -0.33049965 -8.05686e-005 5.861474e-005 0.0017000958 0.0070927758
-9.4555093e-005 6.5314445e-005 -0.99524766 -0.050638966 -1.1327375e-005 4.5644818e-005
0.0017067806 0.0071077803 -1.8721932e-005 6.119442e-005 0.99543107 -0.060691308
668343.91756861 0.93101877 -0.34882352 -0.00010557315 7.6710123e-005 0.0018871648 0.0074754888
