!Keysight Technologies,E5080A,MY55100144,A.11.70.03
!Date: Monday, November 13, 2017 17:25:40
!Correction: S11(Full 3 Port(1,2,3)) 
!S12(Full 3 Port(1,2,3)) 
!S13(Full 3 Port(1,2,3)) 
!S21(Full 3 Port(1,2,3)) 
!S22(Full 3 Port(1,2,3)) 
!S23(Full 3 Port(1,2,3)) 
!S31(Full 3 Port(1,2,3)) 
!S32(Full 3 Port(1,2,3)) 
!S33(Full 3 Port(1,2,3)) 
!S3P File: Measurements: <S11,S12,S13>,
!<S21,S22,S23>,
!<S31,S32,S33>:Log Frequency Sweep
# Hz S  RI   R 50
10000 0.99563861 -0.0055119689 9.1833308e-006 5.4071088e-006 -2.0600131e-005 0.00014015776
1.5849853e-005 8.2686502e-006 0.47072843 -0.87585104 -1.175576e-005 -7.7409703e-007
1.0740336e-005 0.00014690432 4.0631503e-006 5.0286576e-006 0.99969304 -0.0023802258
10592.537251773 0.99572974 -0.0060230708 -8.7510352e-006 -1.2255297e-005 -1.0928357e-005 0.00015007587
1.2591237e-005 -6.5807567e-006 0.42572239 -0.89835703 1.3762698e-005 6.5717177e-007
-1.7446098e-005 0.00011358201 1.9149893e-006 2.7986714e-006 1.0000502 -0.0021861165
11220.18454302 0.99586219 -0.0064134775 -2.0861751e-005 -7.4187296e-006 2.3790826e-006 0.00013240721
2.8103527e-006 6.4741147e-007 0.37749466 -0.9193036 -7.8843177e-006 -7.9502166e-007
-7.9257925e-006 0.00012148637 -1.2035172e-005 5.78652e-006 1.0000265 -0.0024070342
11885.02227437 0.99577892 -0.0065615354 1.6552553e-005 -1.4162365e-005 2.4604755e-005 0.00014744235
3.2642401e-006 -3.3174711e-006 0.32776085 -0.93788975 6.9700782e-006 -1.4119584e-005
-3.5862445e-006 0.00015008013 -5.8811083e-006 -1.8724528e-005 1.0000312 -0.0023408767
12589.254117942 0.99588251 -0.0070253969 -5.4833217e-006 -1.7929491e-005 -3.7200305e-006 0.00015368454
-1.085523e-005 1.2850728e-005 0.27619162 -0.95422691 9.1389802e-006 1.0663961e-005
1.5591264e-005 0.00014395537 5.1173329e-006 1.5994896e-005 0.99993116 -0.0025932693
13335.214321633 0.9960506 -0.0073217219 -5.0926351e-006 6.2037939e-006 -7.2031903e-006 0.00016759195
1.5969839e-006 -1.0559025e-005 0.22300358 -0.96798742 -1.3600494e-006 -1.0868047e-005
1.1911514e-005 0.00016398312 1.7724929e-006 -7.6578508e-006 0.99983555 -0.0024459523
14125.375446228 0.99588388 -0.0079958728 1.7108136e-005 1.3381358e-005 4.9373834e-006 0.0001613772
5.6263993e-006 1.0185498e-005 0.16827719 -0.97834408 4.9726145e-006 1.2751292e-007
-8.6197842e-006 0.00015017652 -1.9520208e-005 -1.1256077e-005 0.99999088 -0.0024693462
14962.356560944 0.99588686 -0.0083347177 -1.9322868e-005 2.5062529e-005 1.6333099e-005 0.00018672596
-2.8837246e-006 -3.9463762e-006 0.11261006 -0.98669922 7.3538495e-006 1.296974e-006
1.9810593e-006 0.00018818153 3.1788843e-006 4.6636815e-006 0.9999398 -0.002648009
15848.931924611 0.99603033 -0.0088402443 1.0201894e-005 8.3410223e-006 -1.1009163e-005 0.00019317749
-1.5846566e-005 -7.0955552e-006 0.055937048 -0.99115938 -6.1622732e-006 3.0276212e-006
7.1955833e-006 0.00020638065 -1.0775553e-006 1.2867344e-005 1.0000896 -0.002497721
16788.040181226 0.99590194 -0.0095785512 9.8549726e-006 5.2727951e-006 9.0192661e-006 0.00020239946
1.1538425e-005 -1.649329e-005 -0.00073504046 -0.99247569 -8.496283e-006 -1.1200225e-005
-3.1786565e-006 0.00021153541 5.8979031e-006 2.0708341e-005 0.99992913 -0.0027695033
17782.794100389 0.99604046 -0.0097317332 -4.612481e-006 6.3538155e-006 4.9803289e-006 0.00022981947
8.6869841e-006 8.2565857e-006 -0.057480976 -0.99049938 4.4853991e-006 8.2292936e-006
1.1098996e-005 0.00020600553 -8.8097875e-007 -2.6521404e-006 0.99988574 -0.0026836728
18836.490894898 0.9960711 -0.010338818 2.0003297e-006 8.8597523e-007 6.2383315e-006 0.00023945986
-3.6427409e-007 1.3024378e-005 -0.11404376 -0.98575336 -4.6748451e-006 4.003854e-006
3.4418931e-006 0.00023779302 1.6783115e-005 -5.7031398e-006 0.99988544 -0.0028012616
19952.623149689 0.99606043 -0.01104993 2.0164711e-005 -4.6843888e-006 6.02612e-006 0.00025181391
5.6491808e-006 3.8075987e-006 -0.16949166 -0.97766519 -2.7721055e-006 1.4836519e-005
4.3530495e-006 0.00026183453 5.3158406e-006 1.404472e-005 0.99994713 -0.0029406929
21134.890398366 0.9959777 -0.011771062 -8.2963024e-006 2.6420278e-006 2.1681944e-006 0.00026841962
8.2301867e-006 1.0754356e-005 -0.22421344 -0.96651345 2.6088285e-006 -9.4922081e-007
5.4953839e-006 0.00026212077 -1.3577915e-005 7.126765e-006 0.99969918 -0.0031601237
22387.211385683 0.99593687 -0.012392134 5.5502064e-006 -7.5361181e-006 3.989629e-006 0.00028278661
-1.5403668e-005 -8.9725945e-006 -0.27733946 -0.95266408 1.5959224e-005 1.9310321e-005
-4.9831483e-006 0.00025904397 -2.7906674e-007 1.6944966e-007 0.99979031 -0.0032697364
23713.737056617 0.99581265 -0.013071405 -1.2191417e-005 1.9345651e-005 7.2653925e-006 0.00027314117
-3.3279211e-006 -1.9453191e-006 -0.32892141 -0.93604475 3.4165098e-006 1.0634196e-005
1.8023838e-005 0.00029086956 -7.7542181e-006 2.0748557e-005 0.99962342 -0.0032223593
25118.864315096 0.99591577 -0.014041514 -5.9728059e-006 9.923634e-006 -1.574222e-006 0.00030452322
6.7120081e-006 -1.4082062e-006 -0.37848848 -0.91723198 -6.9627304e-006 9.681612e-006
-6.1026558e-006 0.00030221348 -2.4556342e-005 -1.9533696e-005 0.99997121 -0.0033302591
26607.250597988 0.99599618 -0.014740273 1.3086528e-005 -6.0884406e-007 -2.8645718e-006 0.00033212628
3.7368281e-006 -8.4983873e-007 -0.42607242 -0.89632589 5.8861301e-006 5.2262092e-008
-1.2790937e-005 0.00034604088 -9.2879291e-006 1.0868789e-006 0.99981779 -0.0036584537
28183.829312645 0.99588752 -0.015751937 7.0687265e-006 5.5454666e-006 6.1274222e-006 0.00035556805
3.6364706e-006 -2.7203689e-006 -0.47148916 -0.8733325 -5.1070324e-006 9.2286746e-006
-7.6705182e-006 0.00034141625 3.1773272e-006 -7.9542506e-006 0.99980938 -0.0036369886
29853.82618918 0.99598593 -0.016494216 -1.1598137e-006 2.7727685e-007 2.6422762e-005 0.00037877445
1.5838006e-005 -2.3937946e-007 -0.5142535 -0.84876174 1.2601606e-005 1.5077843e-006
3.4175555e-006 0.0003748287 6.5953773e-006 -2.2660083e-006 0.99971795 -0.0037509166
31622.776601684 0.99580908 -0.017540907 -9.4362167e-006 -2.1436867e-006 2.4446217e-005 0.00037541991
5.3220756e-006 1.5947347e-005 -0.55444211 -0.82312423 -6.3219168e-006 -5.331402e-006
-1.8501458e-006 0.00037177801 -1.2118559e-005 -1.4403135e-005 0.99976438 -0.0040723016
33496.543915783 0.9958089 -0.018478669 2.1522035e-005 5.8718215e-006 1.2183825e-005 0.00039179641
-3.5705698e-006 -8.7012959e-006 -0.5925107 -0.79633045 -3.9355223e-007 -5.8629084e-006
-4.305733e-006 0.00042952658 1.4858661e-005 2.9647164e-005 0.99950171 -0.0042297561
35481.338923358 0.99569666 -0.019408142 3.4519869e-006 3.0640047e-007 9.7864713e-006 0.00042123924
2.4974183e-006 2.2129013e-006 -0.62802386 -0.76864558 -2.7537624e-007 -2.3476464e-006
9.5174e-006 0.00043825142 -1.0110601e-005 -1.0257937e-006 0.99981529 -0.0042294362
37583.740428844 0.99585879 -0.02075622 2.0061239e-006 2.7247438e-006 2.2262324e-005 0.00050371757
-4.1427238e-006 6.7964538e-007 -0.66085356 -0.74067128 8.621917e-006 6.2076988e-006
1.3600396e-005 0.00047332147 -3.1311676e-005 6.7121023e-006 0.99962187 -0.0045187841
39810.71705535 0.99587786 -0.021964155 -1.9262025e-006 7.5545699e-006 1.3479611e-005 0.00048383026
-1.380983e-005 -1.9901936e-006 -0.69152689 -0.712372 -1.1426071e-005 -4.1768744e-006
3.6328993e-006 0.00048711195 1.5929259e-005 -2.1271568e-005 0.99962741 -0.0046745348
42169.650342858 0.99570674 -0.023168487 1.1443618e-005 2.3404331e-005 2.6157511e-005 0.00050668698
-3.241197e-006 1.6530389e-007 -0.71979409 -0.68404806 -4.8773418e-006 1.5569723e-005
1.8442719e-005 0.00052239769 2.1480027e-005 4.1596231e-005 0.99948972 -0.0049495613
44668.359215096 0.99582756 -0.024619972 8.1752505e-006 -1.9496258e-005 8.1313292e-006 0.00054849318
2.6129412e-006 9.9688205e-006 -0.74580729 -0.65577668 -1.0168209e-005 -3.7404186e-006
2.1290154e-005 0.00055860926 -1.0807182e-005 -1.7444154e-005 0.99938309 -0.0052203396
47315.125896148 0.99575901 -0.025957357 1.4466262e-005 2.6044265e-006 -1.5501919e-005 0.00057797512
-1.2618689e-006 1.1687864e-006 -0.7696501 -0.62778157 6.9222715e-006 3.0808589e-008
1.1954226e-005 0.00057526183 -9.0064896e-006 -8.2134429e-006 0.99958318 -0.0055104732
50118.723362727 0.99559182 -0.027574185 -1.9314959e-006 7.4657914e-006 2.049969e-005 0.00061336841
4.2075803e-006 -2.8756144e-006 -0.79153848 -0.60012239 -2.13721e-006 6.5073382e-006
1.5921174e-005 0.00062925473 2.3776768e-006 -1.2969133e-005 0.99944031 -0.005780126
53088.444423099 0.99556261 -0.029217508 -2.567562e-006 1.9978686e-005 2.210639e-006 0.00064628082
2.1326384e-006 7.713048e-006 -0.81164128 -0.57314235 -1.5923082e-005 1.0311178e-005
1.2113567e-005 0.00065360148 6.9681942e-006 -1.0873358e-005 0.99933338 -0.0059730979
56234.132519035 0.99558216 -0.031158095 -1.7738712e-005 1.9560848e-005 1.0693608e-005 0.00066606048
-1.0982062e-005 9.9168374e-006 -0.82969904 -0.54655457 -4.6745936e-006 2.3623641e-006
2.5340634e-005 0.00070301426 5.6485032e-006 1.4822077e-006 0.99956906 -0.0063405158
59566.214352901 0.99554306 -0.03288953 -7.7592204e-006 1.8004826e-005 1.3469936e-005 0.00074248761
-3.2877372e-006 6.3947546e-006 -0.84634632 -0.52094144 3.5677308e-006 1.5000389e-005
3.0237787e-005 0.00072403293 1.5176819e-005 1.0088167e-005 0.99921227 -0.0065699182
63095.734448019 0.99538499 -0.034707077 -1.8287375e-005 2.44029e-005 1.9497291e-005 0.00076973438
3.1205577e-006 6.2056451e-006 -0.86130822 -0.49591914 -2.9518096e-006 -9.7353313e-006
2.0430376e-005 0.00076966884 3.5531118e-006 2.3986044e-005 0.99926746 -0.0070174742
66834.391756861 0.99525875 -0.036674116 -6.0737248e-006 -8.9880605e-006 1.2817669e-005 0.00080637872
-1.5330991e-006 1.5990572e-005 -0.87499535 -0.47161087 4.160715e-006 -5.1461161e-006
2.1605498e-005 0.0008230409 -5.2808382e-006 -9.160588e-006 0.99930596 -0.007230748
70794.578438414 0.99496567 -0.038976576 6.3022107e-006 3.1190695e-005 2.8283413e-005 0.00085599982
-4.0680852e-006 8.6518121e-006 -0.88723153 -0.44843075 -1.8415316e-005 2.1524767e-005
3.8672464e-005 0.00087670027 -5.8218388e-006 -3.0208998e-006 0.99914318 -0.0076958467
74989.420933246 0.99501657 -0.04113834 3.0721119e-005 1.0740923e-005 3.5984503e-005 0.00092185818
-6.6411194e-006 9.9190138e-006 -0.89842087 -0.4259336 -1.8102979e-006 1.7499417e-006
1.994402e-005 0.00094190706 -5.1270331e-006 1.6518734e-005 0.99919736 -0.0078946352
79432.823472428 0.99495405 -0.043648135 -1.3542616e-005 -9.21234e-006 3.3748696e-005 0.00098061259
-8.9061841e-006 5.0110461e-006 -0.90852392 -0.4041914 -8.2074257e-006 -4.8745464e-006
5.3616259e-005 0.0009865847 -3.7352922e-006 -7.5721887e-006 0.99906641 -0.0083880872
84139.514164519 0.99484688 -0.046107482 -9.2236924e-006 -1.53113e-005 3.6123241e-005 0.0010340983
3.9412735e-006 8.4668845e-006 -0.91757303 -0.38355663 -3.8330774e-007 1.8165128e-005
5.2310548e-005 0.0010421808 2.4582207e-005 -5.1191241e-006 0.99904615 -0.0089566289
89125.093813375 0.99474317 -0.048718952 -1.4334693e-005 8.6412007e-007 6.3209256e-005 0.0011055541
-5.9872154e-006 1.1732755e-005 -0.92580354 -0.36367774 1.6331877e-006 6.2271238e-006
5.5883516e-005 0.0010942777 -3.0013205e-005 -1.1253322e-006 0.99903595 -0.0093924431
94406.087628592 0.99451578 -0.051631637 -5.3793779e-006 -2.5191546e-005 5.0585932e-005 0.0011519748
-1.2554076e-005 -3.4215577e-006 -0.93313408 -0.34473059 1.422593e-006 5.329116e-006
5.0846287e-005 0.0011549963 3.8933781e-006 1.5632169e-005 0.99909842 -0.0098657683
100000 0.99450415 -0.054597154 -2.7713709e-006 -1.3288235e-005 7.027798e-005 0.0012424242
-3.2919695e-006 9.3093822e-006 -0.93966198 -0.32654586 -7.6211809e-006 5.0053136e-006
5.7153822e-005 0.0012197105 1.4112471e-005 -1.4385745e-005 0.99898124 -0.010425231
105925.37251773 0.99439031 -0.058006488 -2.3511921e-005 1.5528174e-005 6.3775005e-005 0.0013083464
-5.5618734e-006 5.8797327e-006 -0.94566941 -0.30932555 -1.0499603e-007 4.141069e-006
7.9357953e-005 0.0013173192 -6.2550566e-007 1.018524e-005 0.99899292 -0.010784334
112201.8454302 0.99410075 -0.0612887 9.1920674e-006 7.6594497e-006 6.9208734e-005 0.0013833739
3.4832324e-006 9.8539076e-006 -0.95098126 -0.29278067 1.3084116e-005 3.5587875e-006
7.6292803e-005 0.0013947739 2.0365396e-006 -4.9631121e-006 0.99899793 -0.011475833
118850.2227437 0.99394649 -0.064950973 -1.5215408e-005 1.7833056e-005 8.6793007e-005 0.0014541568
-1.0194922e-005 4.2708734e-006 -0.95579034 -0.27711752 1.3441079e-006 5.050339e-006
9.0443762e-005 0.0014478894 -2.5844956e-005 2.7208662e-005 0.99904013 -0.012241398
125892.54117942 0.99369073 -0.068713225 -7.9370529e-006 1.8664461e-005 0.00012357302 0.0015218992
-5.314233e-006 1.7282258e-005 -0.96014142 -0.26217318 3.7040175e-007 1.2459752e-005
0.00010066052 0.0015251206 5.070875e-006 6.0502034e-006 0.99917436 -0.012885735
133352.14321633 0.99338061 -0.072842166 8.2718759e-007 6.6531406e-006 0.00011139252 0.0016422746
-4.0762026e-007 1.6665696e-005 -0.96390986 -0.24798392 -2.0948416e-006 1.432829e-005
0.00011744421 0.0016363292 -9.1563161e-006 1.7164182e-005 0.99894488 -0.013436399
141253.75446228 0.99297488 -0.077461161 -1.5950847e-005 1.0825303e-005 0.00012652868 0.0017149514
2.4790782e-007 4.2326305e-006 -0.96739537 -0.23453964 -3.4999607e-006 6.301218e-006
0.0001071848 0.0017194672 -5.8392757e-006 5.1314382e-006 0.99896735 -0.014377076
149623.56560944 0.99255031 -0.08163064 -3.1056195e-005 3.2721782e-005 0.00012389272 0.0018371609
-3.5027651e-006 1.5189657e-005 -0.9704721 -0.22168431 -6.1673386e-006 2.0289219e-006
0.0001223415 0.0018381622 -2.4197921e-005 2.1749393e-005 0.99885142 -0.015188397
158489.31924611 0.9922123 -0.086782694 -7.7612267e-006 -8.8019624e-006 0.00013666028 0.0019390287
-5.2904966e-006 3.5612534e-006 -0.97327471 -0.20946226 -1.2725963e-006 4.1544122e-006
0.00015992647 0.001937554 8.0992936e-007 5.9135195e-006 0.99902886 -0.015909899
167880.40181226 0.99166155 -0.091701865 -2.6672251e-005 -6.0385569e-006 0.00016384269 0.0020168442
-8.5609336e-006 6.5317986e-006 -0.97576553 -0.19783358 1.7375773e-006 1.5128214e-005
0.00017526939 0.0020735727 -1.1106838e-005 -8.8175666e-006 0.99886215 -0.017012181
177827.94100389 0.99117631 -0.097267687 3.6784588e-006 8.6833252e-006 0.0001866122 0.0021568306
-1.0933972e-005 7.9609681e-006 -0.97737366 -0.18589045 2.0260227e-006 1.0016657e-005
0.000179107 0.0021572164 2.7423152e-005 2.1094336e-005 0.99875361 -0.017915435
188364.90894898 0.99055409 -0.10272472 -3.6893834e-006 2.1538131e-005 0.00015657667 0.0022973695
-7.5427438e-006 1.5561092e-005 -0.97984827 -0.1771047 -3.2159678e-006 9.6350723e-006
0.00019881139 0.0022823736 5.8357723e-006 -1.2534682e-007 0.99862188 -0.019015517
199526.23149689 0.98970193 -0.10892016 1.728228e-005 2.5668847e-005 0.00020693602 0.0024331436
-2.0421621e-005 1.4429716e-005 -0.98172331 -0.1672385 -1.4936205e-006 1.0534165e-005
0.00026311778 0.0024272543 -4.0156701e-007 4.0003642e-006 0.99854869 -0.020125298
211348.90398366 0.98910773 -0.11533028 -1.7503638e-005 2.7960971e-006 0.00026208544 0.0025484108
-3.0789647e-006 1.7038203e-005 -0.98332375 -0.15782733 -6.503682e-006 1.7033432e-005
0.00025938553 0.0025659578 7.1936634e-006 -4.0104592e-006 0.99849844 -0.021187285
223872.11385683 0.98839116 -0.12195468 -3.2028096e-005 2.4770463e-005 0.00026956244 0.0026952927
-2.5373394e-005 9.10988e-006 -0.98477882 -0.14895599 -1.6836577e-005 1.861387e-005
0.00027346783 0.0027133024 2.1557753e-006 9.9479503e-006 0.99852276 -0.022468761
237137.37056617 0.98740947 -0.12924989 2.3855901e-005 3.6863727e-005 0.00030201959 0.0028552648
-2.2695451e-005 1.6574417e-005 -0.98593664 -0.14061397 -2.8015763e-006 1.5831403e-005
0.0003088034 0.0028804773 2.9999003e-007 1.8829622e-005 0.99829662 -0.023372242
251188.64315096 0.98654753 -0.13679817 -3.5211455e-005 1.2902271e-005 0.00035182532 0.0030205941
-1.0996931e-005 2.1802272e-005 -0.98717123 -0.13268733 -1.1800155e-005 2.3520433e-005
0.00035703179 0.0030293365 1.9138608e-005 1.3394991e-005 0.99833614 -0.025119038
266072.50597988 0.9851253 -0.14471574 -2.9846771e-005 1.5266756e-005 0.00038083337 0.0031980586
-1.116391e-006 2.3162855e-005 -0.98816001 -0.12527442 -7.6468996e-006 1.3231284e-005
0.0003995148 0.0032113434 -5.7643247e-006 3.329894e-005 0.99823898 -0.026436877
281838.29312645 0.98388553 -0.15345973 -1.7833368e-005 2.4072253e-005 0.00041091052 0.0033736492
-2.1575648e-005 1.6659196e-005 -0.98906773 -0.11812974 7.0511655e-006 1.2744888e-005
0.00042439438 0.003357643 -4.8724696e-006 1.2139207e-005 0.99812961 -0.02793204
298538.2618918 0.98236376 -0.16226614 -2.9622433e-005 2.5783007e-005 0.000456554 0.0035597584
-2.6253325e-005 1.253523e-005 -0.98986316 -0.11140751 -1.1457621e-005 3.5161295e-006
0.00048500922 0.0035466168 -7.1639956e-006 -4.1695566e-006 0.99789095 -0.029574011
316227.76601684 0.98074645 -0.17182243 -3.0847063e-005 1.9491141e-005 0.00052394444 0.0037340878
-1.5738719e-005 3.277056e-005 -0.99053341 -0.10512313 -1.4111579e-005 2.7690072e-005
0.00052142597 0.0037745056 3.5983123e-006 -1.0732755e-005 0.9978627 -0.031048495
334965.43915783 0.97894657 -0.18168475 -3.2074931e-005 2.586188e-005 0.00057827891 0.0039736787
-2.0978292e-005 1.1634127e-005 -0.99128234 -0.099193618 -9.103107e-006 1.3839559e-005
0.00058635726 0.0039605917 1.126898e-005 2.7338949e-005 0.99764639 -0.032983128
354813.38923358 0.97693503 -0.19233906 -2.9961044e-005 2.8267852e-005 0.00063042989 0.0041935742
-2.7278757e-005 2.7789016e-005 -0.99186486 -0.093376204 -2.21497e-006 2.4909219e-005
0.00063778972 0.0041692732 -2.5280278e-005 1.8231298e-005 0.99755806 -0.034751769
375837.40428844 0.97455406 -0.20332848 -5.5497301e-005 6.1604019e-006 0.00069305772 0.0044243387
-3.2996915e-005 2.8864833e-005 -0.99233896 -0.087954171 -5.1011129e-006 3.2425804e-005
0.00069985236 0.0044310032 -9.4287007e-006 2.079397e-005 0.99762201 -0.036668729
398107.1705535 0.97197253 -0.21508451 -4.1928328e-005 4.9199429e-005 0.00075925252 0.0046770852
-4.061899e-005 3.3315217e-005 -0.99287921 -0.082640313 -2.0445263e-005 1.1548363e-005
0.00076006923 0.0046721487 -2.3469271e-005 1.6251975e-005 0.99729884 -0.038907442
421696.50342858 0.96915579 -0.2274095 -5.3657517e-005 3.4691373e-005 0.00085804058 0.0049403044
-4.4546352e-005 4.1751879e-005 -0.99302179 -0.077459477 4.7006288e-006 4.047234e-005
0.00086500729 0.0049434528 1.2419448e-005 5.275492e-005 0.99706346 -0.041193854
446683.59215096 0.966052 -0.24056454 -7.7520708e-005 5.508896e-005 0.00094121339 0.0052029178
-3.7203379e-005 3.9973671e-005 -0.99305385 -0.073805206 -4.1144949e-006 3.9037684e-005
0.00094548496 0.0051658438 -3.9692577e-006 2.3039414e-005 0.99667329 -0.043497737
473151.25896148 0.96240872 -0.25433978 -4.2969372e-005 3.0387961e-005 0.0010343447 0.005480831
-5.3568128e-005 2.7666802e-005 -0.99376434 -0.069537774 -1.7878056e-005 2.2873484e-005
0.0010644014 0.0054724738 -2.7334352e-005 3.3487842e-005 0.99666077 -0.045937818
501187.23362727 0.95807058 -0.26884314 -7.8739846e-005 5.0935188e-005 0.0011563683 0.0057685012
-5.7293302e-005 4.2271167e-005 -0.99418896 -0.065327898 -1.2960705e-005 3.3341756e-005
0.001170924 0.0057822941 -2.6796597e-005 3.1786021e-005 0.99645597 -0.048579074
530884.44423099 0.95359713 -0.28407821 -6.070939e-005 3.0927065e-005 0.0012707575 0.0060779979
-7.5311633e-005 4.3230259e-005 -0.99451858 -0.061325211 -6.0407979e-006 1.878275e-005
0.0012739495 0.0060914513 -4.70748e-006 5.2784824e-005 0.99631006 -0.05125805
562341.32519035 0.94877899 -0.30012155 -7.2473311e-005 6.3655112e-005 0.0014293288 0.0063945353
-7.9408048e-005 5.7946378e-005 -0.99482816 -0.057608783 -2.8554203e-005 4.3512206e-005
0.0014253492 0.0064072586 -2.2742959e-005 3.1274467e-005 0.99600506 -0.054102886
595662.14352901 0.94329357 -0.31681788 -8.8028137e-005 6.0773007e-005 0.0015512863 0.0067433896
-8.98578e-005 5.7735102e-005 -0.99507129 -0.053976059 -1.6759577e-005 4.1289513e-005
0.0015469475 0.0067548905 -2.4646264e-005 4.2807013e-005 0.99586672 -0.057295777
630957.34448019 0.9372493 -0.33458471 -0.00011440693 9.1006637e-005 0.0016987692 0.0071121496
-9.6459211e-005 6.9500253e-005 -0.9952116 -0.050589819 -1.6650569e-005 3.9443556e-005
0.0017197343 0.0071127485 -1.502167e-005 2.799062e-005 0.99551785 -0.060620241
668343.91756861 0.93027121 -0.35293433 -0.00010270807 8.0963167e-005 0.0018930647 0.0074449307
