!Keysight Technologies,E5080A,MY55100144,A.11.70.03
!Date: Monday, November 13, 2017 17:24:58
!Correction: S11(Full 3 Port(1,2,3)) 
!S12(Full 3 Port(1,2,3)) 
!S13(Full 3 Port(1,2,3)) 
!S21(Full 3 Port(1,2,3)) 
!S22(Full 3 Port(1,2,3)) 
!S23(Full 3 Port(1,2,3)) 
!S31(Full 3 Port(1,2,3)) 
!S32(Full 3 Port(1,2,3)) 
!S33(Full 3 Port(1,2,3)) 
!S3P File: Measurements: <S11,S12,S13>,
!<S21,S22,S23>,
!<S31,S32,S33>:Log Frequency Sweep
# Hz S  RI   R 50
10000 0.99681467 -0.005836254 -1.5355027e-006 -3.9762313e-006 -3.7516224e-006 0.00013079848
2.5967715e-006 -5.5791993e-006 0.47088039 -0.87562722 1.2454437e-005 -6.3783041e-006
5.534821e-006 0.00013269451 3.9862184e-006 6.0819502e-006 0.99984705 -0.0023720497
10592.537251773 0.99682498 -0.006437433 -1.2947654e-005 -1.9322997e-005 -8.4914899e-007 0.00012931135
2.2916594e-005 7.1219511e-006 0.42578956 -0.89819014 5.3383764e-007 -2.3651976e-006
1.8114748e-006 0.00011383997 1.5746802e-005 -4.6222735e-007 0.99999624 -0.0022671809
11220.18454302 0.99701399 -0.0066668699 -1.2815583e-005 -3.068721e-005 1.5941669e-005 0.00012814718
-1.2878883e-005 -4.9792138e-006 0.37759823 -0.91916472 2.7405946e-005 2.384566e-005
-2.8817358e-006 0.00014345892 2.1991436e-005 -6.7023047e-006 1.0000507 -0.0023370031
11885.02227437 0.9968971 -0.0069996356 7.7486447e-006 -9.4827064e-006 4.7627209e-006 0.00014496612
1.3758805e-005 9.0363319e-006 0.32795313 -0.93780649 9.4163661e-006 -3.0430374e-005
-9.1949914e-006 0.00015015689 1.75681e-005 6.5075083e-006 0.99997205 -0.0023570631
12589.254117942 0.99712694 -0.0075831329 -2.1703521e-005 2.0784812e-006 -5.4917614e-006 0.00017004795
4.4252101e-006 -6.1026403e-006 0.27637312 -0.95398605 3.4495915e-007 4.7995163e-006
-9.8365845e-006 0.00013852697 2.1512733e-006 1.1114049e-005 0.99996912 -0.0024535216
13335.214321633 0.99716204 -0.0077854632 -3.8545222e-006 4.875038e-006 -7.3740516e-006 0.00014991844
-1.1094613e-005 -3.9318033e-006 0.22303562 -0.9679755 1.4192561e-005 1.5591781e-005
8.2971319e-006 0.00017659306 -2.3617929e-006 -2.2071536e-008 0.9999612 -0.0024989643
14125.375446228 0.99691081 -0.0084443297 -2.0687356e-005 -8.8859133e-006 -8.4752519e-006 0.00014770756
5.0948388e-006 -9.9792931e-007 0.16843857 -0.97827584 -3.1676357e-006 9.578449e-006
2.7302344e-006 0.00016951082 1.0358966e-005 -1.0191245e-005 1.0000196 -0.0025886788
14962.356560944 0.99686694 -0.0087564187 9.2794417e-006 -4.3845939e-006 -3.8740122e-006 0.0002006682
-8.8583947e-006 2.2100943e-005 0.11267765 -0.98665154 -1.0878803e-005 1.7351051e-005
5.93713e-006 0.00018540891 -8.0483196e-006 4.0161017e-006 0.999856 -0.0026362424
15848.931924611 0.99707526 -0.009478692 -4.8797156e-006 1.9528502e-006 -2.3176617e-006 0.00023680086
-1.2060081e-005 1.7970968e-006 0.05601415 -0.99088478 1.4330012e-005 -3.1416712e-006
9.2656779e-007 0.00020243539 -1.6121201e-005 -1.423933e-005 0.9999938 -0.0023700139
16788.040181226 0.99678993 -0.0099369846 1.3161542e-005 7.380107e-006 4.6413738e-006 0.00022111631
1.647203e-005 2.5928316e-006 -0.00069317938 -0.99231815 1.1023049e-005 -4.9435658e-007
7.7594877e-006 0.00021382142 2.3496216e-006 -1.3549289e-006 0.99995524 -0.0028542036
17782.794100389 0.99701262 -0.010399771 2.3938337e-006 -5.4064403e-006 -4.7612443e-006 0.00020610171
3.8867638e-006 1.5220338e-005 -0.057357751 -0.9903748 -2.3898481e-006 -1.6198923e-005
1.6840404e-006 0.00022273707 1.2448865e-005 -1.1480269e-005 0.99994105 -0.0027355265
18836.490894898 0.99692327 -0.011129629 1.2747249e-006 1.3444486e-005 1.8081548e-005 0.00023209103
-2.9323974e-006 1.088794e-005 -0.11396381 -0.98561853 9.9545159e-006 -1.5367779e-005
-1.3804306e-005 0.00024778911 -2.145516e-005 -4.2992001e-006 0.9997732 -0.00290522
19952.623149689 0.99704427 -0.011821086 -1.3829761e-005 -1.1609145e-005 1.1634439e-005 0.00025355988
-1.7719555e-006 1.9284667e-005 -0.16929725 -0.97760057 2.0535737e-005 2.0098212e-005
-5.6271961e-006 0.00023151519 -4.6247292e-006 4.3615887e-006 0.99985248 -0.0029859163
21134.890398366 0.99695426 -0.012478363 -3.0623833e-005 1.2902159e-005 -9.903687e-006 0.00026159117
5.5254632e-006 -1.1193588e-005 -0.22404753 -0.96638614 -5.6690482e-008 1.7452094e-006
-3.8281146e-006 0.00026072876 -1.5012557e-005 -1.4167918e-005 0.99986535 -0.0031227595
22387.211385683 0.99690068 -0.013371037 -2.4713054e-006 1.9375966e-005 1.1334013e-006 0.00026067646
-9.2266164e-006 -1.0074157e-005 -0.27714217 -0.95251471 -9.1394404e-006 -3.6409574e-007
-3.6324209e-006 0.00027711943 -1.4367599e-005 -2.0884823e-005 0.99980921 -0.0032133716
23713.737056617 0.99697477 -0.014011933 -7.994955e-006 4.2569163e-006 1.1729902e-005 0.00030060898
-7.9036035e-006 3.020504e-006 -0.32874319 -0.9357813 1.6998536e-006 5.3959393e-006
1.2505858e-005 0.00029206177 1.4668503e-005 5.5584342e-006 0.99976766 -0.0032317473
25118.864315096 0.99691391 -0.014901686 -9.3173736e-007 -6.1188516e-006 -2.1057583e-006 0.00034039759
7.2625639e-006 1.194708e-005 -0.37829748 -0.91708046 -1.6545916e-006 -1.1600171e-005
-6.5143222e-006 0.00032846071 -2.953017e-006 4.7420776e-006 0.99978828 -0.0034003628
26607.250597988 0.9969272 -0.015626501 -1.1957425e-005 -1.3592766e-006 -4.1925305e-006 0.00032230237
6.4928445e-006 1.6586224e-005 -0.42586389 -0.8960045 9.8660385e-006 -8.5318552e-006
8.1221724e-006 0.00033313577 1.1196631e-006 2.2030537e-005 0.99990207 -0.0034823501
28183.829312645 0.99695563 -0.01674528 5.8164469e-006 1.4193626e-005 -1.5466425e-005 0.00035710176
-6.1289361e-006 -7.3263864e-006 -0.47131908 -0.87319314 9.6857116e-007 4.299347e-006
3.3064016e-006 0.00034825536 -4.0286477e-006 1.2000243e-005 0.99992806 -0.0037395346
29853.82618918 0.99696481 -0.017696777 4.7077065e-006 -1.3441866e-005 1.82899e-005 0.00035903754
-7.575091e-007 -7.6022238e-006 -0.51400739 -0.84853697 -3.3609731e-006 6.0243297e-006
7.2286339e-006 0.0003746661 1.7816195e-005 1.5645057e-005 0.99976557 -0.0036498485
31622.776601684 0.99673498 -0.018720396 -1.1044435e-005 1.3214748e-005 -1.0587548e-005 0.00039718283
-6.0009879e-006 1.1814382e-006 -0.55415404 -0.82291806 -9.7753209e-006 1.0449188e-005
9.2199398e-006 0.00041727896 1.1463607e-006 -7.72987e-006 0.99985039 -0.0039906632
33496.543915783 0.99680263 -0.019777909 3.5979552e-005 -2.5070902e-005 -6.1649075e-006 0.00040078349
3.4004956e-006 1.648939e-006 -0.59220749 -0.7960645 6.1088267e-006 -9.6204531e-006
7.7994009e-006 0.00041136803 4.8812612e-006 2.9732404e-005 0.99971324 -0.0041795261
35481.338923358 0.99666083 -0.021000989 1.0560456e-006 -3.4457975e-007 -2.4609833e-006 0.00045269847
-2.8068689e-006 -5.8086907e-006 -0.62771958 -0.7684567 1.2605018e-006 -4.3724399e-006
1.5101108e-005 0.00046137898 -5.0841104e-006 1.57298e-006 0.99973768 -0.0042738328
37583.740428844 0.99694186 -0.022310767 -1.078167e-005 2.11022e-005 2.7792716e-005 0.0004710439
-4.9240539e-006 3.6061724e-006 -0.66059822 -0.74049073 -1.3910044e-006 6.4257156e-006
7.8432058e-006 0.00044614339 -1.5078791e-005 -5.1891302e-006 0.99955374 -0.0045076394
39810.71705535 0.99667042 -0.023468636 1.6723561e-005 1.9165385e-005 -4.923578e-007 0.00048744329
8.2148936e-006 2.8855359e-006 -0.69118911 -0.71222574 -9.3698181e-006 1.6197382e-005
-3.4572658e-006 0.00048419475 8.637674e-006 -1.0320157e-006 0.99967641 -0.0046590962
42169.650342858 0.99665523 -0.024866555 -1.0376524e-005 -2.0931648e-006 2.4737965e-006 0.00052958238
-9.879569e-006 1.5716958e-005 -0.71951926 -0.68402618 9.0572621e-006 1.7574035e-005
1.0596741e-005 0.00053890597 -1.3510927e-005 6.4071774e-006 0.99942601 -0.0049060606
44668.359215096 0.99679095 -0.026422707 1.1425054e-005 -8.7409731e-008 5.3066019e-006 0.00055504864
-1.0116005e-005 1.995091e-006 -0.74540222 -0.65562391 -5.8213902e-007 -2.8956656e-006
-3.2166713e-006 0.00055119779 1.2107507e-006 8.4233807e-006 0.99943674 -0.0052852831
47315.125896148 0.99677211 -0.027888726 7.9379342e-006 2.9997891e-006 2.6415473e-005 0.00058577152
4.0437835e-006 -6.6152484e-006 -0.76939303 -0.62767929 -5.3489489e-006 1.6530021e-005
1.1165442e-007 0.0005938051 -2.976951e-005 1.9893305e-005 0.99961638 -0.0054574837
50118.723362727 0.99659854 -0.029630475 -1.3321526e-005 -9.3440503e-006 -9.9824547e-007 0.00061931933
-1.4108223e-006 -6.8107779e-006 -0.79119456 -0.59994489 2.0379168e-006 -5.2316432e-006
2.6889618e-005 0.00061839772 -2.0401542e-006 1.1597964e-005 0.99949986 -0.0057134158
53088.444423099 0.99663103 -0.031331148 -2.396245e-005 -2.8347238e-006 2.7381688e-005 0.00066646957
3.3985343e-006 -1.161943e-005 -0.81128645 -0.57296664 5.6613917e-006 3.04027e-006
1.0823821e-005 0.00067123311 3.7311884e-006 3.2093132e-005 0.99954516 -0.0059271161
56234.132519035 0.99639022 -0.033235736 -6.2418019e-007 3.3765111e-005 2.929746e-005 0.0006899024
-2.3012972e-006 7.8403782e-006 -0.82946408 -0.54658711 -4.9343007e-006 4.4876479e-006
9.5349978e-006 0.00069490133 -2.1853048e-005 1.7321194e-005 0.99939412 -0.0063717519
59566.214352901 0.99638486 -0.035252567 2.4140752e-005 -2.975489e-006 3.9829429e-006 0.00071715331
5.9975018e-006 1.7361932e-005 -0.84602624 -0.52079707 -8.6873638e-007 8.0673663e-006
1.6929596e-005 0.00073476188 -8.1838552e-006 -4.8826355e-006 0.99926275 -0.0065635694
63095.734448019 0.99630183 -0.037274789 -2.4056662e-005 -1.0192942e-005 1.6330609e-005 0.00078089681
3.8186154e-006 7.2547259e-006 -0.8609643 -0.49575388 -8.18848e-006 7.2008947e-007
3.038716e-005 0.00076514424 -2.2863278e-006 -1.0592226e-005 0.99924952 -0.0070221014
66834.391756861 0.99611664 -0.039500676 -1.5380225e-005 4.8982338e-006 3.1981046e-005 0.00081286102
-1.0211998e-006 3.8594885e-006 -0.87460101 -0.47156933 4.272496e-006 2.9435655e-006
4.3520435e-005 0.00081850548 1.0817176e-005 1.6940108e-005 0.99942005 -0.0072789816
70794.578438414 0.99595267 -0.041769341 2.4469282e-006 -1.6151464e-005 3.0834006e-005 0.0008632727
-7.069506e-006 1.8288796e-005 -0.88690156 -0.44838482 4.7546666e-007 1.0015201e-005
2.9437235e-005 0.00087579712 -2.3840417e-005 1.9150795e-005 0.99911141 -0.0076982616
74989.420933246 0.99588865 -0.044246916 1.4510555e-005 1.6063559e-005 4.820793e-005 0.00093399169
-1.4637125e-005 7.7807026e-006 -0.89812571 -0.42579681 -3.2725657e-006 1.3495539e-005
3.1220065e-005 0.00089878257 -2.0199581e-005 2.0060318e-006 0.99914509 -0.0079623396
79432.823472428 0.99588186 -0.04689867 -2.2870336e-006 2.2576453e-006 5.8952883e-005 0.00099005748
-5.2288642e-006 1.7605667e-005 -0.90821308 -0.40415967 6.1599831e-006 -9.6999001e-006
5.5537825e-005 0.00099606276 -1.3770122e-006 2.1120446e-005 0.99912626 -0.0084787672
84139.514164519 0.99565625 -0.04949829 4.816503e-006 1.2037388e-005 6.290841e-005 0.0010233112
-2.5189697e-006 7.3918804e-006 -0.91715604 -0.38347721 1.7168237e-005 4.1326862e-006
4.6543337e-005 0.0010226296 -7.2861735e-006 1.7511335e-005 0.99907106 -0.0088269906
89125.093813375 0.99562711 -0.052318938 -6.4948529e-007 3.7194652e-005 4.9730192e-005 0.0010891708
6.3061716e-006 1.6687405e-005 -0.92546189 -0.36360019 6.9465932e-006 9.44556e-006
4.5262579e-005 0.0011198884 -2.0193102e-006 -1.7083205e-005 0.99918824 -0.0094210207
94406.087628592 0.99540204 -0.055547167 -4.9965478e-005 1.0686236e-005 3.845301e-005 0.0011702131
-3.6903386e-006 -7.9199526e-006 -0.93278491 -0.34464833 -9.6413978e-006 -8.7905016e-007
6.4409229e-005 0.0011702299 -2.9087152e-005 1.1370192e-005 0.99916434 -0.0097534563
100000 0.9952051 -0.058712807 9.1016082e-006 -1.3448845e-005 4.9225095e-005 0.0012383261
4.7878088e-006 8.1069593e-006 -0.93933547 -0.326489 9.450624e-006 -3.3551072e-007
6.3836211e-005 0.0012195491 3.0659571e-006 -1.1434638e-005 0.999053 -0.010305225
105925.37251773 0.99509495 -0.06234939 -9.3492332e-007 8.3480927e-006 7.8977253e-005 0.0013006333
-2.1378664e-006 1.2571455e-005 -0.94535631 -0.30922988 -1.1157497e-005 -3.7714578e-006
5.5929795e-005 0.0013113907 -5.6192407e-006 2.2284226e-005 0.99906582 -0.010870294
112201.8454302 0.99475664 -0.066012807 1.8533221e-006 -1.385886e-005 6.8872338e-005 0.0013703757
-1.117464e-005 7.5313224e-006 -0.95065308 -0.29278257 2.824158e-009 1.638723e-005
9.2055197e-005 0.001382368 -3.0467988e-006 2.4558791e-005 0.99902862 -0.011601352
118850.2227437 0.9945994 -0.069820873 1.4261267e-005 -1.4278007e-005 6.5264176e-005 0.0014688723
-7.0615401e-006 1.5288837e-005 -0.95545876 -0.27706322 -8.05335e-006 3.0203375e-006
9.981828e-005 0.0014683191 -1.8397385e-006 5.1981724e-006 0.99926895 -0.012222604
125892.54117942 0.99435866 -0.073877305 -1.5094999e-005 -1.684444e-005 0.00010790733 0.0015468723
-4.2969368e-006 4.2707197e-006 -0.95974094 -0.26215053 -1.3761634e-005 1.0638004e-005
8.6230168e-005 0.001556474 4.5473657e-006 -2.0981708e-005 0.99915075 -0.012848786
133352.14321633 0.99405253 -0.078175321 -4.1622234e-006 8.0287073e-006 0.00010622194 0.0016582501
-4.2029956e-006 9.7630082e-006 -0.96363634 -0.2478981 -6.4135024e-006 8.5732545e-006
0.0001372472 0.0016315219 1.2424384e-005 8.1564385e-006 0.99898368 -0.013381488
141253.75446228 0.99361175 -0.083067276 -2.1975304e-005 1.4994023e-005 0.00013691328 0.0017451491
-1.5467123e-005 1.3147202e-005 -0.96702456 -0.23450907 1.7741903e-006 -1.1712879e-006
0.00011982016 0.0017470997 -2.413004e-005 2.745096e-005 0.99914116 -0.014328061
149623.56560944 0.99314523 -0.087769739 -2.7575874e-005 1.4620082e-005 0.00014778425 0.0018238781
-1.3721311e-005 2.2296781e-005 -0.97014749 -0.22166827 -3.048706e-006 1.1338449e-005
0.00013893905 0.0018301269 -2.5375199e-005 -1.1019337e-005 0.9988758 -0.015192645
158489.31924611 0.99260706 -0.092977159 -2.3999708e-006 3.6745729e-005 0.00015224422 0.0019388485
-2.9704772e-006 9.7247066e-006 -0.97289693 -0.20948695 1.7157439e-006 1.2327599e-005
0.00013861501 0.0019409916 1.3632647e-005 1.4375781e-006 0.9989959 -0.016055424
167880.40181226 0.9920333 -0.098430447 1.042787e-005 7.1663176e-006 0.00017673273 0.0020302462
-1.7681166e-005 1.7663508e-005 -0.97542703 -0.19787492 -1.1425894e-005 1.7329245e-005
0.00017432219 0.0020484719 -1.1009911e-005 2.9428797e-005 0.99886757 -0.016989954
177827.94100389 0.99155724 -0.10414183 -2.2519889e-005 1.7224129e-005 0.00018919665 0.0021645227
-2.6173126e-005 1.7176973e-005 -0.97703171 -0.18587205 6.0488551e-006 1.4370742e-005
0.00017244549 0.0021688952 5.8669502e-006 2.0853547e-006 0.99879605 -0.017904168
188364.90894898 0.99062079 -0.11026943 -1.1979948e-005 -5.5167802e-006 0.00021641205 0.002306635
3.9899523e-006 2.1489708e-005 -0.97950435 -0.17705864 2.1019553e-006 1.7242754e-005
0.00019545383 0.0023005255 -8.4520852e-006 -4.3353607e-006 0.998631 -0.018948428
199526.23149689 0.98992598 -0.11685454 9.239704e-006 3.8732458e-005 0.0002547538 0.0024147956
-9.4675779e-006 2.6941463e-005 -0.98128915 -0.16709857 -1.2321286e-005 2.2703336e-005
0.00023411032 0.0024196426 -2.6209766e-005 1.9138648e-005 0.9985925 -0.020029183
211348.90398366 0.98911864 -0.1238311 -5.7872626e-006 5.0074254e-005 0.00028390434 0.0025782476
1.7470906e-007 2.4836629e-005 -0.98296815 -0.15784068 7.6266801e-006 2.5011184e-005
0.00027510122 0.0025663592 7.1600321e-006 2.5126026e-005 0.99846917 -0.021126892
223872.11385683 0.98810482 -0.13093001 -1.9605895e-005 2.889481e-005 0.0002978009 0.0027237758
-2.3959201e-006 2.3871578e-005 -0.98437935 -0.14899138 2.6158341e-006 1.2924221e-005
0.00028245943 0.0027379398 6.3867179e-007 2.9935351e-005 0.99843597 -0.022311922
237137.37056617 0.98709577 -0.13867405 -2.5463774e-005 2.3786679e-005 0.00032202865 0.0028878334
-1.560278e-005 3.2387605e-005 -0.98564839 -0.14062464 -1.2351321e-005 1.2433985e-005
0.00032133382 0.0028700696 -1.4640472e-005 2.0791278e-005 0.99838525 -0.023635034
251188.64315096 0.98610896 -0.14679123 -2.9065739e-005 2.6891486e-005 0.00034873857 0.0030238174
-3.2104199e-005 3.5052726e-005 -0.98678368 -0.13269109 1.1477288e-005 1.4863054e-005
0.00035745162 0.0030444632 -1.3045213e-006 6.5329314e-006 0.99847084 -0.025124311
266072.50597988 0.98452365 -0.15531068 -1.9338848e-005 1.8225193e-005 0.00041697285 0.003199636
-1.6954396e-005 2.1750164e-005 -0.9877705 -0.12519968 -2.2978629e-005 2.1588023e-005
0.00038430991 0.0032078412 -3.7142712e-005 8.9897931e-006 0.99836546 -0.026352625
281838.29312645 0.98306143 -0.16462767 -2.6645817e-005 1.540735e-005 0.0004552021 0.0033761922
-2.9598727e-005 3.799106e-005 -0.98869449 -0.11815117 -2.2513386e-005 2.1094793e-005
0.00045499258 0.003386602 3.1896521e-005 1.4730144e-005 0.99820685 -0.027809763
298538.2618918 0.98139119 -0.17412648 -5.6176686e-006 3.5631016e-005 0.00046376005 0.0035509286
-1.5664209e-005 4.2428401e-005 -0.98953998 -0.11133222 -1.0848196e-005 1.2206231e-005
0.00047999059 0.0035779707 7.2178013e-006 1.1539623e-005 0.99798834 -0.029496003
316227.76601684 0.97937638 -0.18415903 -2.7997939e-005 1.7805416e-005 0.00054034364 0.0037765042
-2.7687458e-005 4.5690198e-005 -0.99020535 -0.10503166 -5.6677168e-006 1.8433473e-005
0.00055401161 0.0037654594 -1.2937622e-005 9.0207959e-006 0.99791086 -0.031116212
334965.43915783 0.97723174 -0.19510524 -2.846835e-005 3.6490143e-005 0.0006077126 0.0039612297
-3.0564606e-005 4.1393156e-005 -0.99098492 -0.099213168 4.4544475e-007 2.9931898e-005
0.00060590694 0.0039620353 -7.8903095e-006 2.0396266e-005 0.99758285 -0.033008154
354813.38923358 0.97501415 -0.20618302 -4.6046225e-005 5.4201977e-005 0.00067773694 0.0041947523
-3.4843022e-005 3.7072336e-005 -0.99153578 -0.093360327 -1.8084171e-005 3.963057e-005
0.00067843666 0.0042060982 8.1554472e-006 3.2491164e-006 0.9975704 -0.034888607
375837.40428844 0.97234905 -0.21804038 -3.8112856e-005 5.6317134e-005 0.00073939021 0.0044422103
-3.6242473e-005 4.6684494e-005 -0.99197549 -0.087908424 -4.3118321e-006 1.8104956e-005
0.00074131828 0.0044168415 -3.3693028e-005 2.3991292e-005 0.99762809 -0.036902811
398107.1705535 0.96942294 -0.23071766 -3.3949102e-005 4.322414e-005 0.0008238334 0.0046670097
-4.1363623e-005 4.6880006e-005 -0.99253166 -0.082616344 -1.4581083e-005 3.6314672e-005
0.00081153127 0.0046659233 -1.9374287e-005 2.1715781e-005 0.99736845 -0.038933031
421696.50342858 0.96622086 -0.24387997 -3.6819096e-005 3.570534e-005 0.00086506252 0.0049179913
-4.6619625e-005 5.5166489e-005 -0.99268341 -0.077445053 -2.5112715e-005 3.7064015e-005
0.00090376666 0.0049186731 -3.1042671e-006 4.4115368e-005 0.99699724 -0.041207872
446683.59215096 0.96259046 -0.25786531 -5.177753e-005 5.2851483e-005 0.00099049415 0.0051940274
-4.8540085e-005 5.6822195e-005 -0.99274862 -0.073803261 4.6647287e-006 2.242749e-005
0.0010002304 0.0051926542 3.8815367e-007 4.8050642e-005 0.99684757 -0.043600682
473151.25896148 0.95836914 -0.27247143 -7.4161093e-005 7.4569296e-005 0.0010897589 0.0054618763
-6.2334533e-005 6.8097077e-005 -0.99347055 -0.069548503 -9.5938722e-006 1.7583498e-005
0.0010896359 0.0054949755 -2.2966608e-005 3.7847763e-005 0.99666703 -0.045842506
501187.23362727 0.95374507 -0.28800416 -7.0536669e-005 5.507734e-005 0.0012064877 0.0057709999
-5.9411504e-005 7.0796901e-005 -0.99386048 -0.065332137 -8.0902846e-006 3.7746689e-005
0.0012076154 0.0057530459 -1.1639239e-005 3.4921177e-005 0.99649048 -0.048390664
530884.44423099 0.94849062 -0.30413043 -6.5729902e-005 6.9650559e-005 0.001320403 0.0060606231
-8.3699822e-005 6.9408467e-005 -0.99413252 -0.061324976 -1.4647691e-005 4.1273321e-005
0.0013582484 0.0060697538 1.7002114e-006 3.443925e-005 0.99644405 -0.05127975
562341.32519035 0.94274795 -0.3213664 -7.112413e-005 7.8979749e-005 0.0014818644 0.0064095063
-7.4168762e-005 8.5127329e-005 -0.99448693 -0.05756855 -1.0206845e-005 4.1648884e-005
0.0014636088 0.0063966 -1.9936597e-005 2.8388236e-005 0.99599552 -0.054177314
595662.14352901 0.93664908 -0.3390263 -9.4246141e-005 9.6796321e-005 0.0016441586 0.0067508011
-9.2010625e-005 9.6021038e-005 -0.99466711 -0.054004051 -2.6865297e-005 3.8599464e-005
0.0016417127 0.0067316149 -5.5512819e-006 7.0300492e-005 0.99587786 -0.057287481
630957.34448019 0.92955691 -0.35775164 -9.3321709e-005 9.3450122e-005 0.0018111384 0.0070883101
-8.9066329e-005 9.2838949e-005 -0.99483967 -0.050634049 -2.3870063e-005 5.0863582e-005
0.0018088267 0.0070953364 -1.7746497e-005 4.9930633e-005 0.9954946 -0.060629323
668343.91756861 0.92159563 -0.37744281 -0.0001134639 9.5360454e-005 0.0020024076 0.007439476
