!Keysight Technologies,E5080A,MY55100144,A.11.70.03
!Date: Monday, November 13, 2017 17:21:17
!Correction: S11(Full 3 Port(1,2,3)) 
!S12(Full 3 Port(1,2,3)) 
!S13(Full 3 Port(1,2,3)) 
!S21(Full 3 Port(1,2,3)) 
!S22(Full 3 Port(1,2,3)) 
!S23(Full 3 Port(1,2,3)) 
!S31(Full 3 Port(1,2,3)) 
!S32(Full 3 Port(1,2,3)) 
!S33(Full 3 Port(1,2,3)) 
!S3P File: Measurements: <S11,S12,S13>,
!<S21,S22,S23>,
!<S31,S32,S33>:Log Frequency Sweep
# Hz S  RI   R 50
10000 0.99571955 -0.00073168351 2.2890457e-005 0.00010219865 -5.2145064e-005 0.00019236834
1.8016181e-005 0.00011562322 0.99876487 -0.0032365143 9.61141e-006 0.00071212166
2.5667339e-005 0.00018551506 -1.1483021e-005 0.00069401518 0.99981093 -0.0024755169
10592.537251773 0.99562931 -0.00082749792 2.9116522e-005 9.9809535e-005 1.6361419e-005 0.00013787756
2.0410054e-005 0.0001008602 0.99861348 -0.003438253 3.3425845e-006 0.00075240363
-9.5909973e-006 0.00020149539 1.4784689e-005 0.00074927224 0.99982023 -0.0022951672
11220.18454302 0.9959119 -0.0010398609 -2.1934504e-006 0.00011854505 4.6022806e-006 0.00017618504
1.0435063e-005 0.00010353734 0.99883908 -0.003685144 6.0537886e-006 0.00080531323
2.3048977e-005 0.00017568102 2.1196722e-006 0.00078706123 0.99998832 -0.0022599094
11885.02227437 0.99584067 -0.0010206943 2.3023586e-005 0.00015483743 -2.6439666e-005 0.00021227579
3.6162785e-006 0.00011269312 0.99890965 -0.0036747158 9.5395781e-006 0.00083797309
2.1947588e-005 0.00022316464 -2.118634e-006 0.00084240333 0.99997669 -0.0022917641
12589.254117942 0.99592501 -0.0010689417 3.9122286e-005 0.00012825811 -5.1009054e-005 0.00023042588
-8.328213e-006 0.0001120556 0.99898845 -0.0037837208 1.5593816e-005 0.00087538321
-5.0905428e-006 0.00023632911 2.3930828e-005 0.00086552079 1.0001247 -0.0024734125
13335.214321633 0.99584663 -0.0011880746 2.3832668e-005 0.0001246872 -6.2585423e-006 0.00024273507
3.8878497e-006 0.00013563978 0.99883139 -0.0040173563 2.072946e-005 0.00093955518
-2.8436707e-005 0.00023769542 1.4203549e-005 0.00094404665 0.99998826 -0.0023805813
14125.375446228 0.99577802 -0.001487505 8.2890117e-005 0.00015012732 -6.6679372e-006 0.00023045135
1.1467859e-005 0.00012660662 0.99890989 -0.0042092507 1.7813855e-006 0.00097503996
-5.2506007e-006 0.00023337392 -1.3836293e-006 0.00099650607 0.99990243 -0.0025196006
14962.356560944 0.99573761 -0.0013908835 -5.2776195e-006 0.00012539183 6.7408175e-005 0.00035759551
3.998282e-006 0.00014089934 0.9991883 -0.0042926515 2.5277068e-005 0.0010391928
4.6328673e-006 0.000272328 -5.5746464e-006 0.0010424912 0.99993455 -0.0026500558
15848.931924611 0.99575698 -0.0017518221 4.4339133e-005 0.00022310819 9.8806149e-006 0.00026729959
7.6081619e-006 0.00014934356 0.99889797 -0.0044739475 2.7218986e-005 0.0010939694
2.5113618e-006 0.00029031246 3.2238888e-005 0.0010878412 1.0000281 -0.0025725639
16788.040181226 0.99561435 -0.0019034677 4.3438085e-005 0.00011805059 2.6184107e-005 0.00026905985
1.2180457e-005 0.0001431839 0.99892431 -0.0047903527 2.0668769e-005 0.0011613717
9.8037617e-006 0.00029878577 2.0527608e-005 0.0011830606 0.99987018 -0.002714671
17782.794100389 0.99560988 -0.0018967468 2.9592259e-006 0.00017997553 6.6618442e-005 0.00034982114
9.4815023e-006 0.00017179603 0.99924552 -0.0049601626 9.8500395e-006 0.0012435311
3.3579532e-008 0.00030079475 1.5175604e-007 0.0012258209 0.99986923 -0.0027711082
18836.490894898 0.99586308 -0.0020799898 8.1146327e-006 0.00015622603 -1.5621763e-005 0.00038985311
2.4388801e-005 0.00014456453 0.99920976 -0.0051212111 9.5511996e-006 0.0013195571
-2.5629561e-006 0.00034857893 1.8990773e-005 0.0013010809 0.99998194 -0.0028334549
19952.623149689 0.99580562 -0.0022395246 3.6973091e-005 0.00017640021 -2.0173287e-005 0.0003434114
2.7585518e-005 0.0001815209 0.99924767 -0.0054082838 1.786718e-005 0.0013892622
1.6925123e-005 0.00037714446 1.6068219e-005 0.0013860173 1.0000042 -0.002873383
21134.890398366 0.99564791 -0.0023942562 -1.435014e-005 0.00021082934 1.0542013e-005 0.000340258
-3.4716302e-006 0.00019329705 0.99909705 -0.0057596141 1.332014e-005 0.0014644758
1.2343598e-005 0.00037821324 8.8718734e-006 0.0014691749 0.99975884 -0.0030666417
22387.211385683 0.99562752 -0.0024932551 2.6168534e-006 0.00019752274 1.1005649e-005 0.0004345293
1.1955449e-005 0.00019900528 0.99907345 -0.005829202 1.1169734e-005 0.0015558796
-1.7745457e-006 0.00040560472 2.8705104e-005 0.0015467153 0.99994671 -0.0031962877
23713.737056617 0.99558854 -0.0027454558 1.3530723e-005 0.0001897078 -4.111919e-005 0.00045630027
-3.4777574e-007 0.00022148859 0.99904358 -0.006314992 2.000104e-005 0.0016390771
7.0660381e-006 0.00042102061 3.099507e-005 0.0016546088 0.99982959 -0.003242057
25118.864315096 0.99575627 -0.0028113476 3.2123968e-005 0.00023677095 6.4685091e-006 0.00046672151
8.712469e-006 0.00023032275 0.99898005 -0.0065172818 9.4443803e-006 0.0017157117
-3.2940261e-006 0.00044574164 3.0412346e-005 0.0017420806 0.99986005 -0.003329233
26607.250597988 0.99574757 -0.0029855506 7.649387e-006 0.00023938922 -9.3774679e-006 0.00045686183
2.5547233e-005 0.0002466994 0.99927104 -0.0069715944 1.6741427e-005 0.0018462472
-1.8736609e-005 0.00049681269 3.986678e-005 0.0018353268 0.99980605 -0.0035617098
28183.829312645 0.99574071 -0.0033445137 -6.5612849e-006 0.00031121681 2.672181e-007 0.00050077966
8.7284488e-006 0.00026140962 0.99922299 -0.0073116766 3.5496138e-005 0.0019679682
-6.951801e-006 0.00051521114 2.5793848e-005 0.0019665183 0.99978578 -0.0035431925
29853.82618918 0.99593413 -0.0034671023 4.607618e-005 0.00025083628 -3.5251926e-006 0.0005875635
1.1699434e-005 0.0002792775 0.99909705 -0.0076754503 4.5495472e-005 0.0020766328
-7.397156e-006 0.00055594096 2.1046502e-005 0.0021057802 0.99974734 -0.0036103425
31622.776601684 0.99579215 -0.003771059 -9.9856493e-007 0.00030805895 -5.4242896e-006 0.00057210558
3.2567839e-006 0.00029293177 0.99897379 -0.0081179589 3.8286802e-005 0.0022023607
2.1268783e-005 0.00057953771 3.7701782e-005 0.0021867582 0.99996001 -0.0041382634
33496.543915783 0.99589044 -0.0039309817 5.5408154e-006 0.00030342996 -1.9392199e-005 0.00058935274
-5.7290945e-006 0.00030827412 0.99907106 -0.0087000085 5.7932804e-005 0.002317653
3.8011681e-006 0.00060793047 3.9401082e-005 0.0022998701 0.99972081 -0.004195679
35481.338923358 0.99570787 -0.0040858923 -4.3882014e-006 0.00037128676 4.806896e-006 0.00061682315
-1.8056858e-006 0.00034123668 0.99923587 -0.0091556069 2.7539289e-005 0.0024674616
1.4109621e-005 0.00064294954 1.4476876e-005 0.0024419273 0.99967289 -0.0042688511
37583.740428844 0.99577582 -0.0044845263 -1.7887061e-005 0.00037502401 3.8008484e-006 0.00067943282
7.9497549e-006 0.00036041194 0.99906391 -0.0096597001 4.9977698e-005 0.0025997716
2.2663862e-005 0.00069770531 3.3088738e-005 0.0026016505 0.99955815 -0.0045218249
39810.71705535 0.99582332 -0.004727528 -3.761478e-006 0.00037819741 -8.0963147e-008 0.00072514347
2.2548204e-005 0.00035910786 0.99912977 -0.010283819 7.2795898e-005 0.0027624071
2.6047621e-006 0.00073150074 4.4141325e-005 0.0027595025 0.99954331 -0.0047603156
42169.650342858 0.99574316 -0.0051001455 -1.7933293e-005 0.00038544694 -8.871395e-006 0.00077392417
-3.0674603e-006 0.00041401488 0.99912947 -0.010826221 4.1566367e-005 0.0029237424
-1.0131724e-006 0.00076013629 4.9155635e-005 0.0029235152 0.99956727 -0.004964855
44668.359215096 0.99589133 -0.0053712809 2.0926307e-006 0.00044601329 1.9333267e-005 0.00082933175
3.0832169e-005 0.00040330374 0.99909246 -0.011473645 4.687902e-005 0.0031050669
3.2002963e-006 0.00082544691 5.3177075e-005 0.0031095513 0.99944836 -0.0051907133
47315.125896148 0.99598914 -0.0056689163 1.2077907e-005 0.00043161606 2.5782141e-005 0.0008650797
7.8747953e-006 0.00042760212 0.99904782 -0.012077028 5.2165975e-005 0.0032700424
3.8168387e-006 0.00087219931 4.5552111e-005 0.0032642775 0.99937415 -0.0053391089
50118.723362727 0.99578047 -0.0059806709 1.8397248e-005 0.00047787052 -1.8338438e-005 0.00093210535
1.2560811e-005 0.0004747466 0.9989357 -0.012876182 5.6578323e-005 0.0034840349
1.5179327e-005 0.00090222585 0.00010340867 0.0034742688 0.99944013 -0.0056488402
53088.444423099 0.99588132 -0.0062866686 1.2666475e-006 0.00049358595 -2.3534336e-005 0.00094201096
2.061341e-005 0.00051504775 0.9990992 -0.013767373 8.2002458e-005 0.0036932549
9.4754869e-006 0.00097491924 5.9521139e-005 0.0036551817 0.99951601 -0.0061091413
56234.132519035 0.99575084 -0.0068587344 4.5063203e-005 0.00055218476 3.7903079e-005 0.0010299246
-9.9492553e-008 0.0005106224 0.99892336 -0.014531868 8.0875216e-005 0.0038994532
1.4755423e-005 0.00099914952 9.8606841e-005 0.0038933603 0.99946558 -0.0062947851
59566.214352901 0.99594951 -0.007080372 3.6198646e-005 0.00053568941 -5.5277906e-006 0.0010934189
5.8110331e-006 0.00054382643 0.99901736 -0.015434216 0.00011390084 0.0041112993
7.1167024e-006 0.0010960001 8.1302875e-005 0.0041303872 0.99923146 -0.006545526
63095.734448019 0.99583387 -0.0075818952 5.76706e-006 0.00061567349 1.5403408e-005 0.0011448523
1.7576136e-005 0.00060276949 0.99891829 -0.016307678 0.00010882378 0.0043836869
7.7345539e-006 0.0011397402 0.00011711418 0.0043575256 0.99945605 -0.0069648474
66834.391756861 0.99584466 -0.0080139004 2.2330609e-005 0.0006465537 2.4096322e-005 0.0012015236
1.9735297e-005 0.00064889807 0.99877226 -0.017260464 0.0001332223 0.0046156324
2.4298439e-005 0.0011963934 0.00011227039 0.0046342602 0.99937451 -0.007235257
70794.578438414 0.99564284 -0.0085235117 -3.2973956e-005 0.00063202 1.6169102e-005 0.0012820803
-1.3579672e-006 0.00066195714 0.99872309 -0.018163908 0.00010910357 0.0048719202
5.5780501e-006 0.0012764377 0.00013964689 0.0048984769 0.99914134 -0.0076976218
74989.420933246 0.99587256 -0.0090018827 -9.9679028e-006 0.0007087366 3.8081776e-005 0.0013729809
-2.3411858e-006 0.00071046705 0.99873 -0.019084917 0.00013755899 0.0051564141
1.5412768e-005 0.0013574308 0.00014140554 0.0051798252 0.99912792 -0.0080182636
79432.823472428 0.99592483 -0.0093991905 -3.6752957e-005 0.00076160912 -1.3501866e-006 0.0014565098
2.4287988e-006 0.00076661579 0.9986822 -0.020132424 0.00014737427 0.0054813554
1.5884843e-005 0.001442009 0.00015689015 0.0054681096 0.99916261 -0.00847831
84139.514164519 0.99579436 -0.0099480059 -2.845123e-005 0.00080749509 -6.7227752e-006 0.0015218576
1.3078721e-005 0.00080461852 0.99863571 -0.021426838 0.00017888909 0.0058106808
4.9603259e-005 0.0014961815 0.00015046026 0.005806223 0.99900579 -0.0087775877
89125.093813375 0.99584842 -0.010385725 2.4487063e-005 0.00085723982 2.7342336e-005 0.0016455937
1.6603353e-005 0.00083769375 0.9986589 -0.022620743 0.00019501416 0.0061519397
3.7695994e-005 0.0015975871 0.0002041371 0.0061460813 0.99907643 -0.0092777526
94406.087628592 0.99586236 -0.01120983 1.1698824e-005 0.00088130689 3.8797119e-005 0.0017209688
-4.5955899e-006 0.00089097756 0.99849504 -0.023899252 0.0002116344 0.0065228753
5.878507e-005 0.0016898098 0.0002302366 0.006511067 0.9991172 -0.0096164951
100000 0.995906 -0.01178294 8.8658617e-006 0.00092257978 5.9170859e-005 0.0017938006
3.5183673e-006 0.0009667548 0.99853969 -0.025457069 0.00024805966 0.0068801763
4.6832207e-005 0.0017854933 0.00022515591 0.0068811029 0.99894768 -0.010438296
105925.37251773 0.99595201 -0.012572531 -7.4615837e-006 0.0010416922 6.4646621e-005 0.0019192874
7.5025878e-006 0.0010027657 0.99859571 -0.026875611 0.00026501043 0.0072993622
5.5922512e-005 0.001904674 0.00027316055 0.007312106 0.99879825 -0.010736651
112201.8454302 0.9958781 -0.013328889 1.5788925e-006 0.0010649398 5.356536e-005 0.0020310103
-1.5808808e-005 0.0010505688 0.99843472 -0.028462024 0.00030269902 0.0077216849
6.9805574e-005 0.0020264734 0.00029217955 0.0077137668 0.99902922 -0.011456557
118850.2227437 0.99600005 -0.014165861 1.8453666e-005 0.0011295074 6.0755632e-005 0.0021367935
1.0025923e-005 0.0011521853 0.99837816 -0.030114098 0.00031792728 0.0081713349
7.5579119e-005 0.0021495677 0.00033696045 0.0081712669 0.9990741 -0.011964809
125892.54117942 0.99619383 -0.01477978 5.9248896e-007 0.0012013742 7.9505233e-005 0.0022810639
5.258692e-006 0.001201308 0.99847698 -0.031652056 0.00036835886 0.0086598899
7.7640681e-005 0.0022855352 0.00036588311 0.0086599411 0.99905068 -0.012813442
133352.14321633 0.99601454 -0.015799386 8.290961e-006 0.0012923928 9.1071088e-005 0.0024013934
7.6789875e-006 0.0012754733 0.99833566 -0.033655915 0.00039239478 0.0091288751
9.2371301e-005 0.0024012111 0.00041506486 0.0091434466 0.99887311 -0.013428855
141253.75446228 0.99598962 -0.016875738 -9.2143915e-007 0.0013694934 8.4363972e-005 0.0025481191
-1.2804568e-005 0.0013510003 0.99817628 -0.035817552 0.00043269497 0.0096924305
0.00010294486 0.0025489652 0.00044812314 0.0096869366 0.99894655 -0.014293239
149623.56560944 0.99607044 -0.017813616 -3.7689433e-006 0.0014417422 7.5169686e-005 0.0026846835
3.5265944e-006 0.0014555929 0.99829566 -0.037882213 0.00049927464 0.010245532
0.00010519101 0.002673731 0.00051654107 0.010253225 0.99888098 -0.015299211
158489.31924611 0.99588329 -0.018906806 2.0151092e-006 0.0015256931 0.00011700889 0.0028780713
8.5522624e-006 0.001535033 0.99805397 -0.039852984 0.00055532734 0.010862319
0.00012475914 0.0028329913 0.00054551038 0.010846854 0.99893266 -0.015893087
167880.40181226 0.99582046 -0.0199969 -5.0584063e-006 0.0016245847 0.0001076175 0.0030157471
1.0039041e-005 0.0016316188 0.99778944 -0.042398144 0.00065198861 0.011496796
0.00013142079 0.0029960226 0.0006381885 0.011480153 0.99883634 -0.017027926
177827.94100389 0.99581355 -0.021170488 -2.5737436e-006 0.0017089096 0.00014215551 0.0031818952
2.7143937e-005 0.0017294645 0.99777102 -0.045067091 0.00071010075 0.012134944
0.00014009856 0.0031901563 0.00069462776 0.01214912 0.9987306 -0.0178698
188364.90894898 0.99573243 -0.022306424 -8.8933311e-006 0.0018029074 0.00012984556 0.0033652515
1.0821178e-005 0.0018402607 0.99750459 -0.047642574 0.00076695817 0.012854744
0.0001548896 0.0033583569 0.00076666556 0.012868543 0.99861884 -0.018992502
199526.23149689 0.99556279 -0.02372174 2.5691354e-005 0.0019575888 0.00016961011 0.0035705457
-4.1731828e-006 0.0019534666 0.99744964 -0.05037424 0.00087164034 0.013576318
0.00015918362 0.0035526822 0.00088989513 0.013602232 0.99853164 -0.019990565
211348.90398366 0.99581331 -0.02512336 1.4572466e-005 0.0020417275 0.00019009162 0.0037811177
1.3479418e-005 0.0020545092 0.99709219 -0.053325623 0.00093788153 0.014396458
0.00020047661 0.0037667127 0.00094278599 0.014369518 0.99829394 -0.021012457
223872.11385683 0.99567473 -0.026588129 -1.7062277e-006 0.0021786396 0.00020729561 0.0040083928
-2.3208097e-005 0.0021872688 0.99692357 -0.056549616 0.0010603637 0.015179791
0.00021420448 0.0039818548 0.0010279939 0.01520464 0.99834567 -0.022441274
237137.37056617 0.99574625 -0.028123194 8.5075071e-006 0.002323949 0.00023426177 0.0042102411
-3.6967285e-006 0.0023181972 0.99658245 -0.059961841 0.0011631203 0.016070008
0.00023578411 0.0042110314 0.0011615036 0.016063426 0.99826771 -0.023521818
251188.64315096 0.9958238 -0.029662546 -1.8688392e-005 0.0024664169 0.00027223429 0.0044729686
-1.0839652e-005 0.0024607603 0.99654388 -0.063487016 0.0012954411 0.017019285
0.00025316543 0.0044588502 0.0012933711 0.017011071 0.99822748 -0.025103081
266072.50597988 0.99549484 -0.031552687 -1.7302451e-005 0.0025930323 0.00028315009 0.0047153821
4.3446416e-006 0.0025890875 0.99629909 -0.066981807 0.0014286636 0.017957494
0.0002878317 0.0047009913 0.0014044037 0.017963666 0.99808794 -0.026432469
281838.29312645 0.99544269 -0.033634983 1.9206924e-005 0.00275776 0.00032386652 0.0049860138
-9.7156626e-006 0.0027588469 0.99581397 -0.070976049 0.0015662786 0.018989807
0.00028887205 0.0049558091 0.0015830713 0.018992255 0.99806523 -0.027707977
298538.2618918 0.99537683 -0.035445716 -5.0561971e-006 0.0029412031 0.00035315094 0.0052614817
5.6639856e-006 0.002937166 0.99551129 -0.074931204 0.0017458737 0.02005996
0.00033218469 0.0052544149 0.001749623 0.020091018 0.99763614 -0.029531455
316227.76601684 0.99519646 -0.037504602 -6.3756429e-006 0.0031168414 0.00038202663 0.0055783866
4.6249916e-005 0.003129374 0.99510479 -0.079631388 0.001897305 0.021205224
0.00035286511 0.0055720722 0.0019251435 0.021207042 0.9976033 -0.031018302
334965.43915783 0.9951759 -0.039823815 2.0638963e-005 0.003310957 0.00037356638 0.0059160786
7.4959685e-006 0.0033121472 0.99460155 -0.084168918 0.0020954725 0.022410905
0.00037612789 0.0058961529 0.0021054877 0.022421215 0.99736947 -0.032786988
354813.38923358 0.99500185 -0.042136483 4.9572653e-005 0.0035013545 0.000431575 0.0062433528
2.9566618e-005 0.0035021063 0.99407274 -0.089134283 0.0023020292 0.02366112
0.00044084305 0.0062154988 0.0023070348 0.023725312 0.99738079 -0.034722894
375837.40428844 0.99486548 -0.044476286 5.2761821e-005 0.0037069065 0.00046795435 0.0065846471
4.2362866e-005 0.0037447421 0.99338871 -0.094351381 0.0025162334 0.025057938
0.00045801289 0.0065593095 0.0025313548 0.025008405 0.99715531 -0.036697172
398107.1705535 0.99479002 -0.047255669 7.0128714e-005 0.0039656949 0.00051619485 0.0069619329
5.4224962e-005 0.0039697709 0.99277115 -0.099883109 0.0027919107 0.026434289
0.0005228378 0.0069353022 0.0028037385 0.026467409 0.9969396 -0.038812522
421696.50342858 0.99462688 -0.050102264 6.4875836e-005 0.0041780956 0.00057422754 0.0073718564
7.2612398e-005 0.0042105778 0.99204445 -0.10559909 0.0030423116 0.027937099
0.00057288934 0.0073385537 0.0030780786 0.027943343 0.99663985 -0.041049041
446683.59215096 0.99455285 -0.053009257 9.8277218e-005 0.0044600153 0.00061465532 0.0077615459
0.00010166984 0.0044879885 0.9913314 -0.11179546 0.0033771771 0.029495301
0.00063510588 0.007771607 0.0033708799 0.029523496 0.9962852 -0.043159075
473151.25896148 0.99433869 -0.056048103 0.00010893775 0.0047187987 0.00068392867 0.0082308594
0.00011623069 0.004745163 0.99046457 -0.1183765 0.0037209147 0.031143134
0.0006819258 0.0082089016 0.0037082087 0.031188734 0.99631006 -0.045678325
501187.23362727 0.99386525 -0.059494782 0.00014268115 0.0050182762 0.00070621155 0.0086712688
0.00015469099 0.0050208983 0.98965061 -0.12526588 0.0040624794 0.032919072
0.00071978156 0.008636645 0.0040650992 0.032943953 0.99601787 -0.048231825
530884.44423099 0.99356681 -0.062870488 0.00017073115 0.0053055738 0.00076660351 0.00915391
0.00015062945 0.0053446623 0.98866177 -0.13228658 0.0044447039 0.034787651
0.00077213312 0.0091395453 0.0044740108 0.03479322 0.99584353 -0.051017836
562341.32519035 0.99323636 -0.066564113 0.00020627253 0.0056461776 0.0008488794 0.0096923243
0.00022651067 0.0056581073 0.98739469 -0.14014305 0.0048804097 0.036726866
0.00085467141 0.0096510723 0.0049017789 0.036725789 0.99524176 -0.054091085
595662.14352901 0.99312234 -0.070343852 0.00025778552 0.0060081151 0.00091764162 0.010235908
0.00026673838 0.0059974929 0.98593861 -0.14831983 0.0053487848 0.038757958
0.00092884985 0.010220784 0.0053681433 0.038785949 0.99513119 -0.057144541
630957.34448019 0.99296057 -0.074595883 0.0002919762 0.0063600373 0.001002318 0.010831311
0.00032001312 0.0063750315 0.9846881 -0.15707128 0.0058905287 0.04094857
0.0010019985 0.010801914 0.0058951708 0.040940009 0.99475825 -0.060249146
668343.91756861 0.99254328 -0.078910664 0.00037269213 0.0067526102 0.0011032227 0.01142446
0.00036529332 0.0067333183 0.98283243 -0.16611964 0.0064749932 0.04324488
0.0010804028 0.011413056 0.0064892215 0.043261588 0.99441963 -0.063620888
707945.78438414 0.9921543 -0.083616748 0.00044580785 0.0071453103 0.0012032441 0.012070867
0.00043103949 0.0071523613 0.98073912 -0.17573608 0.0071296454 0.045648806
0.0011810149 0.012056279 0.0071529527 0.045671612 0.99384141 -0.067407891
749894.20933246 0.99172121 -0.088616408 0.00051744049 0.0076069194 0.0012943061 0.012758438
0.00049849035 0.0075918557 0.97837365 -0.18547648 0.0078269914 0.048177071
0.0012800602 0.012753628 0.0078627737 0.048183341 0.99331045 -0.071070299
794328.23472428 0.99105948 -0.094066396 0.00058470858 0.0080606071 0.001397386 0.013493801
0.0005980003 0.0080412859 0.97687805 -0.19567819 0.0085835606 0.050886773
0.0014144768 0.01348457 0.0086208293 0.050906967 0.99283612 -0.075112797
