!Keysight Technologies,E5080A,MY55100144,A.11.70.03
!Date: Monday, November 13, 2017 17:26:05
!Correction: S11(Full 3 Port(1,2,3)) 
!S12(Full 3 Port(1,2,3)) 
!S13(Full 3 Port(1,2,3)) 
!S21(Full 3 Port(1,2,3)) 
!S22(Full 3 Port(1,2,3)) 
!S23(Full 3 Port(1,2,3)) 
!S31(Full 3 Port(1,2,3)) 
!S32(Full 3 Port(1,2,3)) 
!S33(Full 3 Port(1,2,3)) 
!S3P File: Measurements: <S11,S12,S13>,
!<S21,S22,S23>,
!<S31,S32,S33>:Log Frequency Sweep
# Hz S  RI   R 50
10000 0.99434888 -0.0054017552 -1.4231206e-005 -1.8576568e-005 -3.5783301e-006 0.00011146082
2.9212225e-007 -3.3093618e-006 0.47087628 -0.87586302 8.8589068e-006 1.0093149e-005
-1.8516132e-005 0.00012686879 -1.0288155e-005 1.0496655e-005 0.99967253 -0.0023401978
10592.537251773 0.99451679 -0.0059674042 1.1839521e-005 1.797796e-005 -5.0353506e-006 0.00012995176
1.1135491e-005 -6.0073157e-006 0.42570996 -0.89858133 -7.9927668e-006 5.3205076e-006
1.0690713e-005 0.00014893399 8.1525413e-006 8.0481419e-007 0.99996632 -0.0022839876
11220.18454302 0.99465817 -0.0065087695 -2.3699595e-005 -1.7140688e-005 -1.8849059e-005 0.00013944614
-1.8974634e-006 -7.030791e-006 0.37738511 -0.91939336 -1.1524023e-005 8.2594779e-006
-3.3739477e-006 0.00015038098 1.3334094e-005 1.1309045e-005 1.0001175 -0.0023839613
11885.02227437 0.99446112 -0.0066986866 -6.2449849e-006 -6.088645e-006 6.7295819e-006 0.00014229576
-2.2897893e-005 -8.0423724e-006 0.32785699 -0.93803674 -2.8015891e-006 -5.7146417e-006
-9.3659889e-007 0.00013293079 1.2622339e-005 5.7682491e-006 1.0001597 -0.0024340951
12589.254117942 0.99463916 -0.0072373622 7.3816204e-006 -1.6058462e-005 -2.2623192e-006 0.00014489355
5.4708853e-006 1.237654e-005 0.27617693 -0.95419008 -2.2748254e-006 -1.0555619e-005
-9.3496974e-006 0.00016511601 3.7758632e-006 -1.8607383e-005 1.0000863 -0.0025561303
13335.214321633 0.99466377 -0.0074895481 9.2005257e-006 3.0050012e-006 3.5469307e-007 0.00015533983
4.2915781e-006 1.6577724e-006 0.22296324 -0.96816951 1.6982354e-005 -1.1306205e-005
5.4419984e-006 0.00014155696 -1.3117863e-005 -1.4094372e-005 0.9998979 -0.0024458594
14125.375446228 0.99441159 -0.0079082949 -7.4520431e-006 -7.2312641e-006 -1.5925514e-006 0.00018619248
5.5557975e-006 -2.393977e-005 0.16825096 -0.97855967 1.1079065e-005 8.3558898e-006
-5.568334e-006 0.00016555034 2.3073757e-005 -6.3002058e-006 0.99993604 -0.0024280455
14962.356560944 0.99450797 -0.0082346946 1.2816089e-005 1.6459777e-005 1.2271575e-005 0.00017505314
1.5239384e-005 -8.6935916e-006 0.1125849 -0.98692763 4.990477e-006 9.3787776e-006
-4.8456695e-007 0.00019621849 -4.8188381e-006 1.0322871e-006 1.0000318 -0.0026960811
15848.931924611 0.99474436 -0.0087310048 -5.854306e-006 -1.2828598e-006 -2.3067444e-006 0.00019896032
-5.1624079e-006 -2.9453354e-006 0.055842835 -0.99116856 1.1164457e-005 1.340795e-005
-2.9994206e-007 0.00018140132 -1.209388e-005 7.6919747e-007 1.0000623 -0.0026230915
16788.040181226 0.99450415 -0.0093337065 -1.997757e-005 1.3179274e-005 -1.7682849e-005 0.00021123416
-3.6973474e-006 1.2905406e-007 -0.00077800953 -0.99256575 -6.2615354e-006 6.873825e-006
8.5792641e-007 0.00019379403 -3.6019392e-006 -1.0650938e-005 0.99991465 -0.0028379173
17782.794100389 0.99448436 -0.009620023 -1.8362478e-007 -1.4066022e-005 -1.0747994e-005 0.00021158453
7.3076935e-006 8.9588293e-006 -0.057638917 -0.99054337 -4.6174515e-007 1.0622655e-005
1.3490259e-005 0.00021368783 1.2870997e-005 5.6531667e-006 0.99996561 -0.0026654711
18836.490894898 0.99457264 -0.010219553 6.0305223e-007 -1.3927834e-005 2.4644762e-006 0.00024078667
4.1770172e-006 2.9907981e-006 -0.11410878 -0.98576421 5.7025904e-006 -1.3779208e-005
-2.6601718e-005 0.00023609548 -9.2822881e-007 -5.2559731e-006 0.99978715 -0.0028471574
19952.623149689 0.99459708 -0.010905053 1.0835047e-006 8.7788558e-006 2.1233653e-005 0.00023927593
9.3807812e-006 -5.9323015e-006 -0.16944695 -0.97781235 1.6905664e-005 -4.1177559e-006
2.6436462e-006 0.00024626197 -8.9068808e-006 -3.5851638e-006 0.99980289 -0.002818943
21134.890398366 0.99460077 -0.011699842 6.9136049e-006 -4.5477668e-006 2.7622252e-006 0.00025217433
-2.8574298e-006 3.9016932e-006 -0.22422069 -0.96663904 5.321881e-006 -1.5394327e-005
9.6788799e-006 0.00026934585 1.6325812e-005 6.6173984e-006 0.99973851 -0.0031233137
22387.211385683 0.99451959 -0.012261843 3.2558e-006 1.6453139e-005 2.8282084e-005 0.00029153744
3.5260186e-006 4.5729362e-006 -0.27738342 -0.9526518 -1.3262059e-005 -1.3091174e-005
3.9586189e-006 0.0002812453 -7.9011361e-006 -1.1354598e-005 0.99977821 -0.0031734125
23713.737056617 0.99442577 -0.013018046 9.5475634e-006 -4.2044235e-006 1.3067121e-005 0.00028311319
1.8648107e-006 5.1224524e-006 -0.32907754 -0.93602175 -6.6297243e-006 9.2782466e-006
-2.3265684e-005 0.00027157826 2.6711245e-005 -1.223061e-005 0.99971086 -0.0030999302
25118.864315096 0.99454379 -0.013658608 8.2266024e-006 1.516969e-005 2.3375878e-005 0.00032583761
7.1743889e-006 9.04442e-006 -0.37844816 -0.9172582 3.9016399e-007 1.5453112e-005
-1.348847e-006 0.00031263806 1.8367104e-005 -5.3115227e-006 0.99981093 -0.0034191259
26607.250597988 0.99454212 -0.014404577 8.4062558e-006 9.8030732e-006 -4.8565598e-006 0.00032417726
2.0256008e-005 -3.4535807e-007 -0.42617285 -0.89624071 4.7315066e-006 -3.8448047e-006
1.0399684e-005 0.0003278729 6.939089e-006 8.9616069e-006 0.99985957 -0.0035590974
28183.829312645 0.99447507 -0.015515181 -2.632107e-005 -6.8032318e-006 1.2895398e-005 0.0003459916
1.3240534e-005 1.714704e-005 -0.47156292 -0.87336433 -2.4636872e-006 -8.7580829e-006
-1.9578352e-005 0.00035464973 2.3794662e-005 -6.0058424e-006 0.99997789 -0.0037722585
29853.82618918 0.99462318 -0.016266171 1.3955781e-005 1.7452523e-005 1.1123545e-005 0.0003532187
2.8837555e-006 1.561637e-006 -0.51432908 -0.84878504 4.1440417e-006 -9.6010888e-007
-8.9797322e-006 0.00036995838 1.3449161e-005 2.7088352e-005 0.99983442 -0.0036301927
31622.776601684 0.99442059 -0.017269399 -1.8192341e-006 1.3500833e-005 7.5096677e-006 0.00038818197
9.4451943e-006 -2.3858186e-006 -0.55458939 -0.8231113 -6.0041252e-006 7.4330928e-006
1.5739402e-005 0.00040365869 -6.8521722e-006 -2.5160969e-005 0.99988842 -0.004130573
33496.543915783 0.99449182 -0.018086864 8.2924981e-007 7.2478797e-006 -2.1056339e-006 0.00041479678
-1.204488e-005 8.4160374e-006 -0.59260136 -0.79624695 -3.5396606e-006 4.1436538e-006
1.5872209e-005 0.00042463013 2.2215361e-006 1.21341e-005 0.99976677 -0.0041518486
35481.338923358 0.99435449 -0.019162623 1.439565e-005 2.4462568e-005 1.081249e-005 0.00042168715
4.8749644e-006 2.4337857e-007 -0.62807435 -0.76870108 1.1794804e-005 -2.0600628e-005
1.167284e-005 0.00042709493 1.6016917e-005 1.6819151e-005 0.9997431 -0.004241128
37583.740428844 0.99435443 -0.020261617 -4.9430573e-006 1.1914674e-005 1.5278474e-005 0.00046055348
2.386842e-006 -8.1169907e-007 -0.66099447 -0.74070984 6.5721047e-006 7.8142521e-006
-1.422531e-005 0.00045887908 -3.5798801e-006 -1.3352799e-006 0.99967909 -0.0045294357
39810.71705535 0.99430525 -0.02146277 6.0735338e-006 1.4868084e-005 1.4169483e-005 0.00048220321
6.3667841e-007 5.5911337e-006 -0.69155836 -0.71249121 -3.078442e-006 -8.283906e-006
2.1766344e-005 0.00049865909 -1.8017976e-005 4.1258354e-006 0.99959505 -0.0047187838
42169.650342858 0.99430668 -0.022796253 4.6753844e-006 -1.6749387e-005 6.0251773e-007 0.00049937837
7.5669477e-006 -1.1208122e-005 -0.71988982 -0.68415755 7.6450651e-006 3.6515689e-006
1.842601e-005 0.00053281349 -7.5935532e-006 -1.4329235e-005 0.99956042 -0.0048894715
44668.359215096 0.99439257 -0.024159126 -1.2983994e-005 -4.6347163e-006 1.3285618e-005 0.00056344253
-2.5377569e-006 4.0564341e-006 -0.74586022 -0.65577388 4.8461366e-006 5.1412608e-006
3.325679e-006 0.00054615608 -8.8610586e-006 -6.34959e-006 0.99942827 -0.0052734865
47315.125896148 0.99431276 -0.02550243 4.6422815e-006 2.0002395e-005 3.1894822e-005 0.00056048477
2.7384865e-006 -1.353136e-006 -0.769777 -0.62786084 7.4090394e-007 -1.4487324e-005
2.0202384e-005 0.00058396161 4.6168825e-006 -2.4165507e-005 0.99953133 -0.0054190704
50118.723362727 0.99415368 -0.027123945 1.9023253e-005 6.8352397e-006 2.2336571e-005 0.00062585413
-3.4808415e-006 6.6100215e-006 -0.79165298 -0.60012937 4.0407826e-007 6.9385896e-006
2.6971764e-005 0.00060847274 5.891834e-006 3.9078579e-005 0.9994362 -0.0056742523
53088.444423099 0.99406272 -0.028609555 7.3690953e-006 -1.2467285e-005 3.4798486e-005 0.00066752965
-8.9930118e-006 7.1234008e-006 -0.81175864 -0.57314199 -3.0908484e-007 1.2736609e-006
5.4865191e-006 0.00063960627 -1.0582547e-005 -8.8212246e-006 0.99960834 -0.0060771974
56234.132519035 0.99412835 -0.030311774 -1.3794804e-005 3.44207e-005 1.194611e-005 0.00071649271
-3.6965521e-006 7.5655447e-007 -0.82985967 -0.54665041 -2.8046477e-006 1.5232529e-006
2.0588765e-005 0.00069940172 -2.2403059e-005 -1.2541291e-005 0.9993788 -0.00644028
59566.214352901 0.9940443 -0.032121923 5.6780541e-006 -1.626535e-005 3.1340835e-005 0.00073248893
-1.0503328e-006 6.2286113e-006 -0.84641397 -0.52090031 9.2869568e-006 8.1680519e-006
3.4034874e-005 0.00073315523 -2.2970733e-005 5.149865e-006 0.99930292 -0.0065472634
63095.734448019 0.99384856 -0.034013212 5.9074396e-006 -7.7259065e-006 2.3092442e-005 0.00075594924
-1.5136222e-006 1.651978e-006 -0.86149246 -0.49595979 -1.2817434e-005 4.1798626e-007
3.141319e-005 0.00078411319 4.4969588e-006 7.7463608e-007 0.99937099 -0.0069564781
66834.391756861 0.99381202 -0.035935432 -1.4823981e-005 9.4918641e-007 6.3250186e-006 0.00084158714
-4.981981e-006 -4.1002877e-006 -0.87504083 -0.47162479 -5.6809786e-006 -1.5088991e-006
2.4711033e-005 0.00083359535 3.0531116e-006 4.198761e-006 0.99955851 -0.0074091093
70794.578438414 0.99369478 -0.037920695 6.4482942e-006 3.1574069e-005 5.5945384e-005 0.0008692235
-3.7814625e-006 8.0606806e-006 -0.88736534 -0.44847184 -8.8198703e-006 6.9013872e-006
3.1163228e-005 0.00086903817 -1.0096288e-005 5.3068802e-006 0.99915636 -0.007768827
74989.420933246 0.99361593 -0.040297475 -1.8531628e-005 -1.2006591e-006 2.771383e-005 0.00091267022
-6.0527623e-006 6.6679281e-006 -0.898525 -0.42595428 -3.3169483e-006 2.0918192e-006
4.5271077e-005 0.0009329968 1.2933421e-005 4.4736094e-005 0.99913096 -0.0079441387
79432.823472428 0.99348003 -0.042775054 7.738784e-006 -1.5551697e-005 3.3691129e-005 0.00096356461
-6.8643994e-006 1.858529e-005 -0.90863502 -0.40420368 -3.5954849e-007 7.5097014e-006
3.4839468e-005 0.00098956469 -3.4174154e-005 4.1861081e-006 0.99913549 -0.0084743164
84139.514164519 0.9934153 -0.045084484 1.2209535e-005 1.4761493e-005 3.5745321e-005 0.0010292432
-8.5773972e-006 -1.0325344e-006 -0.91763431 -0.38353315 5.8298619e-006 7.3407905e-006
2.2143429e-005 0.0010501778 2.0367004e-007 -1.9305297e-005 0.99898112 -0.0086871758
89125.093813375 0.99331588 -0.047700457 -1.4450901e-005 5.0733032e-008 2.8509947e-005 0.0011058548
-2.4242863e-006 2.0811351e-006 -0.92589593 -0.36371469 -1.0320312e-005 9.9302679e-006
4.5021156e-005 0.0010890076 -5.090883e-006 9.4024626e-006 0.99901086 -0.0094578946
94406.087628592 0.99322844 -0.050567966 -1.3112899e-005 -8.6008376e-006 5.8044781e-005 0.0011447088
2.659988e-008 1.5870037e-005 -0.93320954 -0.34474316 3.7804473e-006 -2.3917476e-006
5.3312779e-005 0.0011600776 -1.6038508e-005 7.4675518e-006 0.99921876 -0.0097023258
100000 0.99294621 -0.053521883 1.1577932e-005 -1.9598685e-005 4.9063194e-005 0.0012296989
-1.169514e-006 4.8514294e-006 -0.93978077 -0.32657069 3.4369166e-006 9.0167641e-006
3.8695485e-005 0.0012103776 1.3192845e-005 1.6891472e-005 0.99899179 -0.01033623
105925.37251773 0.9929105 -0.056736317 -2.5397616e-005 -1.0140035e-005 6.4383938e-005 0.0012970822
6.9903962e-007 1.1446e-005 -0.94577122 -0.30932835 -1.1847173e-006 6.7302976e-006
7.2729366e-005 0.001304314 1.1272132e-005 7.2615139e-006 0.99898845 -0.010791658
112201.8454302 0.99282062 -0.060035307 -7.8907406e-006 2.5415341e-006 8.9547408e-005 0.0013727433
-8.0242326e-006 2.1072425e-007 -0.95107293 -0.29281473 -2.3487826e-006 3.7314805e-006
8.4101077e-005 0.0013715377 8.6939559e-007 -4.1526851e-006 0.99901485 -0.01155589
118850.2227437 0.99246967 -0.063473083 1.1969317e-005 -8.3851307e-007 7.5890392e-005 0.0014547814
1.3450276e-006 1.0952781e-005 -0.95590538 -0.27715409 -5.8537344e-006 8.3560581e-006
7.0108959e-005 0.0014652354 -1.5997424e-005 -1.3056393e-005 0.99908829 -0.01221372
125892.54117942 0.99234486 -0.067352235 1.6450398e-005 -3.0455534e-005 8.6341381e-005 0.0015592311
-9.722341e-006 -2.6485859e-006 -0.96013498 -0.26222318 1.4173842e-006 -8.5853378e-007
9.2918759e-005 0.0015558741 1.2054627e-005 -1.6243563e-006 0.99911886 -0.012771853
133352.14321633 0.99192929 -0.071285382 5.4346242e-006 -1.8053223e-006 0.00010809647 0.0016572496
-8.7103135e-006 1.2036697e-005 -0.9640643 -0.24796709 -2.2145207e-006 1.7818977e-005
0.00010987859 0.001646016 3.6143824e-006 9.4572742e-006 0.99875522 -0.013562632
141253.75446228 0.99163127 -0.075582355 -1.9615632e-006 1.0485477e-005 9.7184624e-005 0.001726736
-1.5040803e-006 -6.4041033e-006 -0.96751219 -0.23455104 -1.0596143e-005 4.0965565e-006
0.00012128238 0.0017134498 2.1069891e-005 2.0609801e-005 0.99906075 -0.014326883
149623.56560944 0.99141061 -0.080034629 1.0407733e-005 2.2967179e-005 0.00014244123 0.001822741
-4.8042857e-006 5.6301669e-006 -0.97060162 -0.22174318 -4.2369979e-006 1.1992743e-005
0.00013358706 0.0018311149 4.1070557e-006 -4.6144746e-006 0.9989714 -0.015180025
158489.31924611 0.99100053 -0.084687039 -1.9905323e-005 2.4242134e-005 0.00013675568 0.001949936
-5.6817162e-006 3.3292004e-006 -0.9733966 -0.20942335 1.1919769e-005 7.4049503e-006
0.00013923945 0.0019476913 1.9332565e-006 1.7020713e-005 0.99895018 -0.01611664
167880.40181226 0.99040902 -0.089695841 -1.021492e-005 2.6149048e-005 0.00013930287 0.0020464903
-1.3217827e-005 1.6828782e-005 -0.97587317 -0.19785757 -6.4431706e-006 1.4193702e-005
0.00015361895 0.0020446938 -1.9574016e-005 1.7338967e-005 0.99886745 -0.017063512
177827.94100389 0.98993701 -0.094963916 -3.1291835e-005 4.1118519e-006 0.00019811981 0.0021733618
-3.7891816e-006 8.6865793e-006 -0.97744441 -0.18592721 1.6155405e-005 1.1368717e-005
0.00017622247 0.0021762133 8.5559359e-006 3.5103891e-005 0.99886739 -0.017941827
188364.90894898 0.98918355 -0.1004232 4.3401228e-006 3.1134776e-005 0.00018893571 0.0023018948
-2.4401003e-005 1.5986647e-005 -0.9799363 -0.17711264 2.1631038e-006 1.5073491e-005
0.00020568944 0.0023081189 -1.6754131e-005 3.3605353e-005 0.99872798 -0.019077262
199526.23149689 0.98856407 -0.1063578 3.7874222e-006 -3.150414e-007 0.00021924067 0.0024049624
-2.4963532e-005 9.8776309e-006 -0.98174876 -0.16715394 4.1353774e-006 6.0429074e-006
0.00022924079 0.0024049641 -1.6909646e-005 4.4319254e-006 0.99864954 -0.020094713
211348.90398366 0.98798835 -0.11281391 9.6526655e-006 1.3002083e-005 0.00023100513 0.0025607001
-1.6783868e-005 1.1469987e-005 -0.98335719 -0.15786906 8.038156e-006 5.0926828e-006
0.00024504212 0.0025786087 2.226554e-006 7.2060584e-006 0.99849302 -0.021172712
223872.11385683 0.98723853 -0.11926662 -3.4765031e-005 2.4609864e-005 0.00027112188 0.0026751973
-5.2545192e-006 1.8269287e-005 -0.98485464 -0.14899215 -1.2595945e-005 1.6814636e-005
0.00026249589 0.002701012 1.2132253e-005 1.2714899e-005 0.99858117 -0.022341242
237137.37056617 0.98638189 -0.12624377 -6.3961597e-006 3.4453147e-005 0.00031512769 0.0028519861
-1.2431177e-005 1.7873905e-005 -0.98605853 -0.14063516 -6.4665478e-006 1.6774553e-005
0.00030065302 0.0028410498 5.1781285e-006 1.1247684e-005 0.99844271 -0.023578601
251188.64315096 0.98540211 -0.13361511 -1.9951563e-005 6.1812411e-006 0.00031753577 0.0029995791
-1.7525033e-005 1.8625224e-005 -0.98720223 -0.13265938 -2.3705077e-006 1.8915451e-005
0.00033409658 0.0030247713 -1.4104458e-005 3.7444199e-006 0.99841732 -0.025083588
266072.50597988 0.98410147 -0.14160171 -2.0751784e-005 2.8258584e-005 0.00038272297 0.003185583
-3.0531242e-005 2.128778e-005 -0.98824924 -0.12524548 -8.0727077e-006 1.2768036e-005
0.00039377087 0.0032008761 3.56789e-006 2.557166e-005 0.99829918 -0.026476683
281838.29312645 0.98283428 -0.15006098 -2.0273183e-005 2.4835819e-005 0.00042529334 0.0033630412
-2.7055119e-005 2.0946643e-005 -0.98917234 -0.11812558 -3.058585e-006 1.8879347e-005
0.00043318782 0.0033790884 -6.6232938e-006 2.5506783e-005 0.99828666 -0.027912578
298538.2618918 0.98143911 -0.15868318 -4.1212486e-005 3.7138183e-005 0.00046002294 0.0035696211
-1.2852445e-005 1.9220552e-005 -0.98996562 -0.11131053 -8.7731141e-006 1.6838258e-005
0.00046347256 0.0035671326 -1.9702095e-005 1.1284039e-005 0.99808013 -0.029557059
316227.76601684 0.97981399 -0.16783592 -2.1792286e-005 1.790661e-005 0.00051470206 0.0037798567
-2.4692412e-005 1.7551543e-005 -0.99061942 -0.10506418 -1.1374178e-005 6.8543645e-006
0.00049776549 0.0037695044 -1.9346782e-005 2.3669767e-005 0.99783134 -0.031148868
334965.43915783 0.97793913 -0.1775955 -1.9330249e-005 2.4810135e-005 0.00056772528 0.0039808447
-3.2246215e-005 2.4965408e-005 -0.99140662 -0.099212997 -6.592024e-006 2.4572677e-005
0.00057952316 0.0039598951 1.5303767e-005 1.546724e-005 0.99768335 -0.032917757
354813.38923358 0.97626746 -0.18793967 -4.3860218e-005 1.1329821e-005 0.00062612596 0.0041875369
-4.1593423e-005 1.4732661e-005 -0.99196267 -0.093394548 -2.3968749e-007 3.9262554e-006
0.00061727752 0.0041727396 -2.2469627e-005 9.791609e-006 0.99763668 -0.034784425
375837.40428844 0.97398579 -0.19875628 -4.1007803e-005 2.276864e-005 0.00067457609 0.0044295127
-4.2309341e-005 3.0235675e-005 -0.99240762 -0.0879125 -9.1449165e-006 2.3623837e-005
0.00069122069 0.0044274833 -1.74661e-005 1.6832926e-005 0.99758399 -0.036803216
398107.1705535 0.97159523 -0.21042676 -3.9003808e-005 4.7607522e-005 0.00077485759 0.0046626218
-3.1692987e-005 2.2465985e-005 -0.99296927 -0.082643092 -2.0614485e-005 8.6900654e-006
0.00074282225 0.0046657133 -3.9908227e-006 2.2987482e-005 0.99724871 -0.038986668
421696.50342858 0.96886551 -0.22251168 -4.038115e-005 2.857491e-005 0.00086354773 0.0048979642
-4.8412716e-005 3.6169655e-005 -0.99311799 -0.077454768 -3.8557992e-006 3.1155752e-005
0.00085015141 0.0049175178 -3.9954584e-006 4.1536056e-005 0.99714893 -0.041148242
446683.59215096 0.96578205 -0.23532756 -7.4395321e-005 3.4045199e-005 0.00091502513 0.0051862365
-5.9450816e-005 2.5528798e-005 -0.99318755 -0.07378114 -5.0922558e-006 1.9534584e-005
0.00094496098 0.0051848516 1.341495e-005 2.2699931e-005 0.9968158 -0.04351896
473151.25896148 0.96219754 -0.24868314 -5.9591523e-005 2.0962812e-005 0.0010304266 0.0054595643
-5.7560817e-005 3.7892143e-005 -0.99394572 -0.069562428 -8.5952461e-006 1.5015275e-005
0.00100882 0.0054980977 -6.9574917e-006 2.2979018e-005 0.99670815 -0.046041753
501187.23362727 0.95824611 -0.26307338 -7.8235767e-005 3.9789407e-005 0.0011438538 0.0058137653
-6.2492705e-005 3.9449526e-005 -0.99427146 -0.065325759 -4.6122477e-006 3.5586112e-005
0.0011438926 0.0057774782 -5.7928705e-006 2.9897705e-005 0.99655986 -0.048410825
530884.44423099 0.95393169 -0.27781704 -6.332546e-005 5.3551386e-005 0.0012425303 0.006062706
-8.0300219e-005 4.2540443e-005 -0.99457753 -0.061342236 -1.5029295e-005 3.2597578e-005
0.0012552276 0.0060857125 -1.6383528e-005 4.043119e-005 0.99626631 -0.05119149
562341.32519035 0.94918048 -0.29356939 -7.6313321e-005 6.3435873e-005 0.0013788668 0.0064018159
-7.8577817e-005 4.1985793e-005 -0.99496406 -0.057594888 -1.9094041e-005 2.0916365e-005
0.0013801849 0.0064265179 -3.3446409e-005 3.3784832e-005 0.99602723 -0.054228049
595662.14352901 0.94401503 -0.30993024 -7.673174e-005 5.1280356e-005 0.0015414031 0.0067458167
-8.7430752e-005 5.6733203e-005 -0.99513489 -0.054045193 -3.0153045e-005 2.5805475e-005
0.0015399661 0.006743622 -1.0537187e-005 4.7060432e-005 0.995776 -0.057451997
630957.34448019 0.93816406 -0.32730493 -8.5072563e-005 4.5343062e-005 0.0016784504 0.0071343109
-0.00010117569 5.864245e-005 -0.99528348 -0.0506205 -1.8427036e-005 2.8205746e-005
0.0016783715 0.0071005854 -1.497905e-005 2.9267771e-005 0.99552912 -0.060564701
668343.91756861 0.93151963 -0.34544295 -0.00010183125 9.2819588e-005 0.0018585189 0.007506236
