!Keysight Technologies,E5080A,MY55100144,A.11.70.03
!Date: Monday, November 13, 2017 17:22:33
!Correction: S11(Full 3 Port(1,2,3)) 
!S12(Full 3 Port(1,2,3)) 
!S13(Full 3 Port(1,2,3)) 
!S21(Full 3 Port(1,2,3)) 
!S22(Full 3 Port(1,2,3)) 
!S23(Full 3 Port(1,2,3)) 
!S31(Full 3 Port(1,2,3)) 
!S32(Full 3 Port(1,2,3)) 
!S33(Full 3 Port(1,2,3)) 
!S3P File: Measurements: <S11,S12,S13>,
!<S21,S22,S23>,
!<S31,S32,S33>:Log Frequency Sweep
# Hz S  RI   R 50
10000 0.99679476 -0.0013585509 -1.2713695e-006 0.00023254531 -9.9604188e-007 0.00016708244
-1.727702e-005 0.00024819627 0.99874103 -0.0033821098 7.7900359e-007 0.00071489456
2.8838151e-006 0.00018244072 1.9807863e-005 0.0006994009 0.99967718 -0.0024382246
10592.537251773 0.99694282 -0.0017330251 9.743163e-006 0.00022667427 1.1009459e-005 0.00017438638
-1.8920346e-005 0.0002462898 0.99858922 -0.0034423035 1.537458e-005 0.00074818032
8.2187159e-007 0.00016374106 6.7800192e-006 0.0007452385 0.99997807 -0.0023095044
11220.18454302 0.99691105 -0.0015953653 -1.2333669e-005 0.00026990188 1.3812785e-005 0.00018434534
1.3633786e-005 0.00027037953 0.99878854 -0.003858303 5.1635502e-006 0.00079821749
-6.3286807e-006 0.00019031925 4.6628629e-006 0.00080695754 1.0000441 -0.0023944085
11885.02227437 0.996876 -0.0016773063 5.4602756e-006 0.00025711898 -1.2540715e-005 0.00020216744
3.5320829e-006 0.00029263267 0.99889946 -0.0038630643 1.0036243e-005 0.00084328605
1.0711579e-005 0.00019772876 9.9067483e-006 0.00084318378 0.99993443 -0.0023609356
12589.254117942 0.99700093 -0.0017926113 2.0462065e-005 0.00029529203 -3.982886e-006 0.00021515893
-4.5209595e-006 0.00030016174 0.99907714 -0.0041200412 6.7544797e-006 0.00089677621
-1.7914499e-006 0.00020590797 -1.5677953e-005 0.00091910234 1.0000478 -0.0025755439
13335.214321633 0.99706239 -0.0019340033 -2.84459e-006 0.00031325396 -1.0647578e-006 0.00021140595
1.5063391e-005 0.00032178848 0.99896377 -0.0043343911 2.6273932e-005 0.00092283968
3.6660538e-006 0.00023279713 2.2904902e-005 0.00093913148 0.99986964 -0.0023978264
14125.375446228 0.99689895 -0.0019615809 1.9217645e-005 0.00031358111 -2.5941008e-006 0.00023338827
-7.2006492e-006 0.00033935549 0.99908531 -0.0044736448 2.1924607e-006 0.00099238195
7.7290752e-006 0.00025731875 5.3201879e-006 0.0010070321 1.0000257 -0.0021839426
14962.356560944 0.996939 -0.0021510909 2.1974345e-005 0.00035844708 2.3944274e-005 0.00025363057
2.1956224e-005 0.00033383304 0.99906796 -0.0045868587 1.3208436e-005 0.0010648001
1.4713446e-005 0.00024134974 4.5827878e-006 0.001071286 1.0000862 -0.0025530963
15848.931924611 0.99711162 -0.0023877092 2.2502003e-005 0.00037656643 -3.546224e-006 0.00025193734
-1.5237204e-006 0.00036823633 0.99898416 -0.0049511637 -5.3447629e-006 0.0011339277
-1.779488e-006 0.0002646943 1.0693576e-006 0.0011304717 1.0001312 -0.0026311667
16788.040181226 0.99701321 -0.0025630998 -9.9173849e-006 0.0003953914 2.5556369e-006 0.00029955193
2.7777821e-007 0.00039538549 0.99900281 -0.005215697 2.8546736e-005 0.0011869845
1.4281278e-005 0.00026895842 3.3433455e-005 0.001192841 1.0000113 -0.0027635645
17782.794100389 0.99716818 -0.0025040885 5.2657206e-006 0.00041076483 2.2159904e-006 0.00031634653
1.3551139e-005 0.00042321516 0.99913394 -0.0053757336 2.3589067e-005 0.0012740709
-2.4940391e-007 0.00028618678 2.2920754e-006 0.0012667659 0.99992645 -0.0027006643
18836.490894898 0.99698102 -0.0026841755 3.7164213e-005 0.00043554831 3.2792916e-006 0.00031575173
4.4169788e-006 0.0004483668 0.99914116 -0.0056343623 1.3449948e-005 0.0013326273
1.2009767e-005 0.0003275628 3.1661864e-005 0.0013294147 1.0000631 -0.0027064537
19952.623149689 0.99701405 -0.0029817193 6.5541963e-006 0.0004675001 -8.952642e-006 0.00034291219
-4.772874e-006 0.0004730598 0.99913156 -0.0058901394 1.6331174e-005 0.0014188619
3.492448e-007 0.00032862986 1.0801341e-005 0.0014264394 0.99987328 -0.0029325178
21134.890398366 0.99713647 -0.0030354832 6.1773421e-006 0.00047306143 1.0826207e-005 0.00036347573
-5.9946096e-006 0.00049282459 0.9990918 -0.0061732177 3.7113462e-006 0.0015012922
-1.6574233e-005 0.00034154212 9.9142526e-006 0.0015173489 0.9998765 -0.0030267877
22387.211385683 0.99697906 -0.003180082 2.4300914e-006 0.00051225873 4.1423336e-005 0.00037018507
-1.6541637e-006 0.00051276514 0.99917871 -0.006493893 1.2736375e-005 0.0015822855
4.2903607e-006 0.00037271145 2.0632397e-005 0.0015876148 0.99997663 -0.003080565
23713.737056617 0.99703538 -0.0035284155 -7.3624178e-006 0.00055123493 1.5178653e-005 0.00039580587
1.6546385e-006 0.00053996162 0.99903601 -0.0069363718 2.4869185e-005 0.0016862918
-2.2671959e-006 0.00040792127 2.1540669e-005 0.0016959442 0.99984282 -0.0030458868
25118.864315096 0.99707812 -0.003535813 1.2339624e-006 0.00059654261 5.8848004e-006 0.00041428622
2.3093751e-006 0.00058292435 0.99897057 -0.0071713259 1.6483602e-005 0.0017940181
3.3267909e-006 0.00040966057 4.4798573e-005 0.001798308 0.99977452 -0.0035152875
26607.250597988 0.9970904 -0.003633914 1.92278e-005 0.00061366364 6.6933294e-006 0.00042740023
8.9231216e-006 0.00061250926 0.99892747 -0.0074539855 8.4062513e-006 0.0018757123
1.5310179e-005 0.0004442856 1.4909735e-005 0.0018816837 0.99999243 -0.0034763946
28183.829312645 0.99703205 -0.0042186407 -1.1686002e-005 0.00064542174 7.605815e-006 0.00048649317
2.5447719e-006 0.00065742969 0.99906719 -0.0079668919 2.305512e-005 0.0019925316
-1.2620808e-005 0.00046205893 2.9436582e-005 0.0020014758 0.99989372 -0.0036412978
29853.82618918 0.99715692 -0.0043849186 2.1428441e-005 0.00070884713 -1.0051891e-007 0.00048745531
8.5002121e-006 0.00069057487 0.99919885 -0.0083874874 3.8014372e-005 0.0021113472
4.0149726e-007 0.00050844793 2.5867454e-005 0.0021035066 0.99984998 -0.0037734567
31622.776601684 0.99704552 -0.0047388342 8.9687001e-006 0.00074270391 1.8444456e-006 0.00052733906
1.3862237e-005 0.00073248363 0.99914986 -0.0090523707 2.8390556e-005 0.0022196025
-1.795543e-005 0.00052230217 2.1319211e-005 0.0022391628 0.99987489 -0.0041107642
33496.543915783 0.99719685 -0.0047966721 1.5452393e-005 0.00079284818 9.2424098e-006 0.00055046543
-1.4871503e-005 0.00078940653 0.99910581 -0.0094757257 3.343889e-005 0.0023521318
1.6807082e-005 0.00054315006 3.2033175e-005 0.0023711573 0.99985135 -0.0042177532
35481.338923358 0.99698085 -0.0050703911 3.811316e-006 0.000824577 -7.0235155e-006 0.00059649773
7.9970814e-006 0.00083822571 0.9990685 -0.0099784993 5.9601301e-005 0.002506193
1.3808032e-005 0.00058386131 5.1053335e-005 0.0025002265 0.99983776 -0.0043352786
37583.740428844 0.99704444 -0.0054402063 2.7991757e-005 0.00084580347 1.4662421e-005 0.0006081902
8.796379e-006 0.00086164149 0.9992097 -0.010518988 3.9869828e-005 0.0026464299
1.519645e-005 0.00062674738 4.0561499e-005 0.0026433994 0.99944884 -0.004480747
39810.71705535 0.99714255 -0.0056150332 2.4003259e-005 0.00090569665 1.9237866e-006 0.0006560008
-2.3768948e-006 0.00090889953 0.99906158 -0.011200074 6.7650653e-005 0.0028259628
2.4101455e-005 0.00066216622 5.34461e-005 0.0028231025 0.99950212 -0.0046763238
42169.650342858 0.99701679 -0.0060659037 -4.9164951e-006 0.00098354765 2.4058254e-005 0.00068952999
1.6515733e-005 0.00098236569 0.99916226 -0.011793005 4.8339247e-005 0.0029819612
2.4176346e-005 0.00068417739 3.4576446e-005 0.0029898693 0.99958575 -0.004942318
44668.359215096 0.99711221 -0.0063912831 6.2903046e-006 0.0010260455 -2.160325e-006 0.00071915099
7.7477398e-006 0.0010434309 0.99918771 -0.012530828 4.6837013e-005 0.0031568236
-1.8392693e-006 0.00072325493 4.7978407e-005 0.0031558119 0.99954963 -0.0051319846
47315.125896148 0.99714965 -0.0067812908 -9.8424116e-006 0.0011122064 -1.9278136e-006 0.00076952868
-4.9681721e-006 0.0011028603 0.99904901 -0.013165808 5.8992071e-005 0.0033310866
5.1784655e-006 0.00076569774 6.2822153e-005 0.0033174155 0.99969524 -0.0054366658
50118.723362727 0.99702275 -0.0071239886 -1.9596143e-006 0.0011483988 -1.1524518e-005 0.00079982937
2.4332076e-005 0.0011598627 0.99912232 -0.014017616 8.6080014e-005 0.003564771
8.2795204e-006 0.00084208202 6.1891529e-005 0.0035443874 0.99947596 -0.0057005165
53088.444423099 0.99700177 -0.0075358516 3.5663343e-005 0.0012315859 4.4048735e-005 0.00087885285
-5.4220563e-006 0.001254151 0.99892199 -0.01483652 7.9381542e-005 0.0037512055
-3.749283e-006 0.00086714863 9.59928e-005 0.0037494297 0.99962085 -0.0058928407
56234.132519035 0.99707925 -0.0081336908 1.5951738e-006 0.0013165994 1.2898612e-005 0.0009130828
9.1181055e-006 0.0013005282 0.99896139 -0.015847852 9.126214e-005 0.0039613112
3.0471341e-005 0.00093389436 6.8877358e-005 0.0039979424 0.99943262 -0.0063176407
59566.214352901 0.99697554 -0.0085348384 9.4602701e-006 0.0013779359 2.6622424e-006 0.00099939317
2.2117571e-005 0.0013903251 0.99885148 -0.016736075 0.00010984695 0.0042020059
2.2067075e-005 0.00098377198 9.7198696e-005 0.0042049275 0.99920917 -0.0066197934
63095.734448019 0.99683917 -0.0090066204 -1.5721953e-005 0.0014576529 2.1457616e-005 0.0010225275
1.7205995e-005 0.0014754947 0.99885935 -0.017760774 0.00010561792 0.0044623553
7.1211985e-006 0.001034409 8.6650158e-005 0.004464359 0.99953973 -0.0069626039
66834.391756861 0.99672478 -0.009404487 2.155336e-005 0.0015551292 2.380184e-005 0.0011132782
4.2503641e-005 0.0015442835 0.99881077 -0.018888691 0.000106851 0.0046908758
1.928159e-005 0.0011013789 0.000117284 0.0047279927 0.99952751 -0.007346957
70794.578438414 0.99689847 -0.0099611869 1.4211711e-005 0.0016615599 3.444844e-005 0.0011607503
1.2906881e-005 0.001635098 0.99863786 -0.019858534 0.00013585654 0.0049531297
1.9531462e-005 0.0011589476 0.00013131596 0.0050266837 0.99926388 -0.0077287443
74989.420933246 0.99690014 -0.010655335 1.1862304e-005 0.0017300085 2.4736148e-005 0.0012363599
3.6537105e-005 0.0017265122 0.99875289 -0.020766752 0.00015124607 0.0052662133
1.3680133e-006 0.0012357034 0.00013772317 0.0052813366 0.99925321 -0.0080074146
79432.823472428 0.99688506 -0.011216077 5.658294e-006 0.001832198 3.6011596e-005 0.0013167412
2.1900063e-005 0.0018423526 0.99851817 -0.022007901 0.00015665063 0.0056016175
3.9474311e-005 0.0013288901 0.00016330612 0.0055670436 0.99911374 -0.0083524054
84139.514164519 0.99691558 -0.011752161 2.7465619e-005 0.0019380167 4.7327925e-005 0.0013893746
3.1307656e-005 0.0019520258 0.99860638 -0.023296623 0.00020511376 0.0059371507
1.5871656e-005 0.0013880496 0.00019136211 0.0059390706 0.99908859 -0.0087648742
89125.093813375 0.99685395 -0.012388731 3.370949e-005 0.002076783 4.1724215e-005 0.0014651211
4.2012158e-005 0.0020475362 0.99851739 -0.024613252 0.00021412311 0.0062646391
3.4581251e-005 0.001459245 0.00022123862 0.0062891995 0.99912435 -0.0092965439
94406.087628592 0.99695903 -0.013094974 3.4589957e-005 0.0021778904 3.9415485e-005 0.0015593215
1.7171482e-005 0.0021895641 0.99857193 -0.025985979 0.00023104191 0.0066240095
3.9248906e-005 0.0015602357 0.00023322584 0.0066428632 0.99915081 -0.0098344432
100000 0.99709356 -0.013954809 1.9944589e-005 0.002317274 3.9192877e-005 0.0016504938
2.1842376e-005 0.0023305689 0.99837834 -0.027604701 0.00025635838 0.0070273308
2.7016918e-005 0.0016510994 0.00027121723 0.0070337527 0.99895388 -0.010289265
105925.37251773 0.99697614 -0.014679673 3.4214903e-005 0.0024504452 2.4293893e-005 0.0017638332
6.4209918e-005 0.0024437977 0.99840569 -0.029305378 0.0003107379 0.0074340473
4.6023859e-005 0.0017386078 0.00030694058 0.0074312035 0.99899077 -0.010895882
112201.8454302 0.99695325 -0.015584432 2.5867525e-005 0.0025841657 5.4559165e-005 0.0018263503
4.8564303e-005 0.0026159317 0.99832028 -0.030852731 0.00031649016 0.0078685433
4.4461929e-005 0.0018500065 0.00034188569 0.0078915162 0.99915403 -0.011419918
118850.2227437 0.99695444 -0.016514566 4.676585e-005 0.0027599724 3.2543292e-005 0.0019951004
2.4327357e-005 0.0027608585 0.99831891 -0.032655936 0.00034036269 0.0083580576
4.5298195e-005 0.0019545238 0.00035282495 0.0083448235 0.99915445 -0.012159385
125892.54117942 0.9969669 -0.017492058 4.6399378e-005 0.0028994302 6.8192479e-005 0.0020802428
5.5896489e-005 0.002932932 0.99840099 -0.034806047 0.00040475803 0.0088612046
5.0769362e-005 0.0020960809 0.0003900358 0.0088296877 0.99917245 -0.012749759
133352.14321633 0.99705124 -0.018461037 5.5495002e-005 0.0031164389 7.5952972e-005 0.0022212435
5.3947369e-005 0.0031042688 0.99820888 -0.036678571 0.00044009244 0.0093627302
7.650011e-005 0.0022107833 0.00043299136 0.0093595404 0.99907285 -0.013424487
141253.75446228 0.99711156 -0.019757885 6.4029882e-005 0.0032854574 9.2805618e-005 0.0023162549
6.8411333e-005 0.0032931785 0.99805915 -0.038988616 0.00048314244 0.0098961806
8.275007e-005 0.0023306771 0.00049063301 0.0099159712 0.99909472 -0.014252283
149623.56560944 0.99680948 -0.020778598 5.5798773e-005 0.0034864496 9.5360345e-005 0.0024509621
7.8905367e-005 0.0034626408 0.99783295 -0.041146904 0.0005389881 0.010449985
9.908725e-005 0.0024513055 0.00052777212 0.010462965 0.99887586 -0.015135106
158489.31924611 0.99697441 -0.022131855 8.8321212e-005 0.0036799684 7.8000223e-005 0.0026061868
5.6524928e-005 0.0036834036 0.99786556 -0.043553043 0.00061793625 0.011090974
0.00010974445 0.0026046429 0.00060177589 0.011084811 0.99890846 -0.015964884
167880.40181226 0.99680984 -0.023430206 9.0193898e-005 0.0039006716 0.00010159332 0.0027596084
8.8435234e-005 0.0039134123 0.99754357 -0.046296321 0.00068049383 0.011715199
0.00010534426 0.0027432146 0.00065290317 0.011705841 0.9990117 -0.017026791
177827.94100389 0.99687076 -0.024711665 0.00011279916 0.0041434616 9.716957e-005 0.0029142033
7.9270758e-005 0.0041450458 0.99743587 -0.049059495 0.000741856 0.012419894
0.00012464405 0.0029237408 0.0007355783 0.01240054 0.9989112 -0.017876085
188364.90894898 0.99668294 -0.026239967 0.00011741713 0.0043847295 0.00012365125 0.0030799066
9.71603e-005 0.0043847454 0.99711645 -0.051911462 0.00084570178 0.013115921
0.00013016291 0.0031143748 0.00083095365 0.013147078 0.99862498 -0.018835578
199526.23149689 0.99649209 -0.027804263 0.00010808024 0.0046287426 0.0001442417 0.0032544842
0.00011605123 0.0046399646 0.99704427 -0.05503919 0.00089989131 0.013839193
0.00012480018 0.0032553824 0.00090252096 0.013891385 0.99856794 -0.020008396
211348.90398366 0.99658167 -0.029485209 0.00012396928 0.0049188649 0.00015666224 0.0034392483
0.0001182148 0.0049255709 0.99691099 -0.057997994 0.0010144067 0.014660288
0.00016008814 0.0034529022 0.0010153406 0.014687927 0.99847186 -0.021297451
223872.11385683 0.99647218 -0.031203311 0.00016621866 0.0052289879 0.00016237196 0.0036465691
0.00016032076 0.0052146884 0.99654734 -0.061631761 0.0011235353 0.015506289
0.00015914066 0.0036446999 0.0011124151 0.015526725 0.99841589 -0.022272943
237137.37056617 0.99655831 -0.032889213 0.00017275084 0.0055429148 0.0002057948 0.0038417787
0.00016413431 0.0055226162 0.99623501 -0.06527742 0.0012409252 0.016404968
0.00017496471 0.0038702588 0.0012120154 0.016405903 0.99823731 -0.02360836
251188.64315096 0.99636024 -0.034831192 0.00019519933 0.0058674454 0.00021133365 0.0040770662
0.00018941576 0.0058801742 0.99591655 -0.069087565 0.0013771468 0.017355943
0.00017983423 0.0040963325 0.0013704305 0.017345885 0.99831152 -0.02499013
266072.50597988 0.9962461 -0.037015688 0.00021925815 0.0062082498 0.00023462945 0.0043100878
0.00020757115 0.0062168906 0.99567312 -0.073134877 0.0015028171 0.018366454
0.00021463074 0.0043255761 0.0014723792 0.018341856 0.99817377 -0.026399553
281838.29312645 0.99608332 -0.039404877 0.00025266557 0.0066038743 0.00024982626 0.0045465287
0.00026505077 0.0065823453 0.9951551 -0.07740581 0.0016823552 0.019392792
0.0002528239 0.0045500365 0.0016672589 0.019400025 0.99803698 -0.027721461
298538.2618918 0.9959709 -0.041648392 0.00030920753 0.0069948891 0.00027387356 0.0048425682
0.00028788066 0.0069674561 0.99490398 -0.081748225 0.0018480127 0.020468716
0.00027317504 0.004845357 0.0018388439 0.020493424 0.99784815 -0.029457703
316227.76601684 0.99580801 -0.044052336 0.00032746422 0.0074179918 0.00027794705 0.0051230597
0.00031776115 0.0073896646 0.99448305 -0.086871095 0.0020052346 0.021680303
0.00030164479 0.005091439 0.0020359755 0.021650067 0.99764079 -0.031102808
334965.43915783 0.99579531 -0.046733964 0.00035358744 0.0078465473 0.00032667466 0.0053844508
0.0003707587 0.0078651141 0.99382603 -0.091819368 0.0022182101 0.022889808
0.00029513333 0.0054083602 0.0022431759 0.022875749 0.99748069 -0.032851424
354813.38923358 0.99551332 -0.049344551 0.00040166834 0.0082982238 0.00032960862 0.0056918943
0.00041491541 0.0083201705 0.99322003 -0.097135127 0.0024297768 0.024153037
0.00034945167 0.0056838165 0.0024375389 0.024181612 0.99746126 -0.034838844
375837.40428844 0.99553227 -0.052191254 0.00047286507 0.0088124555 0.00036367902 0.0060082991
0.00047719147 0.00879623 0.992365 -0.10285993 0.0026950669 0.025516514
0.00038778473 0.006024058 0.002716965 0.02550599 0.99726617 -0.036754537
398107.1705535 0.99528044 -0.055328924 0.00054591446 0.0093364362 0.00039887769 0.0063724662
0.00053417578 0.0093407389 0.99168521 -0.10880612 0.0029592793 0.026948372
0.00040704341 0.0063580167 0.0029824169 0.026973054 0.99692965 -0.038910624
421696.50342858 0.99517769 -0.058614168 0.00061531767 0.0099009182 0.00045065989 0.0067294096
0.00063174585 0.0098882513 0.9910183 -0.11511768 0.003243953 0.028490346
0.00043517191 0.0067287367 0.0032645212 0.028486775 0.99672633 -0.041103791
446683.59215096 0.99491566 -0.062157165 0.00071937253 0.010501657 0.00047868089 0.00709954
0.00069744972 0.0104913 0.99016201 -0.12199631 0.0035645601 0.030068442
0.00046203949 0.0071036825 0.0035671068 0.030090699 0.99642807 -0.043302711
473151.25896148 0.99460858 -0.065855153 0.00080460799 0.011099312 0.00051570829 0.0075105387
0.0008145005 0.011089382 0.98911172 -0.12900844 0.0039096703 0.031778526
0.00053484918 0.0075234971 0.0039259782 0.031791937 0.99624932 -0.045802291
501187.23362727 0.99408686 -0.069592774 0.00093848089 0.011777715 0.00054232095 0.0079593295
0.00093019853 0.011763791 0.98806423 -0.13642228 0.0043151435 0.033567652
0.00056061742 0.0079460749 0.0042985668 0.0335926 0.99598867 -0.048282947
530884.44423099 0.99371535 -0.073817275 0.0010395887 0.012461173 0.00059538765 0.0084235882
0.0010474237 0.01245386 0.98695666 -0.14424969 0.0047214921 0.03542864
0.00060592528 0.0083883032 0.0047546155 0.035490002 0.99573821 -0.050916348
562341.32519035 0.99340552 -0.077897921 0.0011762584 0.01320936 0.00066052191 0.0088534327
0.0011905291 0.013174916 0.98544705 -0.15265448 0.0052202409 0.037441015
0.00066690578 0.0088829091 0.0052216942 0.037432194 0.99546164 -0.054099392
595662.14352901 0.99313349 -0.082454003 0.0013352861 0.013983337 0.0007085033 0.0093830777
0.0013454015 0.013986154 0.98371589 -0.16161861 0.0057055689 0.039496101
0.00071991712 0.0093875919 0.0057351934 0.039534193 0.99498314 -0.057105385
630957.34448019 0.99284917 -0.087405413 0.0015309993 0.014807394 0.00076606701 0.0099139614
0.0015181372 0.014792457 0.98207974 -0.17091006 0.0062637925 0.041703288
0.00076489709 0.0099036805 0.0062908838 0.041733079 0.99458253 -0.060368396
668343.91756861 0.99231315 -0.092432097 0.0017333608 0.01567609 0.0008251869 0.010497694
0.0017388107 0.015670536 0.98010945 -0.18079595 0.0068996237 0.044064246
0.00082444248 0.010500782 0.0069247289 0.044053961 0.99435788 -0.063737832
707945.78438414 0.99172604 -0.097925521 0.0019374435 0.016583597 0.00087874703 0.011089428
0.0019427963 0.01661169 0.97757715 -0.19135675 0.0076037231 0.046492215
0.00090138044 0.011099357 0.0076095294 0.046519246 0.99394035 -0.067451969
749894.20933246 0.99112797 -0.10390971 0.0022025132 0.017546704 0.00095325115 0.011730273
0.0022338231 0.017548012 0.97496593 -0.20197731 0.0083612986 0.049055796
0.00098236627 0.011736704 0.0083891563 0.049084201 0.99329144 -0.071101099
794328.23472428 0.99024695 -0.11003792 0.0024930534 0.018581241 0.0010487867 0.012404233
0.002517795 0.018554578 0.97303474 -0.21296453 0.0091655282 0.051817756
0.0010606609 0.012413217 0.0092099253 0.051837973 0.99279284 -0.075217813
841395.14164519 0.98944914 -0.1161997 0.0028216545 0.019665053 0.0011569022 0.013119533
