!Keysight Technologies,E5080A,MY55100144,A.11.70.03
!Date: Monday, November 13, 2017 17:22:50
!Correction: S11(Full 3 Port(1,2,3)) 
!S12(Full 3 Port(1,2,3)) 
!S13(Full 3 Port(1,2,3)) 
!S21(Full 3 Port(1,2,3)) 
!S22(Full 3 Port(1,2,3)) 
!S23(Full 3 Port(1,2,3)) 
!S31(Full 3 Port(1,2,3)) 
!S32(Full 3 Port(1,2,3)) 
!S33(Full 3 Port(1,2,3)) 
!S3P File: Measurements: <S11,S12,S13>,
!<S21,S22,S23>,
!<S31,S32,S33>:Log Frequency Sweep
# Hz S  RI   R 50
10000 0.99672407 -0.0013884181 -8.2860724e-006 0.0002552956 -2.804681e-005 0.0001498254
1.644748e-005 0.00026553997 0.99894822 -0.0037140471 1.0951811e-006 0.00070472294
9.8263654e-006 0.00015072875 -2.4956556e-005 0.00070061517 0.99980026 -0.0024275815
10592.537251773 0.99682021 -0.0016087082 -1.3030477e-005 0.00026418112 2.3527229e-005 0.00018160383
-1.807449e-005 0.00029072532 0.99868828 -0.0035121818 -1.5808369e-005 0.00074799848
1.6475811e-006 0.00016847685 1.3626944e-005 0.00074808346 0.99999559 -0.0023169245
11220.18454302 0.99706686 -0.0015540915 -1.158222e-007 0.00030267195 6.2530848e-006 0.0001811875
1.0604268e-006 0.00029284207 0.99889946 -0.0037030873 -2.2634533e-005 0.0007816751
-8.3415007e-006 0.0001731511 2.0507479e-005 0.00079169386 1.0001017 -0.0022580421
11885.02227437 0.99692118 -0.0019311502 7.3798401e-006 0.00030567168 6.9029238e-007 0.00022081842
6.8152667e-006 0.00031557897 0.99885607 -0.0038809136 1.8534522e-005 0.00086213002
3.2291093e-006 0.00020975387 6.2231898e-006 0.00084410695 1.000059 -0.0022498046
12589.254117942 0.99705964 -0.0019213986 1.8073255e-006 0.00035788812 2.0918493e-005 0.00020824021
1.7998724e-005 0.00032782662 0.99903488 -0.0041876025 2.996297e-005 0.00090298092
-1.3381613e-006 0.00020957366 1.8143348e-005 0.00087267562 1.0000821 -0.0023694215
13335.214321633 0.99718416 -0.0020636849 2.1454834e-005 0.00036455365 -2.2765807e-005 0.00024146163
-8.7389714e-007 0.00036781974 0.99887383 -0.0043900153 -8.6818852e-007 0.00093585427
2.9223449e-006 0.00021501619 9.692606e-006 0.00094746216 0.99996829 -0.0024546785
14125.375446228 0.99698222 -0.0022308649 5.4298503e-006 0.00039348277 -2.290727e-005 0.0002504705
-1.0506884e-005 0.00038467636 0.99899912 -0.0045822593 -1.6241491e-006 0.0010084248
-1.0745654e-006 0.00023187303 -1.2517021e-005 0.001002797 1.0000089 -0.0024758005
14962.356560944 0.99695301 -0.0022848246 3.5404057e-006 0.00040496269 1.5263452e-006 0.00023486069
1.6636013e-005 0.00041009876 0.99908304 -0.00469208 2.8428729e-005 0.0010507501
-6.7019141e-006 0.00024549241 1.4909401e-005 0.0010713028 1.0001284 -0.0026193392
15848.931924611 0.99729007 -0.0025271105 -2.7668584e-006 0.0004288085 5.2788964e-006 0.00025603108
-1.1115346e-005 0.0004251278 0.99896455 -0.0049130959 1.6019501e-005 0.0011211914
2.1884427e-006 0.00025219374 2.2231037e-005 0.001118423 1.000069 -0.002577862
16788.040181226 0.9969992 -0.0026784288 7.3709466e-006 0.0004534153 2.26061e-005 0.00027473929
-8.9069281e-006 0.00044482911 0.9989543 -0.0052140681 1.9174015e-005 0.0011831046
-1.1071846e-005 0.00026391092 3.5135941e-005 0.0011907014 0.99995667 -0.0028165167
17782.794100389 0.99723905 -0.0026015439 -1.9679279e-005 0.00047971492 9.586196e-006 0.00028946283
1.479239e-005 0.00048377292 0.99904972 -0.0054505877 2.7498138e-005 0.0012431117
4.5782763e-006 0.00028982823 2.1801887e-005 0.00128573 1.0000854 -0.0026646613
18836.490894898 0.99712777 -0.0027622094 -4.7590202e-006 0.00052397134 9.1768579e-006 0.00030338319
9.5783726e-006 0.00050967344 0.99917066 -0.0055986438 6.2902714e-006 0.0013395363
4.1627013e-007 0.00031274685 3.792475e-005 0.0013323082 0.99984795 -0.0027725392
19952.623149689 0.99704373 -0.0029932987 5.1079892e-006 0.00053813471 1.0145742e-005 0.00032825588
4.9595651e-006 0.00053990301 0.99908876 -0.0059048347 1.9029098e-005 0.0014097312
1.394909e-005 0.00032743943 2.451521e-005 0.001400521 1.0000308 -0.0029945557
21134.890398366 0.99711841 -0.003175484 9.1094907e-006 0.00058871758 -4.6809118e-006 0.00034134759
8.8113637e-007 0.00055876386 0.99910319 -0.0062021748 9.2319515e-006 0.0014988671
9.9256931e-006 0.00036105653 4.1179796e-005 0.0014989037 0.99978423 -0.0030649186
22387.211385683 0.99692583 -0.0034312021 7.5583384e-006 0.00061680964 8.6410846e-006 0.00038931135
1.0524666e-005 0.00061439123 0.99921137 -0.0065150345 1.9697813e-005 0.0015866189
4.1461931e-006 0.00036005408 1.8191557e-005 0.0015921372 0.99985665 -0.0032363429
23713.737056617 0.99703026 -0.0036545845 5.4839188e-006 0.00061787508 4.0799919e-006 0.00039343737
1.2158888e-005 0.00062870525 0.99926966 -0.0069193756 5.7531684e-006 0.0016866648
1.2565678e-005 0.00038904184 2.3386581e-005 0.0016835181 0.99973488 -0.0030931605
25118.864315096 0.99719834 -0.0038444088 -9.9780891e-006 0.0006826506 7.2592284e-006 0.00040506519
1.2399901e-005 0.00067838642 0.99901897 -0.0072963489 3.3481316e-005 0.0017683139
2.6405562e-006 0.00042114331 1.962134e-005 0.0017793782 0.99980527 -0.0034158037
26607.250597988 0.99706769 -0.0039453823 1.3798614e-005 0.00070352957 1.331795e-006 0.0004405333
-1.2134125e-005 0.00071742304 0.99913931 -0.0077464217 2.6683114e-005 0.001881151
-5.458015e-006 0.00043312914 1.3134816e-005 0.0019041682 0.99989253 -0.0034690488
28183.829312645 0.99699199 -0.0042889412 1.9809135e-005 0.00071976776 1.133044e-005 0.0004669957
-4.5597681e-006 0.00075840217 0.99915689 -0.0081829177 4.0960251e-005 0.0019880587
-5.9580116e-006 0.00044658 1.86656e-005 0.0019989987 0.99984348 -0.0036126925
29853.82618918 0.99716371 -0.0046029193 1.6852493e-005 0.00082006748 -2.9946614e-006 0.0004832976
1.7878156e-005 0.00079897273 0.99923223 -0.0084452443 2.3808868e-006 0.0021280083
-2.804401e-006 0.00047148953 2.0672009e-005 0.002123432 0.99998224 -0.0036121262
31622.776601684 0.99698341 -0.0047602681 7.6616179e-006 0.00084513857 1.4432816e-005 0.00052527984
1.133746e-005 0.00085030799 0.99902749 -0.0091093853 2.5760437e-005 0.0022582072
-2.0699204e-006 0.00051858288 2.4559506e-005 0.0022436157 0.99980044 -0.0042013563
33496.543915783 0.9970395 -0.0050129597 -1.211292e-006 0.0009072221 3.2136525e-006 0.00054275233
-1.5188369e-006 0.00090287131 0.99920762 -0.0097014084 2.7803788e-005 0.0023606962
1.0588191e-005 0.00054508058 5.3062766e-005 0.0023708276 0.99973774 -0.0041665365
35481.338923358 0.99699891 -0.0051945881 1.3047657e-005 0.00096144597 -9.0963789e-007 0.00059433683
1.6287999e-005 0.00096709927 0.99920231 -0.010105374 4.147955e-005 0.0025262039
8.8170773e-006 0.00059838791 5.2352199e-005 0.0025307436 0.99973351 -0.00419136
37583.740428844 0.9970957 -0.0056624915 -8.7851249e-006 0.00099880109 4.3276764e-006 0.00061713712
1.4179377e-005 0.0010269535 0.99919188 -0.010687672 3.9527211e-005 0.0026752197
8.5297124e-006 0.00060467294 3.7370271e-005 0.0026579876 0.99969083 -0.0046080225
39810.71705535 0.99704695 -0.0060390462 1.5430329e-005 0.0010604918 -1.1034761e-006 0.00064786104
8.5538259e-006 0.0010622905 0.99907154 -0.011341073 4.411308e-005 0.002827853
2.7222788e-005 0.00065977633 5.2896186e-005 0.0028414782 0.99950916 -0.0046942569
42169.650342858 0.99693263 -0.0062139155 6.4146907e-006 0.0011208497 2.3981977e-006 0.00071437017
1.9007561e-005 0.0011252555 0.99920666 -0.011920478 4.7574187e-005 0.0029937492
2.1347416e-005 0.00069109251 6.1868508e-005 0.0029867541 0.99957442 -0.005015621
44668.359215096 0.99713206 -0.0066392804 3.8174558e-006 0.0011925761 8.0431046e-006 0.00074299122
1.4833423e-005 0.0012061161 0.99917281 -0.01270336 7.0043039e-005 0.0031651442
-2.77703e-006 0.00073351356 4.9971721e-005 0.003177946 0.99940693 -0.0052807508
47315.125896148 0.99716723 -0.0070065889 3.2048541e-005 0.0012734096 1.0922477e-005 0.00076872425
7.0159131e-006 0.0012592992 0.99904597 -0.013458277 6.3728607e-005 0.0033456467
-7.3552478e-006 0.00077692507 5.0603223e-005 0.0033358061 0.99951118 -0.0052904794
50118.723362727 0.99710959 -0.0075676674 2.175326e-005 0.0013402273 1.710196e-005 0.00082018564
2.4761752e-005 0.0013369371 0.99911809 -0.014197217 7.9405945e-005 0.0035343845
6.7967812e-006 0.00082442723 6.7409062e-005 0.0035515002 0.99939293 -0.0056696907
53088.444423099 0.99700016 -0.0078807659 1.4484235e-006 0.0014214874 2.3867557e-005 0.00087191828
3.5344908e-006 0.0014151111 0.99896902 -0.015069162 0.00010916236 0.0037632205
2.3516342e-005 0.00085560902 7.3543932e-005 0.0037774595 0.9995116 -0.0060258163
56234.132519035 0.99705929 -0.0084575545 1.0537916e-005 0.0015201867 3.1348121e-005 0.00092797168
3.3584507e-005 0.0014973765 0.9989959 -0.016091509 0.00010040856 0.0040030167
1.4466684e-005 0.00091598049 9.5244242e-005 0.0039685681 0.99947643 -0.0062606786
59566.214352901 0.99704874 -0.0088760536 -2.7028427e-006 0.0015846647 1.5821763e-005 0.00097261864
2.1183059e-005 0.0015990289 0.99894744 -0.016833376 0.00011199184 0.0042312485
1.9040501e-005 0.00098081701 0.00010216783 0.0042112721 0.99924219 -0.0065814392
63095.734448019 0.99694705 -0.009409003 5.2961727e-006 0.0017003017 1.0634954e-005 0.0010339356
-7.4119744e-006 0.0016794257 0.99899417 -0.018006427 0.00012517197 0.0044826115
2.543602e-005 0.0010326749 0.00010753908 0.0044563292 0.99940914 -0.0069942814
66834.391756861 0.99687165 -0.0098418733 3.0387149e-005 0.0017945506 2.123195e-005 0.0011137403
3.0269439e-005 0.0017862649 0.99889266 -0.019090895 0.00012495265 0.0047276919
1.3843605e-005 0.0010849334 0.00012235038 0.0047361655 0.99939674 -0.0074213329
70794.578438414 0.99685293 -0.010479217 -9.4460098e-008 0.0019017232 2.2711696e-005 0.0011574841
1.8013961e-005 0.0019143341 0.99864483 -0.02012275 0.00013430265 0.0050089275
1.4910383e-005 0.0011676397 0.00014350233 0.0050111897 0.99918473 -0.0077564125
74989.420933246 0.99682081 -0.011149599 5.0880539e-005 0.0020107862 2.2651095e-005 0.0012202302
2.1547041e-006 0.0019923609 0.9986735 -0.021210561 0.0001731543 0.0052975733
5.7476092e-005 0.0012262537 0.00013817489 0.0052977572 0.99924004 -0.0080233794
79432.823472428 0.99685889 -0.01164492 1.2502954e-006 0.0021165065 2.2539991e-005 0.0013006432
4.1342046e-005 0.0021354354 0.99868351 -0.022472294 0.000186923 0.005597699
4.780987e-005 0.0013122627 0.00019537215 0.0055926931 0.99910569 -0.0084966347
84139.514164519 0.99688029 -0.012332411 5.3733405e-005 0.0022466066 3.5861711e-005 0.0014030845
3.6142985e-005 0.0022569536 0.99861509 -0.023577338 0.00018012637 0.0059383535
2.1785447e-005 0.0013835039 0.00019831368 0.0059229224 0.99903244 -0.0088263452
89125.093813375 0.99685574 -0.012936586 1.2380321e-005 0.0023829027 2.1855034e-005 0.0014650479
2.5269777e-005 0.0023635344 0.99857533 -0.024880711 0.00019761291 0.0062924442
1.9529467e-005 0.0014432402 0.00022670493 0.0062567093 0.999116 -0.0093931379
94406.087628592 0.99690932 -0.013871159 5.2866399e-005 0.0025241792 3.1280157e-005 0.0015515606
3.3182292e-005 0.0025278858 0.99854052 -0.026463317 0.00022369499 0.0066628526
5.1438652e-005 0.0015329502 0.00021408609 0.006655674 0.99899888 -0.0098782619
100000 0.99704027 -0.014537574 3.8452017e-005 0.0026742937 2.3215001e-005 0.0016156692
1.847541e-005 0.0026647744 0.99842983 -0.02807734 0.00024964474 0.0070512746
3.6269939e-005 0.0016183926 0.00025549828 0.007048965 0.99903119 -0.010285007
105925.37251773 0.99702013 -0.015563698 4.0657247e-005 0.0028302141 5.8436362e-005 0.0017209746
2.5248299e-005 0.0028299077 0.9984532 -0.029759459 0.00029847733 0.0074512502
2.9545765e-005 0.0017296452 0.00028421142 0.0074597723 0.99899668 -0.010814336
112201.8454302 0.99692392 -0.016367665 6.0259685e-005 0.0029954785 4.0331954e-005 0.0018241465
5.8748596e-005 0.0030097398 0.99841005 -0.031236846 0.00031826127 0.0079051657
4.7910657e-005 0.0018287556 0.00030576944 0.0078997705 0.99901593 -0.011635819
118850.2227437 0.99698597 -0.01734544 4.52903e-005 0.003177949 5.650345e-005 0.0019406299
4.8053713e-005 0.0031904383 0.99833989 -0.03317339 0.00034588258 0.0083795944
6.3390813e-005 0.0019303589 0.0003467403 0.0083457325 0.99912316 -0.012105041
125892.54117942 0.99700141 -0.018216055 5.7351728e-005 0.0033670221 9.4142e-005 0.002052349
5.6189194e-005 0.0033643714 0.99829286 -0.035189729 0.00039012457 0.0088618221
6.4099455e-005 0.0020554368 0.00039363565 0.0088327387 0.99906838 -0.012762825
133352.14321633 0.99704009 -0.01944785 6.3122257e-005 0.0035701483 6.3915119e-005 0.0021812497
8.4112457e-005 0.0035785669 0.99821174 -0.037419964 0.000429587 0.0093729179
6.12566e-005 0.0021658977 0.00043396952 0.0093699461 0.99907428 -0.013415959
141253.75446228 0.99696666 -0.020594388 6.8327106e-005 0.0037723868 7.349033e-005 0.0022972282
9.4694398e-005 0.0037828991 0.99811023 -0.039589822 0.00047123534 0.0099121612
7.6988399e-005 0.0022843028 0.00049033103 0.0099206045 0.99898976 -0.014256249
149623.56560944 0.99694008 -0.021941733 7.3971547e-005 0.0040254239 8.3412466e-005 0.0024537044
6.924614e-005 0.0040122913 0.99800318 -0.041887194 0.00054492848 0.010473581
6.6407185e-005 0.0024317084 0.00053700199 0.010499979 0.99892914 -0.015285777
158489.31924611 0.99691236 -0.023210024 0.00010277696 0.0042452998 8.0658821e-005 0.0025839023
0.00011855693 0.0042487998 0.99783581 -0.044184215 0.00060588622 0.011104483
7.9569319e-005 0.0025614591 0.00060272479 0.011090052 0.99869442 -0.015943004
167880.40181226 0.99675107 -0.024525797 0.00011289083 0.0044863294 8.7034954e-005 0.0027233814
6.9257803e-005 0.0044989134 0.99745125 -0.046903443 0.00067763217 0.011733027
8.2246806e-005 0.0027188768 0.00067325262 0.011742825 0.99895996 -0.01697938
177827.94100389 0.99670249 -0.02591816 0.00010205933 0.0047886479 8.4723921e-005 0.002869868
0.00013301414 0.0047695925 0.99751896 -0.049770523 0.00073375675 0.012403479
9.2814727e-005 0.0028844434 0.00073729915 0.012416181 0.99872303 -0.017933359
188364.90894898 0.99659634 -0.027455261 0.00011781236 0.0050603449 0.00012537891 0.0030399873
0.00014315591 0.0050684866 0.9972772 -0.052583888 0.00084219262 0.013141296
0.00012281703 0.0030216866 0.00083492586 0.013161699 0.99847496 -0.018970303
199526.23149689 0.99639624 -0.029145228 0.00016609298 0.0053767427 0.00012258317 0.0032150801
0.00015838385 0.0053611165 0.99717277 -0.055687804 0.00091645541 0.01389334
0.00014165862 0.0032247868 0.00093787769 0.013917919 0.99867171 -0.02007929
211348.90398366 0.99651015 -0.030952446 0.00017419179 0.0056952462 0.00016629709 0.0034117161
0.00016483622 0.0056682006 0.99673229 -0.058966149 0.0010479133 0.014662823
0.00015739998 0.003406741 0.0010336429 0.014677957 0.99842459 -0.02104868
223872.11385683 0.99638724 -0.032635387 0.00016210444 0.0060139941 0.00015033426 0.0035943077
0.00021417733 0.0059961374 0.9965874 -0.062531978 0.0011231734 0.015570182
0.00014546179 0.0036039071 0.0011318226 0.015545417 0.99835551 -0.022325672
237137.37056617 0.99631923 -0.03456467 0.0002121884 0.0063710175 0.00018260218 0.0038113336
0.00021765164 0.0063644727 0.99611557 -0.066317499 0.001247876 0.016404903
0.00017316896 0.003806008 0.0012163444 0.01644521 0.99816394 -0.02362169
251188.64315096 0.99647504 -0.036688872 0.00022561988 0.0067591709 0.00019595708 0.0040604952
0.00026253864 0.0067461017 0.99609756 -0.070180841 0.0013819608 0.017378386
0.00019350419 0.0040376573 0.0013961697 0.01737994 0.99826771 -0.025154663
266072.50597988 0.99623245 -0.038812906 0.00028791817 0.0071723168 0.00018570383 0.0042722099
0.0003030237 0.0071425629 0.99573207 -0.074140221 0.0015202704 0.018368954
0.00021565535 0.0042608874 0.0014944763 0.018385258 0.99811101 -0.026414312
281838.29312645 0.99602664 -0.041258682 0.00030248365 0.007599357 0.00021915259 0.0045208642
0.00031062425 0.0075769755 0.99517214 -0.078419141 0.0016719126 0.019402321
0.0002331921 0.0045099789 0.0016889214 0.019408273 0.99805444 -0.027747506
298538.2618918 0.99580228 -0.043549694 0.0003540394 0.0080329152 0.00023976222 0.0047554127
0.00037010948 0.0080372365 0.99480641 -0.082981877 0.0018430275 0.020511284
0.00025763316 0.00476345 0.0018549328 0.020524386 0.99769998 -0.029553536
316227.76601684 0.99579144 -0.046111342 0.00039330579 0.0085009336 0.00026472879 0.0050340528
0.00040238767 0.0085183317 0.99429864 -0.088019818 0.0020521656 0.02167446
0.0002909434 0.0050572413 0.0020443124 0.021647818 0.99775887 -0.031163067
334965.43915783 0.99571276 -0.048932668 0.00047045905 0.0090198675 0.00029281157 0.0053193909
0.00047295162 0.0090066977 0.99379021 -0.093123905 0.002248778 0.022890581
0.00030835811 0.0053359056 0.0022274395 0.022907402 0.99756241 -0.032857332
354813.38923358 0.99549538 -0.051676176 0.00053044595 0.0095749525 0.00032734688 0.0056518512
0.00052921334 0.0095581645 0.99314445 -0.09850958 0.0024532736 0.024190435
0.0003252571 0.005641392 0.0024886173 0.024210008 0.99730653 -0.034796521
375837.40428844 0.99543095 -0.054671474 0.00061975146 0.010147854 0.00036070368 0.0059075733
0.00062544155 0.01014834 0.99235803 -0.10435244 0.0027381692 0.025569102
0.00035689495 0.0059736706 0.002705226 0.025565026 0.99725324 -0.036825489
398107.1705535 0.99513727 -0.057830002 0.00069021602 0.010733115 0.00040540521 0.0062963939
0.00068279193 0.010742313 0.99160433 -0.11049311 0.0030129268 0.026957223
0.00039021001 0.0062901098 0.0029803605 0.027007528 0.99683189 -0.038968831
421696.50342858 0.99500263 -0.061432362 0.00076782046 0.01139493 0.00040181028 0.0066597871
0.00077879347 0.011383655 0.99066824 -0.11684979 0.0032771463 0.028496986
0.00044146128 0.0066580758 0.003268234 0.028509399 0.99683166 -0.041075863
446683.59215096 0.99471223 -0.065149516 0.0008823449 0.012050997 0.0004562574 0.0070308051
0.00086043536 0.01206862 0.98988348 -0.12368411 0.003611516 0.030112863
0.00045713043 0.0070164194 0.003616068 0.030127659 0.99635303 -0.043309636
473151.25896148 0.99440515 -0.068921655 0.00098381471 0.012790596 0.00048901478 0.0074371244
0.0010052336 0.01279054 0.98884559 -0.13077618 0.0039571393 0.031826567
0.00051149586 0.0074327458 0.0039672828 0.031811524 0.99625748 -0.045782372
501187.23362727 0.99380261 -0.073165372 0.0011503793 0.013510107 0.00052243611 0.0078757787
0.0011562333 0.013519189 0.98783141 -0.13845529 0.0043622619 0.033585686
0.00053951785 0.0078523923 0.0043474673 0.033601519 0.99592501 -0.048281599
530884.44423099 0.9934361 -0.077286147 0.0012990859 0.014342904 0.00058624975 0.0082914876
0.0012904211 0.014335054 0.98666435 -0.14626418 0.0047664614 0.035488598
0.00060412672 0.0083315326 0.0047992556 0.035515305 0.99582404 -0.051082499
562341.32519035 0.99322009 -0.081750788 0.0014582507 0.015170694 0.00062173395 0.0087579722
0.0014714006 0.015184558 0.98497021 -0.15504289 0.0052426504 0.037479028
0.00061829726 0.008799566 0.00527529 0.037474439 0.9953236 -0.054021269
595662.14352901 0.99276268 -0.08640413 0.0016797561 0.016056539 0.00066821795 0.0092660775
0.0016605846 0.01606784 0.98335266 -0.16394562 0.0057499199 0.039548669
0.00067521364 0.009287334 0.0057635265 0.039553288 0.99497336 -0.057067219
630957.34448019 0.99248177 -0.091547318 0.0018582323 0.017026857 0.00070396031 0.0098317275
0.0018848039 0.017012415 0.9816342 -0.17345722 0.0063313865 0.041763641
0.00075279467 0.0098263491 0.0063556135 0.041770756 0.99463379 -0.060446057
668343.91756861 0.99179769 -0.096989907 0.0021205072 0.018012034 0.00079455919 0.010397055
0.0021148988 0.017988009 0.97956091 -0.18342373 0.0069546159 0.044090606
0.00079673185 0.010396419 0.0069740377 0.044113308 0.99441141 -0.06372188
707945.78438414 0.99137074 -0.10261706 0.0024013435 0.019050285 0.00082625565 0.010957175
0.0024070169 0.019066555 0.9769631 -0.19417797 0.0076675713 0.046539497
0.00084743055 0.01098738 0.007681231 0.046539858 0.99374723 -0.067340657
749894.20933246 0.99049133 -0.10886604 0.0027226403 0.020134086 0.00092393183 0.011602168
0.0026902317 0.020153983 0.97424698 -0.20512752 0.0084384587 0.049083166
0.00093033572 0.011623136 0.0084570711 0.04913833 0.99325675 -0.071302317
794328.23472428 0.98947787 -0.11530239 0.0030600771 0.021327538 0.0010161786 0.012303527
0.0030527194 0.021290725 0.97232586 -0.2161795 0.0092655672 0.051825985
0.0010122872 0.012298124 0.0092718303 0.051850617 0.99271977 -0.075268127
841395.14164519 0.98868144 -0.12168715 0.0034435329 0.022513729 0.0010839383 0.012977122
