!Keysight Technologies,E5080A,MY55100144,A.11.70.03
!Date: Monday, November 13, 2017 17:26:01
!Correction: S11(Full 3 Port(1,2,3)) 
!S12(Full 3 Port(1,2,3)) 
!S13(Full 3 Port(1,2,3)) 
!S21(Full 3 Port(1,2,3)) 
!S22(Full 3 Port(1,2,3)) 
!S23(Full 3 Port(1,2,3)) 
!S31(Full 3 Port(1,2,3)) 
!S32(Full 3 Port(1,2,3)) 
!S33(Full 3 Port(1,2,3)) 
!S3P File: Measurements: <S11,S12,S13>,
!<S21,S22,S23>,
!<S31,S32,S33>:Log Frequency Sweep
# Hz S  RI   R 50
10000 0.99459857 -0.00564405 1.0171869e-005 8.7804692e-006 1.0141483e-005 0.00012390956
6.3969733e-006 3.3636782e-006 0.47080916 -0.87591869 2.7771318e-006 -8.6423261e-006
-1.8777941e-006 0.00012873748 -7.0295127e-006 -1.8210123e-005 0.99972945 -0.00225561
10592.537251773 0.99476969 -0.0059396229 6.9494008e-006 2.0651325e-009 2.1909711e-006 0.00012128184
-1.0040715e-005 1.0760579e-005 0.42576635 -0.89841849 3.5508845e-006 6.1680903e-006
1.2284118e-005 0.00014084883 6.4760443e-006 3.4179393e-006 0.99984908 -0.0024989233
11220.18454302 0.99487549 -0.0063738683 -2.0896416e-005 -1.2204172e-005 1.5142682e-005 0.00015950168
-1.5969792e-005 6.1312389e-006 0.37749374 -0.91918904 8.906266e-006 -9.5850037e-006
5.1282673e-006 0.00011769057 1.9571458e-005 -1.1790532e-005 0.99998152 -0.0024919624
11885.02227437 0.99470049 -0.0066569932 1.3535609e-005 9.0331068e-006 1.0285284e-005 0.00016957099
4.8183952e-006 6.1023802e-006 0.327795 -0.93799168 7.7419054e-006 -1.1178481e-005
-9.8472847e-006 0.00015462823 -1.8751794e-006 -2.6832404e-006 0.99984187 -0.0023778523
12589.254117942 0.99480641 -0.0070297094 1.7744956e-006 1.146546e-005 -6.772188e-006 0.00015869406
5.9889599e-006 7.5999983e-006 0.27627954 -0.95407444 2.0290188e-006 1.1803542e-005
-6.6841721e-006 0.00015651208 -5.2113245e-007 -6.7033164e-007 1.0001093 -0.0024883302
13335.214321633 0.99492675 -0.0073562814 5.8690648e-006 3.5470682e-006 -1.0918328e-005 0.00015229254
7.0486121e-006 -9.3466242e-006 0.22300896 -0.96796453 -7.7039476e-006 1.715598e-005
-1.6884587e-005 0.00019699539 1.3588776e-005 9.4103818e-008 0.99979478 -0.0025028377
14125.375446228 0.99489266 -0.0078545874 1.3282885e-005 -4.540073e-006 -1.5132798e-005 0.00015702163
-5.6859117e-006 2.0003415e-006 0.16821069 -0.97846502 2.2007678e-006 -7.7889063e-006
3.4394907e-006 0.00019925933 -1.5226639e-005 5.900145e-006 1.0000643 -0.0024294478
14962.356560944 0.99462098 -0.0082876869 -2.7290339e-006 5.4972911e-006 -2.0552012e-005 0.0001970525
-1.5096066e-005 -6.7462424e-006 0.11262769 -0.98680866 -6.2435306e-006 7.5901594e-006
5.752795e-006 0.00017667229 1.3095584e-005 -1.6630238e-005 0.99999034 -0.0025059232
15848.931924611 0.99484539 -0.0088867713 -1.2692899e-005 9.4959942e-006 3.2059584e-006 0.00019209339
-3.7506145e-006 -9.3080271e-006 0.055866446 -0.99129266 6.9265348e-006 -1.4443665e-006
-4.5304532e-006 0.00017730304 4.8618112e-006 -1.4188701e-006 1.0002033 -0.0026192595
16788.040181226 0.99482536 -0.0093608778 2.0185687e-005 4.0235154e-006 -1.0877848e-005 0.00020169978
2.3803939e-006 -9.0353533e-006 -0.00071120472 -0.99261069 1.2752737e-005 3.3196859e-006
8.1604157e-006 0.00022974514 8.5359798e-006 1.1388123e-005 0.99996579 -0.0028498885
17782.794100389 0.99479991 -0.0096629187 -3.0214744e-005 -4.8385523e-006 -9.8236187e-006 0.00021087605
7.40223e-006 5.8520741e-006 -0.057611793 -0.99070007 4.2076022e-006 -1.5774485e-005
-2.2822403e-006 0.00023170048 2.6551675e-006 5.8004716e-006 1.000008 -0.0027759538
18836.490894898 0.99479216 -0.010259561 -4.4420622e-006 9.4362676e-006 -2.5444419e-006 0.0002252683
1.9099793e-005 9.7283455e-006 -0.11408871 -0.98577082 9.336738e-006 -1.3937774e-006
-1.3227684e-005 0.00024441769 2.2650534e-006 3.278461e-005 0.99983197 -0.0027990532
19952.623149689 0.99480045 -0.010835054 -1.0866539e-005 1.887044e-005 1.6582344e-005 0.00024041366
-9.9976287e-006 5.2220071e-006 -0.16968764 -0.97772568 -4.3868381e-006 1.0004438e-005
9.6979375e-006 0.00023269458 7.4113368e-006 7.8427511e-006 0.99972278 -0.0028786273
21134.890398366 0.99481302 -0.011575207 1.3197867e-006 -2.614808e-005 1.3758748e-005 0.00027173694
-5.1614961e-006 3.3613351e-006 -0.22430016 -0.96670091 -7.772599e-006 1.1176128e-005
-1.491518e-005 0.00025130875 -7.1552095e-006 1.9871111e-005 0.99965078 -0.0030266421
22387.211385683 0.99468738 -0.012230258 -1.6619135e-005 2.4037641e-007 -2.1055848e-005 0.00028464152
1.4472067e-006 1.0316565e-005 -0.277365 -0.95274746 6.1799383e-006 9.1026641e-006
-1.3272053e-006 0.00026586608 2.255471e-005 9.5522028e-006 0.9999302 -0.0031712838
23713.737056617 0.99468672 -0.012963803 -4.5423022e-007 2.621035e-006 1.8326824e-005 0.00029437736
-1.3186575e-005 -1.5160599e-005 -0.32901523 -0.93603468 4.4430312e-006 9.0834965e-006
1.902119e-005 0.00030742932 -8.9558245e-007 -8.2397646e-006 0.99963951 -0.0031514624
25118.864315096 0.9946993 -0.01359645 -8.1907447e-006 1.90351e-005 5.7889188e-006 0.0003170046
1.994224e-007 5.5349747e-006 -0.37858042 -0.91726327 7.0613723e-006 -8.1799129e-007
1.8974717e-005 0.00028243716 1.9435463e-008 2.9954337e-005 0.9999311 -0.0033242095
26607.250597988 0.99467897 -0.01452112 4.4979483e-006 -1.2199008e-005 -1.4379415e-005 0.0003321277
-1.2784715e-006 -3.5308406e-007 -0.42611867 -0.89631796 -7.9330312e-006 1.4938688e-005
3.2921154e-005 0.00032401332 1.9049407e-005 6.3306102e-006 0.9998731 -0.0034362855
28183.829312645 0.99490023 -0.015492833 -2.6714538e-006 -1.9628491e-005 -7.6252427e-006 0.00035309547
-4.6364498e-006 4.3821117e-007 -0.47160178 -0.8733834 3.1195198e-006 -8.3077048e-006
-9.1838365e-006 0.00035634814 3.8323947e-006 -7.0453711e-006 0.99995905 -0.0035450615
29853.82618918 0.99484801 -0.016296877 -7.2351745e-006 4.4229357e-005 1.2453299e-005 0.0003753936
-1.9161227e-005 -2.2036156e-006 -0.51442778 -0.84878051 8.9813411e-006 -4.1145131e-007
-1.6202046e-005 0.00037460247 2.3145285e-006 5.9166123e-006 0.99995637 -0.0036930956
31622.776601684 0.99464482 -0.017356172 -9.3920562e-006 3.1773347e-005 1.2485016e-005 0.00042465256
-1.9080808e-006 1.6040227e-006 -0.55458963 -0.82314044 1.9278414e-006 6.1851409e-007
-3.5322103e-006 0.00040534139 -1.2977227e-005 3.7745262e-006 0.99983042 -0.0040856446
33496.543915783 0.99474394 -0.018074527 -1.3786479e-005 -3.1168606e-006 2.1169484e-005 0.00040300135
6.0808352e-006 8.5493657e-006 -0.59241813 -0.79633713 9.8680857e-006 8.2015795e-006
1.3564464e-005 0.00042616815 7.807681e-006 7.9533411e-006 0.99969596 -0.0040024449
35481.338923358 0.99455792 -0.019250453 -3.7560667e-008 2.9508228e-006 1.4153055e-005 0.00045547527
7.8962958e-006 3.7910752e-006 -0.62805575 -0.76865941 -7.8375369e-006 1.0146717e-005
-5.4444486e-006 0.00044679191 -1.0075272e-005 -4.0488085e-006 0.99970829 -0.0041582854
37583.740428844 0.99455345 -0.020370666 1.2712825e-005 -8.5813272e-006 -1.7962474e-006 0.00045357161
4.6064642e-006 4.2154234e-006 -0.66100013 -0.74063945 -1.4418006e-006 5.7552247e-006
2.2435413e-005 0.00045417855 -3.5449564e-005 -1.4023134e-006 0.99962628 -0.0041987719
39810.71705535 0.99458265 -0.02159524 -5.5725491e-006 4.610205e-006 1.6262131e-005 0.00049471523
-1.7555441e-005 9.3791268e-006 -0.69156468 -0.71244109 2.0877853e-006 -9.7638258e-007
-4.5342999e-006 0.00049485557 6.5991813e-008 -7.2050793e-006 0.99959445 -0.0046644895
42169.650342858 0.99448228 -0.022844512 1.356408e-005 -6.0820453e-006 -3.1553191e-006 0.00052071584
-1.1699535e-006 9.6826261e-006 -0.71978462 -0.68419415 4.7848625e-006 1.2216618e-005
1.2058899e-005 0.00052994984 1.7635402e-005 1.5983767e-005 0.99947089 -0.0049942755
44668.359215096 0.99452436 -0.024135565 -1.996372e-005 1.5323534e-005 8.0724431e-006 0.00056124612
-1.0907494e-005 -1.4905705e-006 -0.74589717 -0.65582269 9.501743e-007 -1.1789308e-005
2.4654752e-005 0.0005417997 4.055586e-006 -5.3452982e-007 0.99942511 -0.0052134129
47315.125896148 0.99467975 -0.025607575 7.3184397e-006 9.3293502e-006 1.6629352e-005 0.0005758605
-9.0498361e-006 6.6793323e-006 -0.76967484 -0.62783819 1.1957486e-005 -2.3138718e-006
2.1587719e-005 0.00057146326 -1.9152441e-005 3.7812476e-006 0.99954957 -0.0053906939
50118.723362727 0.99444127 -0.02700864 -1.9829386e-007 2.2260729e-005 1.099057e-005 0.00064039242
-6.5936169e-006 4.9112527e-006 -0.79155213 -0.6001395 3.7711866e-006 2.021818e-005
1.4610819e-005 0.00062477594 -6.1485644e-006 1.4364012e-005 0.99933559 -0.0056471513
53088.444423099 0.99433154 -0.028681299 -1.1620538e-005 3.8283888e-005 2.2851973e-005 0.00065622776
1.2348931e-006 -6.4099481e-007 -0.81169653 -0.57312745 -2.9497476e-006 7.3131919e-006
9.1909124e-007 0.00065467838 -1.3618077e-006 -1.7037486e-005 0.99944746 -0.0060104942
56234.132519035 0.99432039 -0.030583415 -5.9686672e-006 -4.3267261e-007 -6.2392502e-007 0.00066680543
-3.3048341e-006 -3.2394014e-006 -0.82977796 -0.54664564 4.5235215e-006 5.96168e-006
1.0048367e-005 0.00069567957 6.0360512e-006 5.4828447e-006 0.99935442 -0.0063419817
59566.214352901 0.99426353 -0.032181993 1.913662e-005 7.3093065e-006 1.6850177e-005 0.00073521247
-1.7001478e-006 4.6247169e-006 -0.84643382 -0.52094835 7.7280316e-007 -7.7563691e-006
1.9080071e-005 0.00073843769 -2.5064252e-005 1.2920428e-005 0.99918097 -0.0066378224
63095.734448019 0.99406439 -0.034183111 3.0283321e-005 -3.585768e-005 -1.1143026e-006 0.00077425427
-3.8701633e-006 3.7591719e-006 -0.86149102 -0.49592274 -6.1329115e-006 6.8671111e-006
1.5319616e-005 0.00078303774 1.9902745e-005 -2.1977405e-006 0.99937177 -0.0070066568
66834.391756861 0.99396563 -0.036086667 -6.163023e-006 -9.8374048e-006 4.2380834e-005 0.00084200292
6.0979842e-006 1.1932572e-005 -0.8750006 -0.47162428 -9.1864522e-006 1.2406455e-005
2.9481569e-005 0.00081073394 -1.6583779e-005 2.9684253e-007 0.99932152 -0.0072342223
70794.578438414 0.99405062 -0.038159929 1.4871144e-006 2.4987673e-006 3.3351636e-005 0.00085032498
-6.7769088e-006 4.2184924e-006 -0.88735253 -0.44848847 -2.0438233e-006 3.7143338e-006
4.6253193e-005 0.00087438343 -1.124598e-005 3.2637427e-006 0.99909431 -0.0076597091
74989.420933246 0.99378502 -0.040351223 -2.0407671e-005 -2.6107627e-005 4.1130523e-005 0.00091962621
2.3315861e-006 6.8557342e-006 -0.89856505 -0.42594481 7.6255574e-006 7.5887338e-006
1.2290071e-005 0.00091414974 -6.7165074e-006 3.174524e-006 0.99918741 -0.0079315417
79432.823472428 0.99371147 -0.042702205 -3.0255349e-006 1.4496057e-005 4.4341807e-005 0.00098308362
-4.5717525e-006 1.316081e-005 -0.90866959 -0.4042362 -9.1519851e-006 -3.2068169e-006
3.5153786e-005 0.00097054546 1.9908024e-005 1.2624908e-005 0.99903286 -0.0084294183
84139.514164519 0.99365455 -0.045231074 -1.0641576e-005 -6.7363308e-006 2.875141e-005 0.001042215
-1.5330412e-005 -2.1544504e-006 -0.91760004 -0.38357851 4.060912e-006 9.9239678e-006
2.405156e-005 0.0010566824 3.0293158e-006 1.7255274e-005 0.99906301 -0.0088495743
89125.093813375 0.99349076 -0.047785796 7.3735373e-006 -1.3433262e-005 4.5985955e-005 0.0010876971
-8.0072396e-006 1.2646531e-006 -0.92584252 -0.36367652 -2.5673226e-006 9.2017872e-006
6.6077111e-005 0.0010823333 -8.5793836e-006 1.3011375e-005 0.99894977 -0.0093721766
94406.087628592 0.99342948 -0.050740141 -2.5761979e-005 -1.2664381e-005 6.0235139e-005 0.0011688037
-2.9245123e-006 4.1361577e-006 -0.93322855 -0.34468737 -8.6490209e-006 -5.2420733e-006
7.1725408e-005 0.0011701675 -4.1179646e-006 1.7664854e-005 0.99911684 -0.0098595032
100000 0.99339497 -0.053673584 2.5650456e-006 1.4382719e-005 7.6380958e-005 0.001240198
-6.524052e-006 2.2236893e-005 -0.93979508 -0.32653558 -7.8165376e-006 2.7102756e-006
6.2953761e-005 0.0012311038 -2.8287632e-006 5.1647739e-006 0.9988907 -0.010400925
105925.37251773 0.99317163 -0.056955684 -1.0505174e-005 6.1237606e-006 8.6664317e-005 0.0013080583
-2.485488e-006 9.7424809e-006 -0.9457655 -0.30936092 8.4994745e-006 5.0197482e-006
5.9230617e-005 0.0013025842 1.2319733e-005 6.7143601e-006 0.99891835 -0.010801667
112201.8454302 0.99296361 -0.060287286 -8.9020623e-006 -4.8132979e-006 9.5553332e-005 0.0013805334
3.0601977e-006 1.2303578e-005 -0.95112973 -0.29286513 7.370917e-006 -7.4569148e-006
7.2309289e-005 0.0014038915 -1.5246201e-007 2.9412628e-005 0.99903321 -0.011527276
118850.2227437 0.99282086 -0.063658133 -2.4874196e-005 3.3394212e-005 8.1239981e-005 0.0014675807
-5.6955064e-006 4.9693035e-006 -0.95591182 -0.27715084 9.1611655e-006 5.8979181e-006
9.4868461e-005 0.0014757528 -4.4066041e-006 -1.0582423e-006 0.99890167 -0.012333571
125892.54117942 0.99258739 -0.067517117 6.9212347e-006 -1.5154521e-005 0.00012419088 0.001555411
-2.9551688e-006 5.9324867e-007 -0.9602316 -0.26224485 -4.6404175e-006 -5.9643653e-006
6.883742e-005 0.0015544014 -1.5326797e-005 -8.2010257e-007 0.99900818 -0.012906767
133352.14321633 0.99242598 -0.071529798 -1.4490683e-005 2.2168837e-005 8.7493703e-005 0.0016428583
-9.8238897e-006 -4.1830667e-006 -0.96402901 -0.24795339 7.6257593e-006 -2.008514e-007
7.6329132e-005 0.0016287467 -2.2906257e-005 1.5908108e-005 0.99887455 -0.013459599
141253.75446228 0.99195582 -0.075797662 4.786436e-006 4.215658e-006 0.00011133775 0.0017436049
-1.3713178e-005 9.0395429e-007 -0.96744817 -0.23450811 1.6212042e-006 5.3216081e-006
0.00011383558 0.0017448235 2.6890143e-006 5.2370533e-006 0.99894327 -0.014356405
149623.56560944 0.99157101 -0.080240883 -1.7051492e-005 1.5305599e-005 0.00014243404 0.001830982
-5.4824222e-006 5.42928e-006 -0.9705748 -0.22173545 -8.2686784e-006 3.6379574e-006
0.00012556203 0.0018296714 -2.372318e-005 -2.9046807e-006 0.99882364 -0.015292958
158489.31924611 0.99120378 -0.084924601 -3.3968485e-005 9.9540803e-006 0.00016382581 0.0019152699
-1.0748716e-005 1.4077282e-005 -0.97335315 -0.20945811 2.3519478e-006 9.9012595e-007
0.00012775525 0.0019406616 -1.4115374e-005 1.2086675e-005 0.9988991 -0.016062174
167880.40181226 0.99057865 -0.089938767 6.5693516e-006 2.9369801e-006 0.00015230142 0.0020249055
-1.07711e-005 7.32017e-006 -0.97586048 -0.19787046 -9.1648899e-006 2.2134491e-005
0.00016247424 0.0020563614 -5.016328e-006 1.961572e-006 0.99885774 -0.016959842
177827.94100389 0.99018288 -0.095136754 -3.767487e-006 1.2308797e-005 0.00018109394 0.0021455002
-9.9628714e-006 9.5097148e-006 -0.97743231 -0.18593432 -5.2943933e-006 1.8327764e-005
0.00016202594 0.002178672 -2.2424153e-006 2.3666094e-005 0.99872535 -0.017893797
188364.90894898 0.98953521 -0.10080496 3.0585679e-006 1.3543786e-005 0.00019872577 0.0022901124
-1.3564952e-005 6.755477e-006 -0.97991008 -0.17713293 2.0635255e-006 5.8845822e-006
0.00020165794 0.002295322 -5.6813456e-006 1.265782e-005 0.99859887 -0.018963944
199526.23149689 0.98879433 -0.10679239 -2.0494896e-005 1.821214e-005 0.00021828027 0.0024085743
-3.6603326e-006 1.0516335e-005 -0.98171604 -0.1671412 4.7884026e-007 1.2836197e-005
0.00021305578 0.0024400605 -2.3261617e-005 5.1560328e-006 0.99858773 -0.020140108
211348.90398366 0.98816717 -0.11305024 -3.2523269e-005 1.4550126e-005 0.00024095959 0.0025667779
-1.8317582e-005 1.268359e-005 -0.98338902 -0.15782741 8.9059517e-007 1.4372111e-005
0.0002458113 0.0025706608 -1.7041684e-005 -5.6933095e-006 0.99845892 -0.021176862
223872.11385683 0.98734945 -0.11961818 -1.3520878e-006 2.857272e-005 0.00029124579 0.002736015
-1.1966269e-005 1.752967e-005 -0.98483586 -0.14900254 4.8475449e-006 1.2056058e-005
0.00028131308 0.0027198012 -3.3493696e-005 3.5673398e-005 0.99844694 -0.022319987
237137.37056617 0.98636037 -0.12664193 -1.3013828e-005 8.9522996e-007 0.00034024281 0.0028537903
-2.2729093e-005 1.1929186e-005 -0.9860304 -0.14066173 -7.6221522e-006 1.095982e-005
0.00029733061 0.0028463828 8.4506644e-007 3.3623667e-006 0.99838436 -0.023664685
251188.64315096 0.98571318 -0.13418062 -3.7553247e-005 1.4860106e-005 0.00034387046 0.0030208316
-2.5269677e-005 9.0108279e-006 -0.98725569 -0.13267593 -4.6098712e-006 2.0513089e-005
0.00035703037 0.0030109673 -7.1959789e-006 8.1706594e-006 0.99834454 -0.025140297
266072.50597988 0.98433083 -0.14198698 -2.1261943e-005 6.5572353e-006 0.00038120546 0.003173297
-1.3686933e-005 2.2074018e-005 -0.98828673 -0.12521873 -1.0092892e-005 1.281402e-005
0.00038663988 0.0031975557 -1.2095016e-005 2.3839906e-005 0.99821275 -0.026356319
281838.29312645 0.98291051 -0.15054132 -3.45712e-005 2.5106776e-005 0.0004313291 0.0033764006
-1.8981389e-005 1.6343387e-005 -0.98913467 -0.11815683 -6.9602124e-006 2.2619031e-005
0.00042758955 0.0033529538 -4.3316827e-006 3.1712752e-005 0.99796891 -0.027966455
298538.2618918 0.98160249 -0.15901177 -2.4745248e-006 1.125502e-005 0.00045727508 0.003558612
-2.5972337e-005 9.8987439e-006 -0.98996276 -0.11133134 7.1027807e-006 2.9664769e-005
0.00045495827 0.0035475013 -6.8982167e-006 1.8161323e-005 0.99788576 -0.029560268
316227.76601684 0.98012114 -0.168405 -2.384949e-005 2.7600159e-005 0.0005125053 0.0037652124
-2.7899016e-005 1.9071676e-005 -0.99062389 -0.10509317 -2.4654586e-005 1.1754805e-005
0.00052983908 0.0037708865 -1.1889269e-005 1.0318731e-005 0.99771726 -0.031148385
334965.43915783 0.97833312 -0.17817259 -2.9789604e-005 -1.1288328e-006 0.00057422376 0.0039570951
-3.3026958e-005 1.3933005e-005 -0.99137741 -0.09923768 -1.8944736e-005 1.8342664e-005
0.00054945203 0.0039614928 -9.4337638e-006 1.5381753e-005 0.99758607 -0.032910749
354813.38923358 0.97623515 -0.18845767 -1.114637e-005 3.6127505e-005 0.00061933766 0.0041824789
-2.6986951e-005 2.8999872e-005 -0.99197632 -0.093392111 -1.4203269e-005 2.2775454e-005
0.00062625878 0.0041831895 -5.9842764e-006 2.5935651e-005 0.99753672 -0.034830775
375837.40428844 0.97420919 -0.19940901 -4.4066761e-005 2.0048743e-005 0.00069465599 0.0044104219
-3.3909248e-005 2.2241526e-005 -0.99240023 -0.087983854 5.7931911e-006 2.1328671e-005
0.00069582975 0.0044409111 -6.7013502e-006 1.6618887e-005 0.99739075 -0.036790505
398107.1705535 0.97159773 -0.21104458 -5.9493752e-005 1.2552911e-005 0.00077201781 0.0046606949
-4.5005883e-005 3.9766655e-005 -0.99291861 -0.082663946 -9.528756e-006 3.2166416e-005
0.00076470152 0.0046721986 -2.3894113e-006 1.3477058e-005 0.99724579 -0.038939975
421696.50342858 0.96882606 -0.22318633 -5.3337822e-005 3.9511284e-005 0.00084668346 0.0049355919
-4.2602856e-005 2.5017447e-005 -0.99308646 -0.077485926 -1.8638548e-006 4.1335708e-005
0.0008456381 0.0049160132 -6.388389e-006 2.1671145e-005 0.99710995 -0.041191179
446683.59215096 0.96575546 -0.23604985 -4.6562342e-005 3.9900435e-005 0.00092690648 0.0051887757
-4.9641436e-005 3.5133955e-005 -0.9931612 -0.073792912 -1.2504838e-005 2.4486642e-005
0.00092308415 0.0052028014 -7.5997341e-006 2.8782275e-005 0.99662846 -0.043461498
473151.25896148 0.96236432 -0.24948074 -7.2294271e-005 4.846853e-005 0.0010398919 0.0054496881
-6.77965e-005 3.8942366e-005 -0.99388027 -0.069525868 -1.2572414e-005 2.1951982e-005
0.0010391899 0.0054486692 1.7915427e-006 1.6205146e-005 0.99662375 -0.045883022
501187.23362727 0.95830625 -0.26374546 -8.0766178e-005 4.5260316e-005 0.0011508677 0.0057764268
-6.1639817e-005 3.6242607e-005 -0.99425215 -0.065347277 -1.8747442e-005 2.4682549e-005
0.0011476645 0.0057672202 -1.7391616e-005 4.546998e-005 0.99643797 -0.04857951
530884.44423099 0.95388967 -0.27861875 -7.0776674e-005 6.7984765e-005 0.001248727 0.0060842354
-7.2640192e-005 2.561451e-005 -0.99457496 -0.061299305 -2.0504016e-005 1.7508673e-005
0.0012674633 0.0060913782 -5.2163664e-006 3.2020336e-005 0.9962793 -0.051255777
562341.32519035 0.94913453 -0.29447481 -7.0776521e-005 4.2851287e-005 0.0013772501 0.0064196931
-7.7147095e-005 4.6050282e-005 -0.99489361 -0.057590008 -1.2036779e-005 3.4131426e-005
0.0013981443 0.0064202747 -2.2003978e-005 3.5781257e-005 0.99605602 -0.054167278
595662.14352901 0.94398111 -0.31081378 -0.00011046111 5.2052193e-005 0.0015193631 0.0067549315
-9.5430121e-005 5.3191212e-005 -0.99512517 -0.054032877 -3.0515159e-005 3.4286863e-005
0.0015380838 0.0067646122 -1.4084332e-005 4.5224948e-005 0.99586976 -0.05731016
630957.34448019 0.93811709 -0.32826516 -0.000123772 5.4602755e-005 0.001710807 0.0071164928
-9.6001881e-005 6.9006957e-005 -0.99526006 -0.050628196 -2.1048121e-005 4.5859306e-005
0.001689037 0.0071099908 -1.200058e-005 4.257249e-005 0.99557716 -0.060711216
668343.91756861 0.93136644 -0.34654689 -9.851301e-005 5.3086187e-005 0.0018841022 0.0074802716
