!Keysight Technologies,E5080A,MY55100144,A.11.70.03
!Date: Monday, November 13, 2017 17:25:36
!Correction: S11(Full 3 Port(1,2,3)) 
!S12(Full 3 Port(1,2,3)) 
!S13(Full 3 Port(1,2,3)) 
!S21(Full 3 Port(1,2,3)) 
!S22(Full 3 Port(1,2,3)) 
!S23(Full 3 Port(1,2,3)) 
!S31(Full 3 Port(1,2,3)) 
!S32(Full 3 Port(1,2,3)) 
!S33(Full 3 Port(1,2,3)) 
!S3P File: Measurements: <S11,S12,S13>,
!<S21,S22,S23>,
!<S31,S32,S33>:Log Frequency Sweep
# Hz S  RI   R 50
10000 0.99606436 -0.0055985958 7.038479e-006 5.1468969e-006 2.3731716e-006 0.00012301285
2.1546668e-005 5.9421332e-006 0.47076958 -0.87581629 -5.0168728e-006 -1.7542292e-005
2.1349249e-005 0.00010062684 -7.2212524e-006 -6.6544535e-006 0.99983138 -0.0025034319
10592.537251773 0.99614495 -0.0059401607 -5.4522781e-007 -1.6835224e-005 1.8622912e-005 0.00014161697
-1.1746749e-005 9.6859167e-006 0.42562363 -0.89838618 -1.1188023e-005 1.9265626e-005
1.0046994e-005 0.00013482751 4.4333565e-006 4.4060298e-006 0.99993408 -0.0022806525
11220.18454302 0.99608743 -0.0061111082 2.3571662e-005 -4.0304903e-006 9.3319286e-006 0.00014519045
-1.3552388e-005 -7.8509556e-006 0.37742567 -0.91915619 2.8700733e-005 9.4419311e-006
-5.8802939e-006 0.00013075402 3.4578869e-007 1.9270406e-005 1.000109 -0.0024270809
11885.02227437 0.99604857 -0.0064773383 -9.235463e-006 2.6882493e-005 1.1968809e-005 0.00012991407
-9.613871e-006 2.9233026e-006 0.32786229 -0.93787766 -1.0986726e-005 1.0683446e-005
-1.1740948e-005 0.00014976067 1.0983435e-005 2.5616802e-005 1.0000908 -0.0023886974
12589.254117942 0.99610341 -0.007062858 4.4747203e-006 8.686844e-006 -5.8016803e-006 0.00013218421
2.8588431e-006 -1.2156368e-005 0.27626601 -0.95412195 1.096249e-005 1.1195744e-005
4.4002227e-006 0.00015867344 2.5141886e-005 -5.8220894e-006 1.0001305 -0.0025123702
13335.214321633 0.99621153 -0.0072426512 -3.0157891e-005 -9.9263452e-006 2.5979077e-007 0.00017339336
-6.3292787e-006 -4.9389541e-006 0.22295335 -0.96802205 -7.6214678e-006 1.512293e-005
8.4490057e-006 0.00016557788 -1.1240833e-005 -4.6566143e-007 0.99996555 -0.0024186922
14125.375446228 0.99603486 -0.007831051 -1.5398552e-006 -1.3446919e-005 1.9237084e-006 0.00016544253
1.5105545e-005 1.1306166e-007 0.1682695 -0.97848433 1.7862336e-005 5.6997642e-006
2.203496e-006 0.00016477045 -3.1105449e-006 -3.5065534e-007 1.0003164 -0.0024644118
14962.356560944 0.99604362 -0.0083094435 -2.2468292e-005 1.2107629e-005 -1.0349345e-005 0.0001935969
6.4921214e-006 -4.5436195e-006 0.11269056 -0.9867692 1.6687655e-006 -4.9046098e-006
1.8447388e-005 0.00018837376 -1.6084566e-006 1.4850229e-006 0.9999339 -0.0027600965
15848.931924611 0.99620759 -0.0090025431 -9.8398095e-006 -7.1209288e-006 1.6746737e-005 0.00018693446
5.4481425e-006 7.5291673e-006 0.055938113 -0.99099392 3.8599628e-006 7.8496951e-006
-2.1433239e-005 0.00020573912 -6.5795566e-006 7.2292169e-006 1.0001999 -0.0025849359
16788.040181226 0.99605018 -0.0094021689 -1.9474941e-005 -1.0107839e-005 -1.0627929e-005 0.00022006944
-1.0625821e-005 1.9253528e-005 -0.00069929817 -0.99250126 -4.331303e-006 1.047142e-005
3.1395197e-005 0.00021999632 -1.5782392e-005 1.4502243e-005 1 -0.0026903013
17782.794100389 0.99623185 -0.0097477064 -1.9942921e-005 -2.2578894e-005 1.0620447e-005 0.00021240799
6.1751139e-006 -2.7156326e-005 -0.057574648 -0.99054843 5.2918172e-006 1.3515705e-006
-6.2993541e-007 0.00022312341 -4.5699558e-006 -5.6400222e-006 1.0000734 -0.0027094933
18836.490894898 0.99613971 -0.010414383 -5.6817685e-006 -1.7530543e-006 4.5396259e-006 0.00024205196
-8.6167461e-007 4.3798957e-007 -0.11407008 -0.98568696 7.1696691e-006 -2.721137e-006
1.1272762e-005 0.00025259878 -6.565248e-006 -1.410766e-005 0.99993175 -0.0027961761
19952.623149689 0.99607325 -0.011159717 6.1888215e-007 -2.6801563e-006 1.6233054e-005 0.00022815872
-1.2609074e-005 -2.6623375e-006 -0.16947307 -0.97773314 7.8888324e-006 -4.3326122e-006
8.5465063e-006 0.00024970845 -1.5074241e-005 3.107614e-006 0.99991477 -0.002943171
21134.890398366 0.99616081 -0.011736398 9.3322778e-006 2.4462681e-005 -4.5273341e-006 0.00025505497
9.7413858e-006 -6.6659427e-006 -0.22412258 -0.96652639 5.5774217e-006 -7.1948443e-007
-3.6269573e-006 0.00025181129 1.6252192e-005 -1.0078636e-005 0.99984235 -0.0032382801
22387.211385683 0.99603385 -0.012333991 -2.3420248e-006 -1.3903087e-005 2.8241446e-005 0.00026400413
-3.1116756e-006 -4.7493896e-007 -0.27725568 -0.9526487 -7.7787063e-006 -1.9016965e-005
5.2843347e-006 0.00028140648 -1.7586141e-008 -4.0410319e-005 0.99985832 -0.0031914541
23713.737056617 0.99615109 -0.013280532 5.8347532e-006 -8.9328489e-007 2.5841341e-006 0.00032880742
-9.3723766e-006 5.3655308e-006 -0.32895774 -0.93597305 -1.3044333e-005 -5.9460317e-006
-1.2400667e-005 0.00029729021 -5.805015e-006 9.2923456e-006 0.99987787 -0.0031934793
25118.864315096 0.9960947 -0.014083444 -8.9699315e-006 -1.0066487e-006 2.8111774e-006 0.00031412221
-2.5260497e-006 8.7947428e-006 -0.37842584 -0.91720617 1.2169876e-005 -6.6893585e-006
-3.3835188e-006 0.00030258737 -1.5044926e-005 4.6753471e-006 0.99991363 -0.0034714583
26607.250597988 0.99616003 -0.014691659 -3.2137155e-005 -6.8292811e-006 1.1300717e-005 0.0003208493
2.690011e-005 6.1766777e-006 -0.42597106 -0.89624268 -7.9711816e-007 1.5413647e-005
1.7125325e-005 0.00032021626 7.5143171e-006 -4.1402768e-006 0.99992543 -0.0035484068
28183.829312645 0.99626189 -0.015681263 6.5462774e-007 2.371293e-005 1.3520398e-006 0.00034748961
-9.510999e-006 4.6636815e-006 -0.47146052 -0.87334317 3.8516923e-006 6.3980451e-006
9.8652035e-006 0.00034270081 9.953028e-006 -1.6432565e-006 0.99991524 -0.0036547743
29853.82618918 0.9961229 -0.016514163 -1.6619457e-005 2.6274984e-005 8.5050142e-006 0.00035956374
2.5654347e-007 -7.8412359e-006 -0.51425689 -0.8487041 5.6637086e-006 5.8189466e-006
-6.1380611e-006 0.0003849834 5.094304e-006 7.2464136e-006 0.99971867 -0.0037044303
31622.776601684 0.99604112 -0.01752428 9.2064056e-006 -1.7746053e-005 -1.3447692e-006 0.00039127941
4.5262341e-006 4.6527425e-006 -0.55447769 -0.82309335 -8.2107317e-006 3.9229658e-006
1.3587634e-005 0.00040457206 3.9894981e-006 1.8326455e-005 0.99991673 -0.0040763728
33496.543915783 0.99605066 -0.018529592 -1.1962359e-007 8.476839e-006 8.0473847e-006 0.00041704654
4.3341465e-006 -1.3852588e-006 -0.59252769 -0.79627597 -4.6288378e-006 3.2616895e-006
1.4906464e-005 0.00042358815 1.7416072e-006 -6.1125079e-006 0.99987 -0.0040513603
35481.338923358 0.99590135 -0.019654008 -7.2469229e-006 -3.2480122e-007 1.7586251e-005 0.0004449746
-1.6663205e-005 -4.4117141e-006 -0.62794286 -0.76861876 -1.5400384e-006 -9.0540289e-006
1.686932e-006 0.00045684737 1.5515084e-006 -5.233549e-006 0.99982029 -0.0042216941
37583.740428844 0.99587083 -0.020908853 9.3977969e-006 2.1075584e-005 -1.6478162e-006 0.00045645513
8.2744082e-006 5.6266977e-006 -0.66086733 -0.74058259 -1.5072151e-005 -1.1815126e-005
8.2166125e-006 0.00046591499 -7.7627453e-007 -3.0400552e-006 0.9996075 -0.0045559825
39810.71705535 0.99603051 -0.021946412 -2.1130436e-005 1.4878294e-006 -7.2160115e-006 0.0004836623
-9.7043003e-006 1.848278e-006 -0.69150382 -0.71239489 1.4080223e-005 1.0779996e-005
1.9057863e-005 0.00049151282 -6.8459817e-006 -1.8717476e-005 0.99954927 -0.0047272495
42169.650342858 0.99591786 -0.023273475 2.0495319e-005 -7.3324554e-007 1.9481224e-005 0.00051218661
4.2097613e-006 3.6152599e-006 -0.71974039 -0.68410426 1.1542053e-005 1.7188412e-006
-1.6255304e-005 0.00051468052 1.1350246e-005 -2.1825724e-007 0.99954069 -0.0049054618
44668.359215096 0.99594945 -0.024714649 -1.0792036e-005 6.0521353e-007 1.8413437e-005 0.0005614027
2.2160018e-006 2.2457461e-006 -0.74577618 -0.65581214 2.9420341e-006 -1.9516913e-006
1.9702695e-005 0.00056901615 -1.0703916e-006 -1.1611219e-005 0.99951172 -0.0052753543
47315.125896148 0.99593878 -0.026153127 5.8180121e-006 1.732577e-005 3.3070111e-005 0.00057328446
5.1049237e-006 5.344064e-006 -0.76968348 -0.62782097 8.9912601e-007 -3.9346455e-006
1.8372344e-005 0.00058978971 1.010888e-005 8.2701963e-006 0.99963397 -0.0055425037
50118.723362727 0.99572486 -0.027781835 3.7545069e-005 8.3641862e-006 3.0633553e-006 0.00060305448
-6.6491953e-006 -8.3330764e-007 -0.79147911 -0.60009706 1.6961676e-005 -1.5260039e-007
2.0735928e-005 0.00061866158 -2.7589735e-005 9.0546509e-006 0.99959409 -0.0056193923
53088.444423099 0.99582827 -0.029300516 -1.8436474e-005 -2.3580333e-005 2.0040887e-005 0.00066878414
-3.9454358e-006 1.0627344e-006 -0.81158495 -0.57304013 1.3237179e-006 -2.0824434e-006
1.290747e-005 0.00065219041 -1.2108159e-005 2.0811418e-005 0.99961221 -0.006053241
56234.132519035 0.99576068 -0.031157807 -1.4206928e-005 -3.0006107e-005 1.8799034e-006 0.00068306027
-1.5386412e-006 5.0892295e-006 -0.82973772 -0.54664171 5.7940792e-006 1.5520992e-006
2.3263952e-005 0.00069286651 1.8550801e-006 -3.0627863e-005 0.99943191 -0.006379744
59566.214352901 0.99570584 -0.032917328 3.5172575e-006 -1.5338766e-005 2.6829926e-005 0.00072613708
-7.8373168e-006 -3.3604892e-006 -0.84625202 -0.52089709 -1.1059486e-005 -1.2968959e-005
1.9813055e-005 0.00074689393 1.8975334e-005 -8.0553264e-006 0.99933022 -0.0065675699
63095.734448019 0.9954651 -0.035006963 -1.9602372e-005 5.7005354e-007 4.477e-005 0.00080108276
-3.9064115e-008 5.9635731e-006 -0.86138213 -0.4958396 9.1868005e-006 -4.3220607e-006
-6.1327596e-006 0.00079199934 -1.6662041e-005 9.3564431e-006 0.99944341 -0.0069560283
66834.391756861 0.99547988 -0.036964953 8.0976079e-006 8.6521923e-006 3.4018834e-005 0.00082659815
-1.8890573e-006 1.9661358e-005 -0.87497377 -0.47173262 -1.1878554e-005 2.5776067e-006
2.5068313e-005 0.00081167475 -1.849227e-005 -2.0781476e-006 0.99945819 -0.0073996657
70794.578438414 0.99536628 -0.039200388 7.2189509e-006 -7.3282281e-006 2.1314918e-005 0.00086891482
-5.003109e-006 1.8036641e-005 -0.88721961 -0.44847468 -4.2395135e-007 1.3234277e-006
1.2404614e-005 0.00087815471 1.9020321e-005 1.9550778e-005 0.99922693 -0.0077850334
74989.420933246 0.99527937 -0.04146314 2.4875211e-005 9.5100468e-006 3.1389111e-005 0.0009282892
-4.0911768e-006 -1.3091384e-005 -0.89842397 -0.42589897 8.4230551e-006 1.3505867e-005
2.6437978e-005 0.00092188758 5.2429823e-006 1.546701e-006 0.99922699 -0.0079357391
79432.823472428 0.99519449 -0.043813691 2.2914415e-005 2.139644e-006 4.4507542e-005 0.00097228517
-1.1748361e-006 3.1772511e-006 -0.9085049 -0.40416133 7.0215992e-006 1.597741e-005
3.373501e-005 0.00097014802 -1.4457651e-005 1.5803884e-005 0.99921918 -0.0084980791
84139.514164519 0.99494785 -0.046268295 -4.5325023e-006 -5.7169564e-006 5.1159888e-005 0.0010171967
-7.5832463e-006 1.2626988e-005 -0.9174853 -0.38354912 7.8316243e-006 -6.9536868e-006
3.8108843e-005 0.0010332339 7.0577521e-006 -1.6200176e-005 0.99907124 -0.0088568367
89125.093813375 0.99493891 -0.049015004 -4.0685791e-006 1.2054278e-006 6.2358115e-005 0.001106063
-5.1625275e-006 1.563456e-005 -0.92577899 -0.3636969 -9.5913538e-006 3.1916654e-006
6.0674218e-005 0.0011029559 -1.8554703e-005 8.5446806e-007 0.99918419 -0.0094072865
94406.087628592 0.99475014 -0.051881552 8.4354178e-006 1.240954e-005 7.1111368e-005 0.001157555
-1.953396e-005 1.3002104e-005 -0.93315744 -0.34471267 3.1280632e-007 1.5015899e-005
5.6886063e-005 0.0011547819 -1.9415391e-005 -1.351448e-005 0.99915183 -0.0097114695
100000 0.99463499 -0.054809641 2.4910416e-005 2.6264705e-005 6.7527733e-005 0.0012344988
-1.3430666e-005 6.3952357e-006 -0.93970501 -0.32656237 1.150592e-005 8.1761546e-006
5.2120096e-005 0.0012371403 -1.7824404e-005 -1.6074238e-005 0.99904257 -0.010294375
105925.37251773 0.99447155 -0.058312487 6.219414e-006 1.2896058e-005 6.5513326e-005 0.0013089742
-5.6937129e-006 8.5589209e-006 -0.94566691 -0.30932659 -4.1641943e-007 -9.5749483e-006
7.3739626e-005 0.0013012134 -9.0618942e-006 1.4618624e-007 0.99903017 -0.011037654
112201.8454302 0.99433273 -0.061612707 -5.4552688e-006 -1.2649379e-005 9.5001858e-005 0.0013638411
-3.9666802e-006 -1.4972976e-006 -0.95102477 -0.29288375 -2.1298922e-006 9.2135933e-006
8.4985513e-005 0.0014048513 -2.0237734e-005 2.3021614e-005 0.99887258 -0.011588938
118850.2227437 0.99404126 -0.065262213 1.7288159e-005 1.8970147e-006 8.2787759e-005 0.0014671758
3.4401378e-007 1.2128459e-005 -0.95578682 -0.2771273 -1.5514528e-005 -1.4269909e-006
8.4511841e-005 0.0014622897 1.1860736e-005 6.8362374e-006 0.99913436 -0.012137083
125892.54117942 0.99392825 -0.069175713 -5.6274357e-006 3.1165968e-005 6.7522837e-005 0.0015574986
5.5149208e-006 6.3385232e-006 -0.96011895 -0.26223031 -1.1224616e-006 3.1390605e-006
7.5303702e-005 0.0015269213 -1.0631711e-005 1.3626967e-005 0.99917388 -0.012745863
133352.14321633 0.99360335 -0.073267974 -6.2217164e-006 -6.5965392e-006 0.00011362797 0.0016291897
3.2329719e-006 6.2427198e-006 -0.9639352 -0.24797131 -1.4678611e-006 5.6144654e-006
0.00011261025 0.0016392991 -3.218257e-006 8.7900753e-006 0.99922121 -0.013578531
141253.75446228 0.99318033 -0.077756315 -2.793664e-006 1.7165607e-005 8.2850165e-005 0.0017261809
-4.1509661e-006 1.2745393e-005 -0.96734864 -0.2345411 1.043701e-006 2.2837355e-006
0.00012150533 0.0017362318 -3.7554876e-006 1.1216772e-006 0.99915385 -0.014423139
149623.56560944 0.99274778 -0.082275286 -2.3016692e-005 2.0459276e-005 0.00014397068 0.0018048336
-1.4405639e-005 6.6904563e-006 -0.97050434 -0.22169533 -7.9198107e-006 8.214829e-006
0.00013567304 0.001828641 -2.0603549e-005 -3.5454466e-006 0.99893826 -0.015225954
158489.31924611 0.99241227 -0.086943656 -3.5147117e-005 2.6274794e-005 0.00015298469 0.0019557378
-1.1126669e-005 1.6162818e-005 -0.97329438 -0.20948516 -8.7763074e-006 3.2437842e-006
0.00015618317 0.0019431891 -1.2958109e-005 1.2335039e-005 0.99888277 -0.015865605
167880.40181226 0.99168885 -0.09220618 -1.7154787e-005 1.8287083e-005 0.00016170791 0.0020349463
-4.85993e-006 1.9151945e-005 -0.97572798 -0.19787227 -1.2730332e-005 1.4062119e-006
0.00016760065 0.0020627263 -3.3718374e-007 -2.047233e-006 0.99891645 -0.017026411
177827.94100389 0.99113113 -0.097573847 -2.1005435e-005 -3.4988884e-006 0.00017712881 0.0021596553
-1.9464887e-005 1.4889385e-005 -0.9773311 -0.18590963 -2.5205863e-006 1.3113357e-005
0.00018539735 0.0021719085 1.1738966e-006 4.6446648e-006 0.99885476 -0.017855465
188364.90894898 0.99065679 -0.10333101 1.1654918e-006 1.8336192e-005 0.00021316731 0.0022740902
-7.9443325e-006 1.36112e-005 -0.9798317 -0.17712083 -1.2210066e-007 2.2972414e-005
0.00019899408 0.0022977919 3.141823e-007 -1.0573848e-006 0.99865228 -0.019052904
199526.23149689 0.98986685 -0.10941728 -4.6166633e-006 2.3747114e-005 0.00021072372 0.0024383934
-1.6105396e-005 1.8772511e-005 -0.98161149 -0.16715881 -7.2288849e-006 1.0891275e-005
0.0002271743 0.0024304639 4.6675104e-006 7.9105839e-006 0.99868292 -0.020151652
211348.90398366 0.98919034 -0.11583443 -1.4365731e-005 2.0711062e-007 0.00025023779 0.0025778026
-1.2043562e-005 2.4282734e-005 -0.98333037 -0.15780765 6.3173015e-006 1.211874e-005
0.00024696294 0.0025551117 -5.2828714e-006 2.2667973e-005 0.99860048 -0.021292921
223872.11385683 0.9884938 -0.12248328 -2.6821242e-005 2.0409949e-005 0.00028997619 0.0027331808
-1.2206943e-005 1.4397329e-005 -0.98477781 -0.14902876 -7.9859965e-006 4.3694145e-006
0.00029767188 0.002724262 -5.4651616e-007 -4.0992217e-007 0.9985857 -0.022358045
237137.37056617 0.98752594 -0.12984511 -2.3277047e-005 1.9495972e-005 0.00028354127 0.002854933
-2.101119e-005 1.8319304e-005 -0.98597306 -0.14061785 -4.2140746e-006 1.3973708e-005
0.00029643197 0.0028427995 -1.2465284e-005 8.3905161e-006 0.99848729 -0.023627583
251188.64315096 0.98646635 -0.13749784 -2.6771348e-005 1.3240824e-005 0.00033712076 0.0030047093
-3.2582735e-005 2.2013206e-005 -0.98709822 -0.13271926 -1.328583e-006 1.6979e-005
0.00035359524 0.0030086015 -8.5130287e-006 7.8421945e-006 0.99837685 -0.024989095
266072.50597988 0.98527151 -0.14560564 -1.60042e-005 1.8645213e-005 0.00038730781 0.0031857912
-1.6767541e-005 2.5696356e-005 -0.98816603 -0.12519979 -5.5142182e-006 1.3245008e-005
0.00037690907 0.0031918841 -1.5494234e-005 1.9075875e-005 0.99827629 -0.026348522
281838.29312645 0.98386186 -0.15424758 -3.807238e-005 6.6376119e-006 0.00044385204 0.0033827496
-2.1871549e-005 2.0946074e-005 -0.98903847 -0.11810791 -6.9856737e-006 1.1317324e-005
0.00043737784 0.0033704992 1.0403115e-005 1.66276e-005 0.99809533 -0.027869171
298538.2618918 0.98252451 -0.16309702 -1.7383712e-005 2.2027045e-005 0.00045205749 0.0035591433
-2.3404764e-005 3.0462159e-005 -0.98985088 -0.11137474 -2.1119973e-005 2.0151785e-005
0.00048223042 0.0035918723 -2.6100156e-006 2.1508758e-005 0.99794376 -0.029463483
316227.76601684 0.98066694 -0.17251329 -1.4852068e-005 3.8741724e-005 0.00052584306 0.0037638668
-3.2571297e-005 1.3778566e-005 -0.99050355 -0.1050625 2.6970954e-006 1.681273e-005
0.00053657364 0.0037619206 -5.005902e-006 4.9990749e-006 0.99785537 -0.031157779
334965.43915783 0.9788413 -0.18266577 -4.7925318e-005 1.8587441e-005 0.00058476714 0.0039645107
-3.9214268e-005 3.0934105e-005 -0.99130243 -0.099210478 -1.304284e-005 1.8033621e-005
0.00058236055 0.0039837817 -6.1218202e-006 1.0493409e-005 0.99767101 -0.032936394
354813.38923358 0.97678763 -0.1931076 -4.3445354e-005 2.7203298e-005 0.00064526236 0.0041892016
-3.8765738e-005 2.6626203e-005 -0.9918918 -0.093371123 -4.3042483e-006 3.0347608e-005
0.00064348086 0.0041969223 -2.4286148e-005 1.0335055e-005 0.99758852 -0.034973551
375837.40428844 0.9746058 -0.20429599 -2.9240777e-005 2.1931302e-005 0.00069929211 0.0044475938
-3.3616448e-005 3.4090925e-005 -0.99234408 -0.087939009 -1.4120316e-005 2.6586244e-005
0.0006967524 0.0044279909 -1.2010414e-006 1.6624339e-005 0.99754381 -0.036681227
398107.1705535 0.97196811 -0.21632226 -5.3285941e-005 1.2982759e-005 0.00078880036 0.0046613072
-3.5369951e-005 3.8721864e-005 -0.99285752 -0.082663007 -2.2412354e-005 2.0316416e-005
0.00076553255 0.0046590362 2.8422287e-006 1.1837682e-005 0.99739718 -0.038959894
421696.50342858 0.96900284 -0.22876847 -4.9541821e-005 3.4291519e-005 0.00085462356 0.004917548
-5.5070923e-005 2.9580995e-005 -0.99301684 -0.077511966 -1.0180668e-005 2.1438023e-005
0.00085082074 0.0049179345 -2.0021425e-005 1.7290962e-005 0.99698102 -0.041128639
446683.59215096 0.96575421 -0.24186142 -5.6111799e-005 4.4387827e-005 0.00094561843 0.0052002254
-5.0249531e-005 3.7746297e-005 -0.99312961 -0.073770866 -2.7203214e-006 2.0191355e-005
0.0009563787 0.0051999432 1.9675017e-006 4.3301679e-005 0.99673074 -0.043411501
473151.25896148 0.96216512 -0.25563645 -5.4606811e-005 5.6291799e-005 0.0010378708 0.0054687001
-6.266572e-005 3.5210713e-005 -0.99381346 -0.069566056 -7.7984005e-006 2.3482073e-005
0.0010752588 0.0054764189 -7.2485022e-006 1.1600624e-005 0.99666607 -0.045971371
501187.23362727 0.95807463 -0.27025709 -6.4109561e-005 4.5880417e-005 0.0011705888 0.0057497337
-6.8314817e-005 4.321216e-005 -0.99417573 -0.065325305 -8.1243397e-006 3.8035498e-005
0.0011730981 0.0057732775 -1.1336777e-005 3.7224632e-005 0.99655563 -0.048493616
530884.44423099 0.9533698 -0.28551063 -7.4719508e-005 6.7410547e-005 0.0012917785 0.0060871271
-7.1226968e-005 3.9032526e-005 -0.99452329 -0.061283201 -1.2869802e-005 2.9286355e-005
0.0012862363 0.006099035 -1.3138959e-005 2.16264e-005 0.99642777 -0.051171657
562341.32519035 0.9483943 -0.30159146 -7.9538855e-005 6.0756065e-005 0.0013994059 0.006401984
-7.5039745e-005 6.2309038e-005 -0.994829 -0.057584632 -1.9037516e-005 2.4814653e-005
0.0014161449 0.0064210636 -1.5011055e-005 3.2857239e-005 0.99601102 -0.054216713
595662.14352901 0.942774 -0.31835765 -8.3960796e-005 8.0320009e-005 0.0015586382 0.0067612636
-8.5527012e-005 4.5856723e-005 -0.9950043 -0.054005921 -1.4398039e-005 3.7653961e-005
0.0015832408 0.0067683482 -2.6943564e-005 3.7037935e-005 0.9957462 -0.05733053
630957.34448019 0.93680179 -0.33615109 -8.6244596e-005 6.309434e-005 0.0016930827 0.0071021891
-9.1174363e-005 6.5694177e-005 -0.99517655 -0.050636809 -1.3305621e-005 4.1958265e-005
0.0017427029 0.0071292087 -1.5014485e-005 2.6863574e-005 0.99551654 -0.060670517
668343.91756861 0.92969304 -0.35477254 -0.00010510552 6.3607687e-005 0.0018893221 0.0074882582
