!Keysight Technologies,E5080A,MY55100144,A.11.70.03
!Date: Monday, November 13, 2017 17:24:49
!Correction: S11(Full 3 Port(1,2,3)) 
!S12(Full 3 Port(1,2,3)) 
!S13(Full 3 Port(1,2,3)) 
!S21(Full 3 Port(1,2,3)) 
!S22(Full 3 Port(1,2,3)) 
!S23(Full 3 Port(1,2,3)) 
!S31(Full 3 Port(1,2,3)) 
!S32(Full 3 Port(1,2,3)) 
!S33(Full 3 Port(1,2,3)) 
!S3P File: Measurements: <S11,S12,S13>,
!<S21,S22,S23>,
!<S31,S32,S33>:Log Frequency Sweep
# Hz S  RI   R 50
10000 0.99674165 -0.0061539463 1.215876e-005 -9.3770259e-006 -5.5999753e-006 0.00013133962
-1.0945651e-005 -8.4805579e-006 0.47087377 -0.8755812 5.6274839e-006 -1.9374891e-005
-7.4991126e-006 0.00011510441 -2.2586839e-005 2.8752825e-006 0.99995756 -0.0025532828
10592.537251773 0.99692482 -0.0064557772 -6.4983501e-006 -8.4027255e-007 1.009871e-006 0.00013462742
-7.000081e-006 7.1863604e-007 0.42581615 -0.89812398 -2.8807608e-006 1.8893628e-005
2.6356572e-006 0.00011753159 -6.5002064e-006 -4.6293999e-006 0.99998897 -0.0023782202
11220.18454302 0.99702203 -0.0069191419 -8.2650186e-006 -7.5186358e-006 -3.6781014e-006 0.00014943276
2.4183628e-006 5.8660057e-006 0.3776018 -0.9188903 7.6752704e-006 -1.890591e-005
9.8799583e-006 0.00014278034 8.1706949e-006 1.887812e-005 0.99996978 -0.0024708374
11885.02227437 0.99687463 -0.0073766732 1.3161575e-005 8.8013576e-006 5.9868903e-006 0.00014073275
-2.249606e-007 -3.5918868e-006 0.3280009 -0.93770283 -1.3245009e-005 1.1948569e-005
2.114333e-006 0.00013840575 -1.2008731e-005 1.5437761e-005 1.0001302 -0.0023011365
12589.254117942 0.99696702 -0.0076032095 1.527998e-005 1.9201484e-006 -1.2991024e-005 0.00017593059
-1.4264961e-005 1.0623357e-005 0.276315 -0.95386368 6.8702579e-006 2.774332e-006
1.7066058e-006 0.00016087212 1.2699502e-006 -1.4026296e-005 1.000038 -0.0025809577
13335.214321633 0.99721158 -0.0079650693 1.3047356e-005 -4.1895464e-006 5.3503732e-006 0.00015794908
6.1285486e-006 5.0199947e-006 0.22319366 -0.96773171 2.8014261e-007 -1.1169085e-006
1.0127184e-005 0.00017039089 -2.6194823e-006 -5.2103692e-006 0.99985307 -0.0025105989
14125.375446228 0.996773 -0.0085543478 -7.6606984e-006 -7.8188953e-007 -3.013083e-006 0.00019003851
-3.1761003e-006 -4.7843018e-006 0.16835399 -0.97807449 1.5241964e-005 1.8545586e-005
-1.1329327e-005 0.00018156371 1.3974418e-005 -1.6843789e-005 1.0000237 -0.0025392834
14962.356560944 0.99693769 -0.009011128 1.9264606e-005 -9.0528656e-006 1.6266362e-005 0.00017090558
-8.5284937e-006 -1.3248131e-006 0.11265743 -0.98638928 -4.5628144e-006 2.373057e-005
-5.1334259e-006 0.00017952443 1.9198598e-005 4.241067e-006 0.99999249 -0.0025862036
15848.931924611 0.99713254 -0.0096028475 9.9838153e-006 -2.3161212e-005 -4.9580594e-005 0.00021459973
8.6880522e-007 1.0721228e-005 0.056009214 -0.99077874 -1.3879834e-005 9.5784771e-006
3.418013e-006 0.00020270344 2.6979436e-005 -2.3371605e-005 1.0000713 -0.0024579165
16788.040181226 0.99685198 -0.010221355 -1.2624127e-005 -5.2401992e-007 4.0018726e-006 0.0002179821
1.1460199e-005 5.1603561e-006 -0.00061451516 -0.99214846 -6.7452919e-007 -9.4293755e-006
-3.7933858e-006 0.00021231566 1.3998585e-005 2.0698362e-005 0.9999218 -0.0027415156
17782.794100389 0.99704736 -0.010634815 -5.9809759e-006 7.4755853e-006 2.0666296e-006 0.00022562171
-1.3255595e-006 -9.7031179e-006 -0.057409219 -0.99022317 -1.5555646e-005 6.0021734e-006
1.5498466e-005 0.00022694285 5.0907679e-006 1.9886855e-005 0.99988014 -0.0026539117
18836.490894898 0.99706942 -0.011263443 -1.1327954e-005 1.314351e-005 6.8901468e-006 0.00022923861
-2.911928e-006 2.0420594e-006 -0.11374369 -0.98545116 1.1668412e-006 8.6144637e-006
4.0998657e-006 0.00022652953 -1.5385252e-005 5.6835192e-006 0.99986619 -0.0028063729
19952.623149689 0.99701977 -0.011979339 1.9990084e-006 4.3963341e-006 1.5481286e-005 0.00025595399
4.6565506e-006 8.2732313e-006 -0.1692642 -0.97735661 1.2635844e-005 -1.0866414e-005
8.2059187e-006 0.00024976523 5.9543818e-006 4.1403259e-006 0.99991339 -0.0029731905
21134.890398366 0.99702454 -0.012750973 5.5931814e-006 -5.5547744e-006 1.3401792e-005 0.00023989216
1.2003743e-006 -1.106828e-006 -0.22400396 -0.96620893 -1.4376587e-006 9.5961286e-006
3.1464224e-006 0.00025746206 -1.5273894e-005 6.0295738e-006 0.99974418 -0.0031773436
22387.211385683 0.99692148 -0.013535568 1.4670949e-006 1.3213305e-005 -3.2293628e-006 0.00024757339
-5.0053741e-006 -1.2377208e-005 -0.27701908 -0.95231903 1.0701382e-005 7.2694011e-006
5.3903723e-006 0.00027241779 5.6967629e-006 -4.9780665e-006 0.99997646 -0.0032075546
23713.737056617 0.99700427 -0.014221236 -4.0652999e-006 -2.4079407e-006 2.1727006e-005 0.00029041118
3.3883848e-006 5.747707e-007 -0.32864699 -0.93554473 1.6834854e-006 1.2683125e-005
1.5019034e-005 0.0002885556 -8.049723e-006 -2.2201111e-005 0.99989122 -0.0032054682
25118.864315096 0.99698389 -0.015081226 -7.8881694e-006 1.1465306e-005 3.5820217e-006 0.00031793458
-4.6762802e-006 -1.0491242e-006 -0.37810835 -0.91692257 -2.092911e-006 6.6566326e-006
1.9708641e-005 0.00029607824 -1.034516e-005 -7.5392118e-006 0.99982393 -0.0033206639
26607.250597988 0.99694782 -0.015807346 -8.4301109e-006 -7.9166202e-006 1.7419528e-005 0.00031224868
2.5323388e-006 4.9212636e-006 -0.4256393 -0.89582843 -1.5284533e-005 -4.7501217e-006
2.6059974e-005 0.00032056461 1.5231079e-005 6.8252016e-006 0.99986321 -0.0034973361
28183.829312645 0.99706531 -0.016958365 -1.6478711e-005 5.7762568e-006 2.0587477e-005 0.00033618871
-2.0483348e-007 5.3492931e-006 -0.47111449 -0.87296343 -1.1320298e-005 -3.0564363e-006
2.6204061e-005 0.00033478104 -1.3237234e-005 -1.4599082e-005 0.99971426 -0.0036435432
29853.82618918 0.99697608 -0.017856453 -1.1194297e-005 -7.4479078e-007 2.3705086e-005 0.00038404166
4.5963193e-006 -7.663336e-006 -0.51384556 -0.84836018 1.562828e-005 1.1437635e-006
8.0825857e-006 0.00036648937 1.1489931e-005 -8.3731229e-006 0.99983162 -0.0037203506
31622.776601684 0.99679017 -0.018965608 -1.4372585e-005 -1.2742429e-005 -2.9246446e-006 0.00038363849
-5.1077413e-006 1.0761802e-005 -0.55411708 -0.82271099 9.7598613e-006 -1.0628409e-005
6.3515299e-006 0.00039294455 -2.02385e-005 -6.8870199e-006 0.99992502 -0.0039832564
33496.543915783 0.99684417 -0.01990464 1.8006594e-005 8.3296032e-007 -1.0805416e-006 0.00042685066
-3.1757115e-006 1.1274422e-005 -0.59203041 -0.79591042 -1.0248479e-005 3.4444454e-006
-4.8572224e-006 0.00042679984 -5.8188461e-006 3.1132447e-006 0.99970388 -0.0041408185
35481.338923358 0.9966836 -0.021084089 -7.0354399e-006 3.5579742e-005 1.1802425e-005 0.00045228581
-7.6176743e-006 1.3107348e-005 -0.62752819 -0.76831108 4.7791586e-006 -5.2807009e-006
1.6527509e-005 0.00044074332 1.1266088e-005 1.9187123e-006 0.99974489 -0.0042380071
37583.740428844 0.99677676 -0.022544026 -2.4269799e-005 -7.9575984e-006 1.2317321e-005 0.00047626096
3.927993e-006 3.0622016e-006 -0.66039163 -0.74034137 3.8387529e-006 -9.0805315e-006
3.477158e-005 0.00048348226 4.5648094e-006 1.310857e-005 0.99966687 -0.0044990717
39810.71705535 0.99673158 -0.023819309 -1.9392464e-005 1.8551553e-005 2.2274435e-005 0.00049206888
-1.0262868e-005 5.2350538e-006 -0.6909827 -0.71207011 4.0549589e-006 -7.9612182e-006
1.3329205e-005 0.0004956919 2.1732279e-005 -7.3282563e-006 0.9997139 -0.0047206962
42169.650342858 0.99675351 -0.025174879 -4.4834787e-006 8.5703286e-006 1.1278537e-005 0.00051324279
4.6262089e-006 9.5332103e-007 -0.71920288 -0.68384254 1.0121396e-005 -4.2524021e-006
1.7613607e-005 0.00052086712 -2.5482042e-005 -2.4696083e-005 0.99957854 -0.0049746945
44668.359215096 0.99670953 -0.026663367 -1.4584679e-006 6.3272873e-006 1.408587e-005 0.00055738218
4.086146e-006 2.1528956e-007 -0.74522263 -0.65552276 -1.0972369e-005 5.3543886e-006
-2.35794e-006 0.00055841747 -1.7716082e-005 -1.1095942e-005 0.99942797 -0.0051551443
47315.125896148 0.99668574 -0.028194094 2.0669933e-005 -2.6813799e-005 8.8372144e-006 0.00060820958
-1.5319481e-006 7.7828799e-006 -0.76917064 -0.62750018 6.9113839e-006 -8.9253035e-006
2.9263216e-005 0.00060332799 1.2719906e-005 -3.4597961e-006 0.99953592 -0.0054800957
50118.723362727 0.99659729 -0.029897077 2.5294596e-005 1.0868257e-005 6.6036255e-006 0.00062575354
-3.3337832e-007 1.7866665e-005 -0.79097205 -0.59984493 3.3451201e-006 1.6795293e-005
3.8953171e-005 0.00061497581 -1.9056008e-006 2.4734095e-006 0.99946916 -0.0057315119
53088.444423099 0.99655765 -0.031723823 1.3727778e-005 -3.8495881e-007 7.9950742e-006 0.00066175911
5.0631647e-006 5.408263e-006 -0.81102496 -0.57278216 -8.4857575e-006 -6.2105928e-006
1.5581732e-005 0.00066570682 3.8764583e-006 5.7871061e-006 0.99950558 -0.00606973
56234.132519035 0.99645829 -0.03370779 -1.0884602e-006 -5.2859768e-006 1.8928964e-005 0.00068177661
-1.1122735e-005 1.3537454e-005 -0.82916498 -0.54636347 2.3790349e-006 -2.2871791e-006
1.1635199e-005 0.00069176388 7.1047998e-006 -2.900361e-005 0.99932754 -0.0063419803
59566.214352901 0.99629533 -0.035532143 3.1560994e-005 5.4377738e-006 2.8842574e-005 0.00073117204
-1.6621783e-007 1.4569916e-005 -0.84568501 -0.52059388 1.8273295e-006 -5.9423132e-007
5.9871741e-006 0.0007217995 -3.3423503e-006 2.2803995e-005 0.99913824 -0.006637631
63095.734448019 0.99621004 -0.037592642 1.2283744e-005 1.8451525e-005 2.850491e-005 0.0007951982
-1.0227594e-005 6.9333696e-006 -0.86080921 -0.49571016 3.9431866e-006 -5.4315105e-006
3.9231003e-005 0.00079341372 3.3504843e-006 -6.1816572e-006 0.99936897 -0.0068721948
66834.391756861 0.996144 -0.039788816 -1.8395087e-005 2.0691548e-005 3.0757765e-005 0.00085239037
9.1395543e-007 2.358021e-006 -0.87439471 -0.47148627 8.5063175e-007 -1.7478914e-007
2.5746742e-005 0.00082061184 3.1556876e-006 2.5471256e-005 0.99938589 -0.0073149609
70794.578438414 0.9960407 -0.042173259 3.4917448e-006 -1.3947365e-006 3.3496304e-005 0.00087839324
-1.215725e-005 1.1009105e-005 -0.88663572 -0.44822747 -9.2717659e-007 -2.9725186e-006
5.9127997e-006 0.00088571967 -1.3769286e-005 7.212383e-006 0.99913728 -0.0077343462
74989.420933246 0.99586838 -0.04463955 2.5127676e-005 8.6201035e-006 3.5460846e-005 0.00093310553
-2.2192505e-006 5.3823301e-006 -0.89784753 -0.425706 3.3730621e-006 4.9745545e-006
3.8353319e-005 0.00093597692 -9.2733444e-006 1.1252216e-005 0.99920738 -0.0079713473
79432.823472428 0.99589694 -0.047230404 1.0713165e-005 1.0292187e-005 1.5853666e-005 0.00096715725
3.2135777e-006 1.174412e-005 -0.90798718 -0.40400615 1.0723036e-005 1.1421771e-006
3.0728628e-005 0.00096713839 -1.0951252e-005 2.5600279e-005 0.99908131 -0.0084948102
84139.514164519 0.99565482 -0.050016496 -5.7950483e-006 1.9949308e-005 3.328027e-005 0.0010403133
-6.7311666e-006 2.3818147e-005 -0.91691566 -0.38339365 5.9734848e-006 7.8742305e-006
5.3571781e-005 0.0010392062 -1.4194092e-005 -1.5529818e-005 0.99896455 -0.0088353241
89125.093813375 0.99551678 -0.052843623 -1.5252818e-005 2.584365e-005 4.1708208e-005 0.0011242789
-1.3849141e-005 1.4465979e-005 -0.92522681 -0.36348435 -2.6442622e-005 4.3484683e-008
3.4731631e-005 0.0010907592 4.7376911e-006 2.1490938e-005 0.99909502 -0.0093781091
94406.087628592 0.99535805 -0.056096606 -7.7045761e-006 -1.1325221e-005 5.5313361e-005 0.0011734673
-1.9929224e-005 1.7950097e-005 -0.93246222 -0.3446084 1.3781381e-006 5.8866362e-006
7.6777826e-005 0.0011623898 5.4518455e-006 -2.652265e-006 0.99908841 -0.0098222485
100000 0.99522924 -0.059414569 4.2567831e-006 -2.2885745e-006 6.4516833e-005 0.0012560397
-6.3724101e-006 1.7268852e-005 -0.93905109 -0.32638809 1.1838122e-005 1.4285789e-005
6.8472007e-005 0.0012283402 -1.4729118e-005 -2.1296562e-005 0.99884862 -0.010330363
105925.37251773 0.99503398 -0.06290184 2.781353e-006 2.7549673e-005 8.7314693e-005 0.0013113584
-2.0306782e-006 3.2110338e-006 -0.94502348 -0.30922246 7.2015068e-006 1.7772138e-005
4.4417047e-005 0.001309781 -1.9485175e-005 3.4896744e-005 0.99896878 -0.010859153
112201.8454302 0.99487853 -0.06658005 5.4829629e-006 2.1009047e-005 8.9300098e-005 0.0013952266
-3.9404927e-006 1.5907837e-005 -0.95038414 -0.2926577 2.0677285e-006 2.4697295e-006
8.0089521e-005 0.0013997875 9.9229528e-006 -1.4233129e-006 0.99903208 -0.011455378
118850.2227437 0.9945085 -0.070534825 6.8380541e-006 1.290272e-005 9.2305942e-005 0.0014621017
-4.6801906e-006 4.9755222e-006 -0.95515829 -0.27700743 -4.1290823e-006 8.8339621e-006
7.2446601e-005 0.0014507495 1.8424906e-005 -5.5086239e-006 0.99912602 -0.012124284
125892.54117942 0.99438012 -0.074551292 2.0333e-005 1.9054653e-005 0.00011044469 0.0015538479
-8.688784e-006 1.7512104e-005 -0.95945334 -0.26212838 -6.643842e-006 2.166911e-005
0.00010534975 0.0015397638 1.0402474e-005 1.0021937e-005 0.99904144 -0.012789574
133352.14321633 0.99401218 -0.078973792 4.4663398e-006 2.4084336e-005 9.9734876e-005 0.0016369757
-1.703226e-005 2.5025829e-005 -0.96330482 -0.24782157 8.9228188e-006 1.4610161e-005
8.5959735e-005 0.0016589036 9.0680783e-007 -3.6147194e-006 0.99897575 -0.013558279
141253.75446228 0.99358743 -0.083839349 -3.9460638e-006 2.9477153e-005 0.00013429142 0.0017252525
-1.3306888e-005 2.0123263e-005 -0.96674407 -0.23445052 2.7005674e-007 1.1350467e-005
0.00011691057 0.0017477936 2.0375057e-005 2.858223e-005 0.99891496 -0.014294314
149623.56560944 0.99302846 -0.088710353 -1.4160365e-005 4.6313889e-005 0.00013938139 0.0018435784
-1.0365766e-005 2.2802984e-005 -0.96987772 -0.22158511 -6.5941726e-006 9.1828369e-006
0.00014268614 0.0018505596 -3.2912382e-007 2.6666656e-005 0.99895191 -0.015162131
158489.31924611 0.9926548 -0.09391173 -5.5528999e-006 1.0121489e-005 0.00016826112 0.0019463868
-1.3571962e-005 2.2370121e-005 -0.97260815 -0.20938317 5.1797992e-006 -4.8841025e-007
0.00014538494 0.0019281881 -2.7682872e-005 2.5093008e-005 0.9988938 -0.016135192
167880.40181226 0.99203289 -0.09946534 -2.073816e-005 2.2370243e-005 0.000164988 0.0020412803
-4.939418e-007 2.2520855e-005 -0.97510117 -0.19777575 7.4427237e-007 7.0282154e-006
0.00017906007 0.0020599228 -1.3510336e-005 1.436793e-005 0.99885494 -0.017020321
177827.94100389 0.9913047 -0.10531654 -1.4993427e-005 2.9725026e-005 0.00021014803 0.0021563997
-7.3918891e-006 3.1892389e-005 -0.97668225 -0.18585111 6.6110938e-006 2.30528e-005
0.00017550193 0.0021839724 2.9617442e-005 2.0348296e-005 0.99885571 -0.017895924
188364.90894898 0.99062401 -0.11148033 -2.2376253e-005 3.4681671e-005 0.0002097071 0.0023028203
-2.0841315e-005 3.1058207e-005 -0.97919106 -0.17698027 -4.6468599e-006 1.6810587e-005
0.0002236142 0.0022992494 5.4173101e-006 1.5936444e-005 0.99863756 -0.019029446
199526.23149689 0.98963612 -0.11803763 -1.2723776e-005 1.3929448e-005 0.00022835925 0.0023964203
-6.9587104e-006 3.1048115e-005 -0.98103374 -0.16710873 -1.4459016e-005 1.3692469e-005
0.00021865606 0.0024201861 -1.0639274e-005 2.9230498e-005 0.99876243 -0.020113833
211348.90398366 0.98891538 -0.12501188 -2.1152655e-005 3.5107416e-005 0.00029348797 0.002541089
-1.0021976e-005 3.6759866e-005 -0.98269904 -0.15777104 -2.3243626e-006 1.6300139e-005
0.00026493776 0.0025691926 1.5239417e-005 3.7336944e-005 0.99844694 -0.021241074
223872.11385683 0.98807776 -0.13229012 -1.1588915e-005 4.2973268e-005 0.00028467923 0.0027119601
-1.3897639e-005 3.5708959e-005 -0.98408484 -0.14892918 -4.5986999e-006 2.9236926e-005
0.00031243605 0.0027275102 1.2843761e-005 1.7060973e-005 0.99846929 -0.022421768
237137.37056617 0.98703641 -0.13999145 -6.8201877e-007 3.2462696e-005 0.00033398133 0.0028820459
-2.002031e-005 3.6574576e-005 -0.98527366 -0.14056948 -1.0882294e-005 4.7683525e-006
0.00031467617 0.002896677 -2.0774183e-005 5.4190532e-006 0.99836642 -0.023561934
251188.64315096 0.98590648 -0.14820901 -2.9288536e-005 2.474408e-005 0.00035392508 0.0030232442
-1.7715247e-005 2.9424744e-005 -0.98645711 -0.1326759 -6.5772765e-006 3.2721782e-005
0.00035181281 0.0030400655 1.3346603e-006 -1.4021241e-005 0.99835712 -0.025111634
266072.50597988 0.98442471 -0.15698357 -1.4681465e-005 1.615395e-005 0.00038773316 0.0032016893
-1.1098874e-005 4.7947968e-005 -0.98752499 -0.12513022 -1.8602242e-006 2.2718637e-005
0.00041405624 0.0031736966 4.8804313e-006 2.3793822e-005 0.99822903 -0.026423445
281838.29312645 0.98280019 -0.16639976 -4.3612832e-005 3.2608106e-005 0.00044648474 0.003388481
-2.3773213e-005 5.7424146e-005 -0.98844975 -0.11807137 -6.5869804e-006 3.7427119e-005
0.00046871629 0.0033893043 -9.0579715e-006 5.9365398e-006 0.99818146 -0.027769515
298538.2618918 0.9810043 -0.1758952 -8.1990047e-006 3.2687443e-005 0.00048971252 0.0035724828
-1.426915e-005 5.5879947e-005 -0.98920143 -0.11138524 -1.2237765e-005 2.7193228e-005
0.00048989622 0.003584347 -2.1108452e-005 9.0806388e-006 0.99790347 -0.029503983
316227.76601684 0.9792102 -0.18619369 -5.4939152e-005 4.0417937e-005 0.00054047635 0.0037675975
-2.7791855e-005 5.2567684e-005 -0.98986346 -0.10505441 4.9118844e-006 9.303888e-006
0.0005644788 0.0037862454 -2.4232475e-005 3.3491371e-005 0.9977954 -0.031168194
334965.43915783 0.97690392 -0.19691531 -1.8438246e-005 5.4424054e-005 0.00059483096 0.0039823432
-3.9365317e-005 5.4834079e-005 -0.99058622 -0.099153243 -3.1892325e-006 4.2320291e-005
0.00060116226 0.0039709457 6.7777296e-006 2.1869197e-005 0.99763775 -0.032988008
354813.38923358 0.97457975 -0.20830044 -4.2658019e-005 7.4044765e-005 0.00069081673 0.0041962415
-3.3130331e-005 4.2029213e-005 -0.99122524 -0.093364879 7.9552166e-007 2.6621528e-005
0.00066507439 0.0042037508 3.4348718e-006 1.3376198e-005 0.99767947 -0.034972224
375837.40428844 0.97197717 -0.22028153 -4.6260539e-005 6.2389809e-005 0.00072740886 0.0044166208
-3.4757002e-005 7.082957e-005 -0.99164903 -0.087944776 -2.4129575e-005 2.838113e-005
0.00072990672 0.0044403202 -1.5792431e-005 3.3694872e-005 0.99737632 -0.036708478
398107.1705535 0.96892661 -0.23289441 -5.6323304e-005 5.0179482e-005 0.0008490794 0.0046794307
-5.8976508e-005 6.6531858e-005 -0.99217951 -0.082599156 -3.0296908e-006 3.0391877e-005
0.0008047297 0.0046924218 -4.0544226e-005 3.3973673e-005 0.99738741 -0.038860772
421696.50342858 0.96550316 -0.24642719 -4.9012429e-005 7.0959752e-005 0.00090746663 0.0049329815
-5.0016937e-005 7.0946408e-005 -0.99235541 -0.077417061 -6.3102548e-006 3.5036002e-005
0.00090391794 0.0049376027 -2.2476346e-005 2.8707567e-005 0.99722934 -0.041050062
446683.59215096 0.96193612 -0.26042822 -4.1228192e-005 6.7963811e-005 0.0010189491 0.0052127414
-4.1006824e-005 7.6883713e-005 -0.99242562 -0.073743924 7.119098e-006 3.3974986e-005
0.0010099686 0.0052085076 -1.4668788e-005 4.8191203e-005 0.99677992 -0.043310083
473151.25896148 0.9574762 -0.27524245 -5.2801661e-005 7.9615078e-005 0.0011192474 0.0054830522
-5.7841422e-005 7.4356176e-005 -0.9931668 -0.069540806 -1.2149614e-005 4.7425227e-005
0.001125131 0.0055009541 -1.7508161e-006 4.7772592e-005 0.99657267 -0.045980442
501187.23362727 0.9527635 -0.29085523 -6.1989573e-005 8.2919476e-005 0.0012247162 0.005776952
-7.0556918e-005 8.5196662e-005 -0.9935481 -0.065291636 -2.0750798e-005 4.4520388e-005
0.0012327543 0.0057751988 -1.6648914e-005 3.9480343e-005 0.99652135 -0.048442513
530884.44423099 0.94754142 -0.30739599 -7.1631628e-005 0.00010876463 0.0013652593 0.0060807443
-5.9955863e-005 8.8074201e-005 -0.99384123 -0.061288137 -4.4676162e-006 4.5439279e-005
0.001358788 0.0060900957 -7.4206328e-006 6.5576605e-005 0.99642432 -0.051320158
562341.32519035 0.94176316 -0.32448542 -6.8873022e-005 9.3581417e-005 0.0015202019 0.0064392523
-7.6428107e-005 9.4688738e-005 -0.99413878 -0.057525951 -1.0071036e-005 4.1481537e-005
0.0015086774 0.0064254305 -7.2935379e-008 4.6618385e-005 0.99601388 -0.054281492
595662.14352901 0.93541324 -0.34227556 -8.6596294e-005 9.7106e-005 0.0016600281 0.0067514321
-8.8261848e-005 0.00010355701 -0.99441439 -0.054005396 -2.7869735e-005 5.7080957e-005
0.0016514066 0.0067629959 -1.9204417e-005 4.3239375e-005 0.99578947 -0.057364952
630957.34448019 0.92840594 -0.36129823 -0.00012508823 0.00011503288 0.0018277577 0.0071006543
-9.7056902e-005 0.00011222569 -0.9944998 -0.050640341 -2.0748486e-005 5.573712e-005
0.0018312889 0.0071064271 -1.9854269e-005 5.700301e-005 0.99556935 -0.060694017
668343.91756861 0.92012876 -0.38116854 -0.00012656218 0.00012616515 0.0020097508 0.0074651809
