!Keysight Technologies,E5080A,MY55100144,A.11.70.03
!Date: Monday, November 13, 2017 17:22:54
!Correction: S11(Full 3 Port(1,2,3)) 
!S12(Full 3 Port(1,2,3)) 
!S13(Full 3 Port(1,2,3)) 
!S21(Full 3 Port(1,2,3)) 
!S22(Full 3 Port(1,2,3)) 
!S23(Full 3 Port(1,2,3)) 
!S31(Full 3 Port(1,2,3)) 
!S32(Full 3 Port(1,2,3)) 
!S33(Full 3 Port(1,2,3)) 
!S3P File: Measurements: <S11,S12,S13>,
!<S21,S22,S23>,
!<S31,S32,S33>:Log Frequency Sweep
# Hz S  RI   R 50
10000 0.99685591 -0.0013305322 1.2237467e-006 0.00028106294 1.1095075e-006 0.00016330183
1.5725076e-005 0.00030084644 0.99887544 -0.0036453975 3.7374535e-005 0.00069380377
-2.1971597e-005 0.00016006612 -1.7071856e-005 0.00072667765 0.99988514 -0.0024554767
10592.537251773 0.99686652 -0.0016325887 1.0335765e-005 0.00030361605 3.1560662e-006 0.00017053037
2.4964147e-005 0.00028944598 0.99872029 -0.0036396494 -2.1078011e-005 0.00073258887
-6.4644119e-006 0.00018402585 7.8527073e-006 0.00075439748 0.99993175 -0.002284935
11220.18454302 0.99695522 -0.0017195598 1.4622775e-005 0.00033071803 1.0623155e-005 0.000183382
4.3274626e-006 0.00029754927 0.99895656 -0.0037519517 2.3773389e-005 0.00079598394
1.0060166e-005 0.00019426612 -1.4902154e-006 0.00077125605 1.0001701 -0.0023675542
11885.02227437 0.9968515 -0.001746416 -2.3943381e-005 0.00032970172 1.0516363e-005 0.00017915134
-3.1531383e-006 0.00034964687 0.99876368 -0.0039482093 1.7140055e-005 0.00086753618
-8.0922518e-006 0.00020057312 2.3490751e-005 0.00084491709 1.0001004 -0.0022571709
12589.254117942 0.99712509 -0.0018798974 9.5971245e-006 0.00036158785 1.8778948e-005 0.00019189734
-2.4880466e-005 0.00034890513 0.99895746 -0.0041432912 7.4916061e-006 0.00090245431
-6.5755612e-006 0.00020848359 5.9649669e-006 0.0008946734 0.99999326 -0.0025688317
13335.214321633 0.99704742 -0.0021073713 1.0770088e-005 0.00038033319 -2.098661e-005 0.00021371079
1.7867196e-005 0.0003850584 0.99897337 -0.0044984263 1.5700432e-005 0.00093310309
2.0843001e-006 0.00022617112 -1.1708365e-005 0.00093792839 0.99987566 -0.0024165125
14125.375446228 0.99682289 -0.0022285343 9.1377069e-006 0.0004073274 -1.2170534e-006 0.00023331086
3.9020365e-006 0.00038474621 0.9989382 -0.0045862095 1.1669596e-005 0.0010131862
-6.4514038e-006 0.00022676811 3.5547146e-005 0.0010028118 0.99998885 -0.0023957707
14962.356560944 0.99693608 -0.0022553313 7.0275384e-008 0.00040082121 2.8033562e-006 0.00024518967
-4.2528759e-006 0.00042410658 0.99904776 -0.0046666306 1.1811329e-005 0.0010580777
1.3723217e-006 0.00024495361 1.9703904e-005 0.001058813 1.0000191 -0.002586121
15848.931924611 0.99704778 -0.0024132999 6.3446014e-006 0.00044418295 1.6082022e-005 0.00026017847
-2.4285174e-007 0.0004523489 0.99875665 -0.0048348042 2.2029875e-005 0.0011444011
1.4584036e-005 0.00026007072 2.6182923e-005 0.001117777 1.000123 -0.0026269881
16788.040181226 0.99691671 -0.0026069665 9.3574936e-006 0.00048196525 -1.4701098e-005 0.00026579641
-2.89787e-006 0.00048705432 0.99902987 -0.0053411475 1.7423414e-005 0.0011794569
-9.4637317e-006 0.00027644919 -5.3366184e-006 0.0012012616 1.0000157 -0.0028376381
17782.794100389 0.99714738 -0.002570905 1.6006998e-005 0.00049298513 4.1665777e-007 0.00030542095
-1.5025288e-005 0.00049872877 0.99901956 -0.0054625035 3.4654702e-006 0.001264294
5.5452479e-006 0.00029584885 1.5451689e-006 0.001260414 0.9999429 -0.0027198133
18836.490894898 0.9971543 -0.0027723394 -5.8330152e-006 0.00053449837 1.4258319e-005 0.00033752003
2.8496192e-006 0.00053154188 0.99907625 -0.0058125779 1.7202605e-005 0.0013232444
-6.1898827e-006 0.00030864635 1.0521433e-005 0.001324427 0.99999821 -0.002772558
19952.623149689 0.99707377 -0.0030954629 3.2439348e-006 0.00054749229 2.1231594e-005 0.00032694117
-2.7351956e-005 0.00054564868 0.99914688 -0.0060089342 2.8061744e-005 0.001412523
-1.0659644e-005 0.00033217785 9.7573493e-006 0.0014205315 0.9999736 -0.0029366249
21134.890398366 0.99705499 -0.0032279312 7.6163979e-006 0.00059363293 1.891316e-007 0.00034791586
6.985164e-006 0.00058595685 0.99913371 -0.0063000307 1.7296335e-005 0.0014772498
1.3470151e-005 0.0003459008 5.7195271e-006 0.0014970549 0.99987745 -0.0030137363
22387.211385683 0.99696237 -0.0034762539 2.944974e-005 0.00062322285 2.0515033e-006 0.00035975422
1.5400732e-005 0.00061555038 0.99912047 -0.006588921 2.377798e-005 0.0015757
-4.9429323e-006 0.00037018445 2.7607988e-005 0.0016150161 0.99994743 -0.0031432647
23713.737056617 0.99694157 -0.003592202 5.1634843e-006 0.00067747186 -1.0977764e-005 0.00038073433
1.7610671e-007 0.00068667805 0.99922526 -0.0070207869 3.1710264e-005 0.0016714204
-1.3385667e-006 0.00040504028 1.2710992e-005 0.0016795744 0.99967808 -0.0031535444
25118.864315096 0.99696136 -0.0038928546 -2.2191439e-006 0.00068799313 -1.6109178e-005 0.00040399094
1.1013991e-005 0.00069678319 0.99902803 -0.0072353999 1.1235148e-005 0.0017806642
6.5084546e-006 0.00039970505 3.2923977e-005 0.0017878459 0.99992061 -0.0033837401
26607.250597988 0.9971779 -0.0038745906 6.8678764e-006 0.00073111948 1.0949404e-005 0.00042994978
1.206367e-005 0.00074699218 0.99911302 -0.0077819745 3.5098165e-005 0.0018959092
7.3687283e-006 0.00045206264 1.6226955e-005 0.0018643541 0.99986345 -0.003533392
28183.829312645 0.99704903 -0.0043990524 -7.3799183e-006 0.0007750793 9.901667e-006 0.00048389935
9.3464661e-007 0.00079246907 0.99904531 -0.0081846733 1.2205925e-005 0.0019875721
8.1453773e-006 0.00049321796 1.4064203e-005 0.0020139436 0.99987185 -0.0036424338
29853.82618918 0.99713832 -0.0044341143 2.003267e-005 0.00082808157 -1.3865911e-005 0.00046963312
-8.7865948e-007 0.000833639 0.99919385 -0.0086203516 4.4913253e-005 0.0021301932
6.1449332e-006 0.00048492328 3.1981559e-005 0.0021170054 0.99996275 -0.0036414524
31622.776601684 0.9970814 -0.0048507457 4.0066479e-006 0.00088153104 -8.2458455e-006 0.00050495571
-2.2634856e-006 0.00087304221 0.99907905 -0.0091540283 3.3346932e-005 0.0022408592
1.2827684e-007 0.00051706273 3.3987544e-005 0.0022403032 0.99987054 -0.0039882241
33496.543915783 0.99710965 -0.0051077921 1.6236403e-005 0.00093349168 -1.3616001e-005 0.00054063124
-7.4465329e-006 0.00094578031 0.99906844 -0.0096593006 4.5187819e-005 0.0023801241
1.1198841e-005 0.00057123025 2.4839645e-005 0.0023694404 0.99987441 -0.0041790674
35481.338923358 0.99696583 -0.005329249 1.4701016e-006 0.00098633626 -1.3784436e-006 0.00059239398
1.8711624e-005 0.00098713941 0.99923027 -0.010195757 3.2327924e-005 0.0025393039
-2.8869584e-007 0.00058076065 5.183199e-005 0.0025198043 0.99978006 -0.00415042
37583.740428844 0.99695855 -0.0057506459 1.4518573e-005 0.0010499504 1.2515922e-006 0.00062292902
7.8878802e-006 0.0010637246 0.99928349 -0.01063088 4.8622522e-005 0.0026594494
1.8018579e-006 0.00060809305 3.0417537e-005 0.002670672 0.99956852 -0.0044695325
39810.71705535 0.99691743 -0.006027618 2.2274962e-006 0.0011105464 -7.311261e-006 0.00068067951
1.0453171e-005 0.0011319744 0.99914789 -0.011492349 5.6525983e-005 0.002821445
-3.6927622e-006 0.00065513985 6.5786924e-005 0.0028118659 0.99963874 -0.0047501377
42169.650342858 0.99694747 -0.0063595581 6.2803756e-006 0.0011776483 -1.4026112e-006 0.00066377129
6.1900341e-006 0.0011575074 0.99925709 -0.012028493 3.7683345e-005 0.002987616
-1.1327224e-005 0.00068547548 4.2663683e-005 0.0029910188 0.99964559 -0.0049368367
44668.359215096 0.99701655 -0.0068208082 2.3484552e-005 0.0012448457 6.6354351e-006 0.00071474555
1.3472752e-006 0.0012474158 0.9991414 -0.01277802 6.2183004e-005 0.0031473439
1.0405089e-005 0.00071363332 5.5058448e-005 0.0031747029 0.99951559 -0.0053489883
47315.125896148 0.99706674 -0.0072361813 -9.9595618e-006 0.0013102023 -3.0362719e-006 0.00076306163
8.9446467e-006 0.0013185104 0.99904919 -0.013465286 4.9552582e-005 0.003355999
1.2116543e-005 0.00078846444 7.5553078e-005 0.0033410823 0.99961376 -0.0053274264
50118.723362727 0.9969784 -0.0075518703 1.2101727e-005 0.001428697 1.8763481e-005 0.00081522897
1.3260463e-005 0.0013997718 0.99894029 -0.014357191 6.5804277e-005 0.0035375359
1.0508059e-007 0.0008306891 6.4100233e-005 0.0035283437 0.99946839 -0.0056689032
53088.444423099 0.99702263 -0.0079479367 3.1424875e-006 0.0014956825 2.648394e-005 0.00087638316
6.8155591e-006 0.0014814534 0.99917883 -0.015188945 7.5475495e-005 0.0037767063
2.7208502e-005 0.00086522644 8.62222e-005 0.003763546 0.99954337 -0.0061198105
56234.132519035 0.99683219 -0.0085962368 1.004567e-005 0.0015645782 1.7211172e-005 0.00092205004
1.8464092e-005 0.0015865138 0.99891669 -0.016099054 0.0001080086 0.0039717681
1.0642551e-005 0.00091969676 8.4237487e-005 0.0039909887 0.99941808 -0.0063299206
59566.214352901 0.99708933 -0.0090395734 2.7843089e-005 0.0016705773 3.4852954e-005 0.00097645639
1.6742397e-005 0.0016751919 0.9988026 -0.017047439 0.00011540423 0.0042167227
1.6716263e-005 0.00097509346 7.9008416e-005 0.0042186962 0.99922067 -0.006526283
63095.734448019 0.99699861 -0.0095773824 1.9957521e-005 0.0017695749 3.5820845e-005 0.0010520177
1.8001294e-005 0.0017670585 0.99884355 -0.018146195 8.6112224e-005 0.0044522332
-7.6716759e-007 0.0010162683 0.00012056227 0.0044630067 0.99948412 -0.0068219667
66834.391756861 0.99685305 -0.010135974 2.0734069e-005 0.0018503491 3.9922714e-005 0.0010914818
1.2917956e-005 0.0018940592 0.99881119 -0.019213023 0.00011826462 0.0047214516
2.3879464e-005 0.0010928519 0.00011030676 0.004739305 0.99936593 -0.0073144711
70794.578438414 0.9967615 -0.01071432 2.0450318e-005 0.0019850428 2.8512588e-006 0.0011670266
6.980094e-006 0.0019905779 0.99865264 -0.020179726 0.00014487325 0.0049886084
3.0293053e-005 0.0011552968 0.00012643072 0.0050032488 0.999219 -0.0077411467
74989.420933246 0.99685252 -0.011221712 3.9460694e-005 0.0020905528 8.4194262e-006 0.0012467421
2.6193371e-005 0.0021024074 0.99872303 -0.021203507 0.00013740988 0.0053004092
1.9333143e-005 0.0012222328 0.0001705724 0.0053023454 0.99928808 -0.0079841632
79432.823472428 0.99676871 -0.011876438 7.0238125e-006 0.0022149403 3.0445432e-005 0.0012883665
3.0890442e-005 0.0021966826 0.99865657 -0.022434065 0.0001692572 0.0056002056
1.7849643e-005 0.0012863292 0.0001709421 0.0056306366 0.9992041 -0.0085201068
84139.514164519 0.99685979 -0.012534725 1.5692694e-005 0.0023573581 -5.7116917e-008 0.0013953983
3.7115009e-005 0.0023614343 0.99863231 -0.023803897 0.00017507671 0.0059162308
1.9142037e-005 0.0013709516 0.00019749369 0.0059124543 0.99900329 -0.0087688025
89125.093813375 0.99683404 -0.013189935 2.1149013e-005 0.0024798012 3.1871205e-005 0.0014430924
2.3113238e-005 0.0024894567 0.99853474 -0.025132565 0.00021820419 0.0062931082
2.3856062e-005 0.0014487338 0.00020744602 0.0062748468 0.9991011 -0.0093446039
94406.087628592 0.99699783 -0.014002094 5.9241343e-006 0.0026337446 5.3835422e-005 0.0015493642
5.6479748e-005 0.0026413191 0.99842864 -0.026533045 0.00021150202 0.006675934
3.7885144e-005 0.0015239058 0.00024590862 0.0066539347 0.99917835 -0.00989551
100000 0.99697685 -0.014767833 6.2206142e-005 0.0028123888 4.3585806e-005 0.0016312784
3.5707981e-005 0.0028002819 0.99842012 -0.028215274 0.00024739979 0.0070173186
7.0522779e-005 0.0016263839 0.00027969069 0.0070393169 0.99906361 -0.010293106
105925.37251773 0.99699599 -0.015783692 2.6173459e-005 0.0029731109 4.6183137e-005 0.0017196011
4.595565e-005 0.0029680694 0.99834412 -0.029808914 0.00028110496 0.0074611506
3.6793852e-005 0.0017276284 0.00029977498 0.0074760062 0.99885625 -0.010710331
112201.8454302 0.99691451 -0.016650477 5.0998937e-005 0.0031322227 4.410596e-005 0.0018190223
6.1291168e-005 0.0031269975 0.99834371 -0.031582229 0.00033913174 0.0079113701
4.1354317e-005 0.0018214626 0.0003174782 0.0078784795 0.99900609 -0.011517465
118850.2227437 0.99681258 -0.017571747 4.6050292e-005 0.0033249413 3.352507e-005 0.0019324344
5.9485381e-005 0.0033203634 0.99845642 -0.033321526 0.00035795855 0.0083455667
4.0639345e-005 0.0019359641 0.00035763413 0.0083566038 0.99896938 -0.012058075
125892.54117942 0.99707943 -0.018690037 6.0217368e-005 0.0035258562 6.8014997e-005 0.0020622425
7.6679004e-005 0.0035194287 0.99823767 -0.035389591 0.00039061595 0.0088571133
6.2627914e-005 0.002065093 0.00040389516 0.0088513326 0.99909049 -0.012743082
133352.14321633 0.99696994 -0.019753434 8.5046049e-005 0.0037468097 7.9374753e-005 0.0021719215
8.2908096e-005 0.0037174928 0.99832988 -0.037401482 0.00045448128 0.0093755396
8.290376e-005 0.0021638798 0.000447931 0.009377717 0.99893814 -0.013476307
141253.75446228 0.99687856 -0.021086358 8.9753237e-005 0.0039843875 6.6765722e-005 0.0022859927
7.9444981e-005 0.0039669867 0.99796772 -0.039802521 0.00047479058 0.0099093951
7.2132018e-005 0.0022931001 0.000483429 0.0099179195 0.99904275 -0.014385568
149623.56560944 0.99677777 -0.022283792 8.5959582e-005 0.0041889451 7.1770024e-005 0.0024090938
0.00010528765 0.004185332 0.99783492 -0.041962687 0.000513145 0.01048641
9.2104718e-005 0.0024305531 0.00054619258 0.010492461 0.99884862 -0.015231016
158489.31924611 0.99687546 -0.023571081 0.00011392227 0.0044379071 8.4942745e-005 0.002583642
0.00010845787 0.0044289054 0.99775755 -0.044425353 0.00062189373 0.011085789
0.00010081493 0.002567254 0.00061166758 0.011100863 0.99895495 -0.01587986
167880.40181226 0.99661964 -0.024878696 0.00011089609 0.0047375122 0.00010692525 0.0027226817
0.00011252708 0.004708284 0.99759483 -0.047069054 0.0006729028 0.011745253
0.00010263834 0.0027052104 0.0006771757 0.011739491 0.99886453 -0.016888825
177827.94100389 0.99663734 -0.026466979 0.00012165457 0.0049827998 0.00011270863 0.0028727984
0.00014034758 0.0049842121 0.997379 -0.05001606 0.00077817892 0.012419113
0.00011379138 0.0028714058 0.00072868337 0.012445251 0.99893558 -0.01789997
188364.90894898 0.9965688 -0.027933951 0.00012930731 0.0052820179 0.00014615485 0.0030410602
0.00014688523 0.0052908845 0.99728054 -0.053037487 0.00082302507 0.013178404
0.0001209822 0.003046805 0.00082523847 0.013128723 0.998537 -0.019036056
199526.23149689 0.9965744 -0.02965829 0.00016704547 0.0055971644 0.00014527077 0.0032162499
0.00017625904 0.0055829608 0.99706662 -0.05596621 0.00094358303 0.013896579
0.00012728143 0.0032181358 0.00092287146 0.013900183 0.99844044 -0.020136306
211348.90398366 0.99648845 -0.031386808 0.00020607167 0.0059631653 0.00013644678 0.0033866067
0.00018771377 0.0059178066 0.99671334 -0.059320774 0.0010280024 0.014713909
0.00015549426 0.0034092688 0.0010052295 0.01469257 0.99848807 -0.021230597
223872.11385683 0.99631965 -0.033168014 0.00020786955 0.0063108252 0.0001597809 0.0035796287
0.00022449618 0.006296305 0.99654305 -0.062796071 0.0011132056 0.015536062
0.00016982399 0.0036043893 0.0011475093 0.015553501 0.99832654 -0.022282848
237137.37056617 0.9964295 -0.035093412 0.00025691238 0.0066518951 0.00017850389 0.0038178267
0.0002196721 0.0066366075 0.99614 -0.066459745 0.0012639564 0.016440289
0.0001649804 0.0037986874 0.0012611566 0.016442101 0.99826598 -0.023662856
251188.64315096 0.99630368 -0.03719607 0.00030011704 0.0070467056 0.00017900263 0.0040284251
0.00025816454 0.0070563848 0.99601674 -0.070539013 0.0013956026 0.017384375
0.00020327505 0.0040075066 0.0013940377 0.017396977 0.99827129 -0.02512287
266072.50597988 0.99600625 -0.039462026 0.00030767385 0.0074923555 0.00022739664 0.0042496044
0.00030598172 0.0074675516 0.99559957 -0.074436612 0.0015166316 0.018341435
0.00022012083 0.0042616618 0.0015146735 0.018376946 0.99817181 -0.026374701
281838.29312645 0.9959653 -0.041909594 0.00033044105 0.0079150461 0.00023341365 0.0044886153
0.00033593923 0.0079195462 0.99503386 -0.078907065 0.0016640997 0.019410357
0.00024258575 0.0045078122 0.0016756778 0.019434763 0.99811316 -0.027755465
298538.2618918 0.99590921 -0.044388495 0.00037701864 0.0083936425 0.00024683785 0.0047684652
0.00039158892 0.0083866697 0.99475461 -0.083498456 0.0018535096 0.020508777
0.00028247127 0.004765925 0.0018461898 0.020501083 0.99778813 -0.029486997
316227.76601684 0.99568725 -0.046983499 0.00045710211 0.0088912388 0.00025892348 0.0050203712
0.0004412219 0.0089032892 0.99413043 -0.088403568 0.002033896 0.021676255
0.0002768143 0.005030422 0.0020378758 0.021680322 0.99757183 -0.031187931
334965.43915783 0.99553597 -0.04977211 0.00049240817 0.0094250496 0.00027654812 0.005319959
0.00051055197 0.0094233137 0.99361968 -0.093488187 0.0022652426 0.022902196
0.00032272996 0.0053153778 0.002242865 0.022879219 0.9974156 -0.03292286
354813.38923358 0.99536002 -0.052616738 0.00056456594 0.0099872332 0.00032631078 0.0056075994
0.00058243528 0.009989555 0.99305344 -0.098964766 0.0025076759 0.024186801
0.00033310737 0.0056401957 0.0024978421 0.024167795 0.99726671 -0.034863126
375837.40428844 0.9953782 -0.055462655 0.00064145931 0.010578706 0.00037743049 0.005947113
0.00062569586 0.010591113 0.99219137 -0.10488549 0.0027330033 0.025591491
0.00035368613 0.0059445328 0.0027133857 0.025577225 0.99726546 -0.036764391
398107.1705535 0.9950695 -0.058968589 0.00072779349 0.01118729 0.00035565844 0.0062613408
0.00073068432 0.011211161 0.99144357 -0.11106721 0.0029951818 0.027003611
0.00039135196 0.0062864381 0.0030201892 0.027003115 0.99696022 -0.038876027
421696.50342858 0.99482781 -0.062499229 0.00085190311 0.011882269 0.00041882013 0.0066302326
0.00082349702 0.011896644 0.99058223 -0.11731759 0.0032791235 0.028527154
0.00042130632 0.0066303364 0.0033107989 0.028538406 0.99674076 -0.041033972
446683.59215096 0.99454194 -0.066216692 0.00097382494 0.012592135 0.00044903718 0.0070117572
0.00095983158 0.012581996 0.98971683 -0.12415367 0.0036131947 0.030145567
0.00044670005 0.007012988 0.0036347066 0.030149011 0.99638343 -0.043247949
473151.25896148 0.99415535 -0.06997335 0.0010767278 0.013333583 0.00049699715 0.0073768869
0.0010707158 0.013320029 0.98885101 -0.1314276 0.0039621978 0.031814121
0.00050529069 0.0074159936 0.0039975913 0.031847131 0.99605536 -0.045746565
501187.23362727 0.99375242 -0.074072547 0.0012328152 0.014134586 0.00052991469 0.0078196507
0.0012169589 0.014114134 0.98755783 -0.13903354 0.0043526306 0.033605304
0.00052900217 0.0078525124 0.0043689958 0.033625796 0.99582011 -0.048395164
530884.44423099 0.99341238 -0.078522362 0.0013717301 0.014959985 0.00056154252 0.0083029289
0.0013657671 0.014947982 0.98641902 -0.14711247 0.0047970433 0.035512794
0.00057475793 0.0082816947 0.0048100385 0.035529885 0.99567032 -0.051092271
562341.32519035 0.993007 -0.083047815 0.0015901324 0.015821366 0.00062219222 0.0087528508
0.001565239 0.015830185 0.98490506 -0.15578505 0.0052497317 0.03747078
0.00062275451 0.0087422868 0.0052757496 0.03749641 0.9954614 -0.05399153
595662.14352901 0.99264431 -0.087842524 0.0017552916 0.016762098 0.00068407797 0.009249269
0.001766963 0.016767273 0.98313159 -0.1647011 0.0057692919 0.039580591
0.00065953325 0.0092546819 0.0057965 0.039573167 0.9949308 -0.057136025
630957.34448019 0.99234647 -0.093057327 0.0020027931 0.017747045 0.00071525923 0.0097977966
0.0019933823 0.017748415 0.98147589 -0.17423424 0.006341822 0.041791044
0.00071744778 0.0098167593 0.0063356101 0.041810509 0.99466258 -0.060375836
668343.91756861 0.99163437 -0.098529473 0.00226974 0.018761851 0.00078004232 0.010358649
0.0022608317 0.018776055 0.9792853 -0.18436167 0.0069748084 0.044111416
0.00078319176 0.010363158 0.0070211971 0.044117298 0.99420899 -0.063664384
707945.78438414 0.99112028 -0.10427443 0.0025432885 0.019871712 0.00082874642 0.010959665
0.0025264223 0.019872256 0.9768756 -0.19508439 0.0076942551 0.046551261
0.0008701628 0.01097864 0.0076803542 0.046576306 0.99385685 -0.067376643
749894.20933246 0.99029225 -0.11042926 0.0028772086 0.021009117 0.00091782992 0.011572721
0.0028737546 0.02101847 0.97388196 -0.20599535 0.0084489351 0.049137935
0.00091586815 0.011606398 0.008459934 0.049137212 0.99316698 -0.071209677
794328.23472428 0.98924929 -0.11713342 0.00326804 0.022204654 0.00098776934 0.012248324
0.0032451795 0.022232009 0.97190028 -0.21741384 0.0092875939 0.051863596
0.00099728897 0.012263639 0.009319013 0.051873218 0.99271327 -0.075146563
841395.14164519 0.98839945 -0.12366879 0.0036698841 0.02349842 0.0010809352 0.012976742
0.003652323 0.023495587 0.96899682 -0.23029801 0.010216648 0.054754857
