!Keysight Technologies,E5080A,MY55100144,A.11.70.03
!Date: Monday, November 13, 2017 17:21:34
!Correction: S11(Full 3 Port(1,2,3)) 
!S12(Full 3 Port(1,2,3)) 
!S13(Full 3 Port(1,2,3)) 
!S21(Full 3 Port(1,2,3)) 
!S22(Full 3 Port(1,2,3)) 
!S23(Full 3 Port(1,2,3)) 
!S31(Full 3 Port(1,2,3)) 
!S32(Full 3 Port(1,2,3)) 
!S33(Full 3 Port(1,2,3)) 
!S3P File: Measurements: <S11,S12,S13>,
!<S21,S22,S23>,
!<S31,S32,S33>:Log Frequency Sweep
# Hz S  RI   R 50
10000 0.99631256 -0.00078851602 -1.0204025e-006 0.00014195318 3.0535768e-006 0.00016552351
7.6939517e-007 0.00013292243 0.99873686 -0.0031900848 -8.0342752e-006 0.0007128226
1.1660229e-005 0.00016740327 3.6160436e-006 0.00072236906 0.99961716 -0.0024511374
10592.537251773 0.99621791 -0.00089811091 -8.6749822e-007 0.00014215786 -5.748389e-006 0.00020669553
-7.2863058e-006 0.00014904645 0.99867743 -0.0034400907 -1.6131069e-006 0.00075075385
-1.0992803e-005 0.00018186483 1.4396473e-005 0.00074245548 1.0000461 -0.0022213114
11220.18454302 0.99634355 -0.001195156 1.3589109e-006 0.00013456495 -6.8877594e-006 0.00018642444
7.4934819e-006 0.00016300756 0.99869293 -0.0037946599 1.2203248e-005 0.00077899348
-1.2982455e-006 0.00020631864 -2.3844927e-006 0.00077965116 1.0000371 -0.0024114831
11885.02227437 0.99631643 -0.0011432635 -7.4215773e-006 0.00015288958 -3.0029209e-006 0.00021360823
3.1672727e-005 0.00017396007 0.99898541 -0.0036847468 2.3942019e-005 0.00083815207
-1.645496e-007 0.00020781657 3.5958434e-005 0.00085709698 1.000097 -0.0023000094
12589.254117942 0.99632496 -0.0013495976 -1.843525e-006 0.00018813949 1.0546031e-005 0.00020373594
-7.4288055e-006 0.00017613004 0.99897248 -0.0038185173 8.3636769e-006 0.00087418384
6.1183164e-006 0.00021221962 2.7985579e-005 0.00087415014 1.0001256 -0.0026439736
13335.214321633 0.99636465 -0.0012907664 1.8508999e-005 0.00020543599 1.0290795e-005 0.00022662801
7.4908598e-006 0.00018168973 0.99901563 -0.0040511456 2.1240245e-005 0.00092531217
1.3181e-005 0.00023351301 1.5033193e-005 0.00094680151 0.9998498 -0.0023043202
14125.375446228 0.99622995 -0.0016221036 -1.3064423e-006 0.00021015227 5.3569681e-007 0.00023662132
9.0959338e-006 0.00018775222 0.99886298 -0.0042867614 1.4533314e-005 0.0010172366
-7.8513121e-006 0.0002405796 1.4679998e-005 0.0010000595 0.99991024 -0.0022647427
14962.356560944 0.99621928 -0.0017450199 -1.361354e-005 0.00020132547 8.6983437e-006 0.00023314638
-4.381573e-006 0.00018835551 0.99905342 -0.0043422645 8.9933656e-006 0.0010541112
-6.7637748e-006 0.00024281781 1.1724412e-005 0.001047103 0.9999966 -0.0026446013
15848.931924611 0.9964686 -0.0017824933 -1.3012152e-005 0.00021123614 1.0567654e-005 0.00026454197
-6.3362991e-006 0.00020387495 0.99908954 -0.0044777002 2.1834823e-005 0.0010957929
1.0148073e-005 0.00027321951 1.843549e-005 0.0011140635 0.99999261 -0.0026998958
16788.040181226 0.99642676 -0.0020924234 -4.187802e-006 0.00021129048 1.3771034e-006 0.00028832661
1.4236693e-005 0.00022990108 0.99896526 -0.0050631328 1.5676804e-005 0.0011909402
3.8089578e-007 0.0002775006 7.3948381e-006 0.0011863655 0.99995434 -0.0028053944
17782.794100389 0.99636412 -0.0018782008 1.115798e-005 0.00024051814 5.6581262e-006 0.00031259572
5.2255195e-006 0.00022420732 0.99903738 -0.0052469759 1.1023823e-005 0.0012387343
-6.4267379e-006 0.00029361632 5.5612719e-007 0.0012549462 1.0000222 -0.0027545942
18836.490894898 0.99627638 -0.0021676859 -7.4125774e-006 0.00027999192 -1.2237381e-005 0.00031823435
2.2193057e-005 0.00026264673 0.99900556 -0.0053427476 3.1760392e-005 0.0013203219
1.1570791e-005 0.00033700993 5.4716311e-006 0.0013336808 0.99994725 -0.0029133158
19952.623149689 0.99625468 -0.0024432051 1.1961873e-005 0.00025779413 4.7564426e-006 0.00033224307
-1.6091577e-005 0.00025218813 0.99904871 -0.0056206631 1.5512975e-005 0.0013900277
9.5153819e-006 0.00034080786 3.3392171e-005 0.0014175472 0.99987155 -0.0029222071
21134.890398366 0.99631095 -0.0025642153 4.6594432e-006 0.00029907282 1.1932983e-005 0.00038198443
3.0644492e-006 0.00027812686 0.99914724 -0.0057434305 -7.8042098e-007 0.0014710508
8.6997197e-006 0.00035868687 1.6708629e-005 0.0014886452 0.99994791 -0.003007452
22387.211385683 0.9962908 -0.0026512682 -7.1461227e-006 0.00029332752 -2.2787459e-005 0.00037809982
8.9785517e-006 0.00031237508 0.99900061 -0.0062404783 1.0562236e-005 0.0015683493
-2.7277722e-006 0.00040252952 3.4908426e-005 0.0015731745 0.99992955 -0.0031501094
23713.737056617 0.99620444 -0.0029783174 -4.946749e-006 0.00030255681 1.2993916e-005 0.00041243355
2.5958938e-005 0.00033318502 0.99917948 -0.0064457357 1.3369357e-005 0.0016593512
7.64788e-006 0.00041604578 1.1393027e-005 0.0016585736 0.9997285 -0.0031520769
25118.864315096 0.99621832 -0.0029190737 2.3178861e-006 0.00034233721 1.7443819e-005 0.0004317094
1.4358412e-005 0.00035847072 0.99912614 -0.0068331966 3.3110748e-005 0.0017707265
1.1250306e-005 0.00043280295 1.2664166e-005 0.0017638626 0.99978518 -0.0033736406
26607.250597988 0.99639219 -0.003120671 7.9095537e-007 0.00035860151 2.0612119e-006 0.00047473167
7.8161662e-008 0.00036104175 0.99908715 -0.0073715709 3.543566e-005 0.001887281
4.3310788e-006 0.00047171261 2.5199721e-005 0.0018808056 0.99990869 -0.0036249491
28183.829312645 0.99627542 -0.0035021596 -9.7408301e-006 0.00038246435 -8.934353e-006 0.00048032767
-1.5574713e-005 0.00037606867 0.99915916 -0.0076164613 2.0231266e-005 0.0019668748
1.0104399e-005 0.00049159041 2.8341203e-005 0.0019743501 0.99983561 -0.0035739799
29853.82618918 0.99636966 -0.0037506407 -4.9211653e-006 0.00040498681 -1.1338267e-006 0.00050481647
5.1495003e-006 0.00041730129 0.99918729 -0.0080130044 2.7524016e-005 0.0020800962
4.5042229e-006 0.00052378094 1.9734031e-005 0.0020772929 0.99983138 -0.003687622
31622.776601684 0.99619544 -0.0040432937 6.4566079e-006 0.00043106117 2.2436836e-005 0.00054850831
1.8492904e-006 0.00043233277 0.99908775 -0.0084913559 3.348372e-005 0.0022359528
-7.2610051e-006 0.00055960694 2.4505272e-005 0.0022269469 0.99984801 -0.0041237618
33496.543915783 0.9962948 -0.0042400546 -1.9410561e-006 0.00045755916 3.1295633e-005 0.00058678136
7.6107694e-006 0.00044876232 0.99904823 -0.0090762964 2.2868071e-005 0.0023543176
2.5599094e-005 0.00059519877 4.9905997e-005 0.0023398669 0.99964786 -0.0041868915
35481.338923358 0.99604732 -0.0044513741 -1.0546278e-005 0.00046755307 1.3862298e-005 0.00059842429
1.2791706e-005 0.0004648433 0.99909168 -0.0096128462 3.1155916e-005 0.0024536103
1.5317648e-005 0.00062072679 3.6813046e-005 0.0024855237 0.99976373 -0.0042170337
37583.740428844 0.99626923 -0.0047317282 -1.8348795e-006 0.00051683106 -6.7176702e-006 0.0006623689
-8.1151356e-006 0.00052362971 0.99918365 -0.0099784546 -3.1246084e-006 0.0026295646
7.8794064e-006 0.00066010776 2.7793845e-005 0.0026387461 0.99957401 -0.0044357032
39810.71705535 0.99635082 -0.0049157259 5.4452003e-006 0.00053299672 1.8119144e-005 0.00070039346
1.8188655e-005 0.00052830647 0.99912751 -0.010599518 6.0586888e-005 0.0027877549
-5.4823013e-006 0.00068845646 5.0188075e-005 0.0027799672 0.99956292 -0.0046965
42169.650342858 0.99625534 -0.0052772355 -1.0080262e-005 0.00057019788 -4.0547748e-006 0.00075222785
-5.1718739e-006 0.00057209813 0.99913013 -0.011231546 5.5256976e-005 0.0029372657
1.9158194e-006 0.00072649319 5.444757e-005 0.0029463633 0.99951386 -0.004898123
44668.359215096 0.99634194 -0.0056578047 5.7714178e-006 0.00060475455 2.8557057e-005 0.00078646798
1.6300872e-005 0.00061642798 0.99911553 -0.011901593 5.0387589e-005 0.0031046444
1.7684844e-005 0.00077057042 5.4856537e-005 0.0031369049 0.99938953 -0.0053086104
47315.125896148 0.99645215 -0.0058211763 -3.0759727e-006 0.00063058932 4.9887599e-006 0.00085272861
1.4499538e-005 0.00062275649 0.99907553 -0.012628876 5.5432443e-005 0.0033208693
1.4471734e-006 0.00083100039 5.8478279e-005 0.0033109635 0.99942714 -0.005456957
50118.723362727 0.9962998 -0.0063017434 -1.5225186e-005 0.00068651547 2.3412793e-005 0.00086800754
8.4552294e-006 0.00067888427 0.99894983 -0.013378069 5.9356182e-005 0.0035001216
-2.124033e-006 0.00088968372 6.9591835e-005 0.0034976429 0.99928254 -0.0057143699
53088.444423099 0.99631763 -0.0066489349 1.6232929e-005 0.0007267844 1.992581e-005 0.00094045344
2.2081711e-005 0.00072994706 0.9989118 -0.014091503 8.3878447e-005 0.0037125309
4.647979e-006 0.00092068227 8.4379732e-005 0.00372285 0.99944508 -0.0060471916
56234.132519035 0.996252 -0.0071561495 9.1757211e-006 0.0007636564 1.9450779e-005 0.00097045343
-2.5699129e-007 0.00076144148 0.99897724 -0.015259589 9.7462711e-005 0.0039434042
2.0116107e-005 0.00099008635 9.2681097e-005 0.003931928 0.99947453 -0.0062930454
59566.214352901 0.99628133 -0.0074813114 1.941574e-005 0.00080195675 2.393351e-005 0.00103215
7.2900284e-006 0.00079424877 0.99893284 -0.015876174 0.00010116339 0.0041644839
3.0934167e-005 0.0010300277 7.4997268e-005 0.0041559367 0.99918664 -0.006567128
63095.734448019 0.99622071 -0.0078602573 -1.3806876e-005 0.0008792532 2.4018633e-005 0.0010942307
1.7541834e-005 0.00086758682 0.99890047 -0.016866958 0.00010366167 0.0044349683
5.8077444e-006 0.0011057655 0.00012144392 0.0043890881 0.99938971 -0.006885211
66834.391756861 0.99630231 -0.0083016194 1.0555291e-006 0.00092641742 9.7273278e-006 0.0011450038
2.0065007e-005 0.00093779847 0.99885571 -0.018000307 0.00010009708 0.0046812128
2.6100901e-005 0.0011521945 0.00013505909 0.0046839416 0.99941534 -0.0073362151
70794.578438414 0.99640781 -0.0088617997 5.2180699e-006 0.00097216328 3.4149045e-006 0.0012458761
-9.0965414e-006 0.00096746435 0.99869013 -0.018803598 0.00013420645 0.0049407324
3.6414527e-005 0.0012319823 0.00012885359 0.0049512708 0.99913681 -0.007691293
74989.420933246 0.99624729 -0.0094071571 -5.6248982e-006 0.0010266802 1.3012206e-005 0.0013241244
1.1124056e-005 0.0010270714 0.99869794 -0.019906044 0.00014297607 0.0052356226
4.4537122e-005 0.001288856 0.00014938126 0.0052266559 0.99924165 -0.0078931935
79432.823472428 0.99619853 -0.0098428372 1.9553116e-005 0.0010928031 2.9416535e-005 0.0013993337
3.0353392e-006 0.0010632081 0.99865937 -0.020991934 0.00016833938 0.0055506141
2.7328713e-005 0.0013735248 0.00015030314 0.0055497675 0.99920911 -0.0084015513
84139.514164519 0.99623364 -0.010350469 1.3568965e-005 0.0011327785 4.1803469e-005 0.0014571934
-4.0676982e-006 0.0011309914 0.99861842 -0.022091869 0.00017909819 0.0058530183
4.6182846e-005 0.0014814079 0.00018250613 0.0058812513 0.99893302 -0.0086785834
89125.093813375 0.99610507 -0.010987493 3.1187344e-006 0.0012163576 4.740568e-005 0.0015608122
9.7545926e-006 0.0012113432 0.99864984 -0.023471061 0.00020551133 0.0062390915
4.171205e-005 0.0015654177 0.0002094435 0.0062312437 0.99924958 -0.0093428623
94406.087628592 0.99627662 -0.011628586 7.6885572e-006 0.0012743757 3.5675479e-005 0.0016333763
2.6045591e-006 0.0012715498 0.99855429 -0.02482323 0.00022179283 0.0065929694
4.5125173e-005 0.0016384255 0.00020025161 0.006631054 0.99910873 -0.0097063594
100000 0.99632263 -0.012233878 1.2914759e-005 0.0013493255 3.6742022e-005 0.0017436702
3.9942341e-005 0.0013636812 0.99848282 -0.026379319 0.00025048282 0.0069498136
6.4044245e-005 0.0017373151 0.00024113739 0.0069564483 0.99917364 -0.010448651
105925.37251773 0.99637914 -0.013000945 2.4498684e-005 0.0014325975 4.5351382e-005 0.0018500247
2.0704903e-005 0.0014195455 0.99844772 -0.02781943 0.00026329857 0.0074035577
4.4157605e-005 0.0018393792 0.00027798369 0.0073675485 0.99898493 -0.01075149
112201.8454302 0.99640942 -0.013798206 7.1356289e-006 0.0015277575 6.6611698e-005 0.0019436692
1.2718629e-005 0.0015224761 0.99830586 -0.029317448 0.00030323793 0.0077928673
4.5688739e-005 0.0019491925 0.00029595816 0.0078035612 0.99905181 -0.011553429
118850.2227437 0.99640816 -0.014679677 2.5236004e-006 0.0015939568 7.6846176e-005 0.0020677794
1.3379445e-005 0.0016122162 0.99853367 -0.031238297 0.00034242831 0.0082523823
6.7164823e-005 0.0020559283 0.00034770311 0.0082621332 0.9992016 -0.012075421
125892.54117942 0.99648088 -0.015457459 3.2252385e-005 0.0017273028 4.6391713e-005 0.0021944533
2.2638977e-005 0.0017134647 0.99846107 -0.033131663 0.000387815 0.0087314472
6.101124e-005 0.00218316 0.00038916082 0.0087840986 0.99902844 -0.012732335
133352.14321633 0.99636322 -0.016391212 -4.6430523e-006 0.0017880833 8.8047804e-005 0.0023023589
-9.5029291e-006 0.0018036495 0.99836296 -0.034924123 0.00040080791 0.0092698056
5.6150941e-005 0.002318487 0.0004405333 0.0092680845 0.99899983 -0.013396397
141253.75446228 0.9964031 -0.017501296 1.5355536e-006 0.0019413168 8.0830381e-005 0.0024271302
2.0736174e-005 0.0019415073 0.9981761 -0.037046071 0.00048277076 0.0098216496
8.7575892e-005 0.0024294376 0.00048810564 0.0097859576 0.99907559 -0.014241877
149623.56560944 0.99646068 -0.018337958 4.8026013e-005 0.0020347929 0.0001249544 0.0025827882
1.3732992e-005 0.0020505039 0.99813622 -0.039166436 0.00053416466 0.010371983
9.8708544e-005 0.0025820874 0.00051616522 0.010397552 0.99888945 -0.015231576
158489.31924611 0.99649012 -0.019553823 7.1136201e-006 0.0021773831 0.00011083367 0.0027497639
9.9595081e-006 0.0021679907 0.99784189 -0.04144682 0.00056921184 0.011008762
0.00010824551 0.0027567258 0.00058889325 0.010993879 0.99895978 -0.015873032
167880.40181226 0.99627084 -0.020740859 4.3423035e-005 0.0022906258 0.00012668459 0.0028945387
1.7775461e-005 0.0022651008 0.99768746 -0.043898202 0.00062084675 0.01158803
0.00011538774 0.0029041285 0.00063579425 0.011615006 0.99888623 -0.016884185
177827.94100389 0.99628353 -0.021955639 2.5034971e-005 0.002448787 0.00012066236 0.0030874463
9.4431261e-006 0.0024208988 0.99755228 -0.046579815 0.00070980366 0.012298323
0.00012813072 0.0030559304 0.00072022952 0.012313663 0.99872667 -0.017888917
188364.90894898 0.99608922 -0.023244927 2.5649706e-005 0.0025651527 0.00016416317 0.0032615957
4.2749598e-005 0.0025820124 0.99732727 -0.049504794 0.00079533062 0.012991052
0.00014713842 0.0032536907 0.00077950268 0.012993982 0.99856877 -0.018949868
199526.23149689 0.99598604 -0.024625801 4.1712628e-005 0.0027134391 0.00014689523 0.003422929
4.2046333e-005 0.0027152637 0.99735212 -0.052174099 0.00090535352 0.013744466
0.0001526397 0.003426489 0.00088202808 0.013755565 0.99844116 -0.020083407
211348.90398366 0.9960348 -0.026142795 4.4852764e-005 0.0028891726 0.00017785812 0.0036495519
3.2412667e-005 0.002890711 0.99694163 -0.055291906 0.0010012266 0.014546553
0.00014856791 0.0036326107 0.000975598 0.014516695 0.99835861 -0.021179171
223872.11385683 0.99602777 -0.02753425 4.0416526e-005 0.0030694413 0.00017051515 0.0038429452
4.6332039e-005 0.0030543772 0.99663281 -0.058736429 0.001091101 0.015373061
0.00021104525 0.0038467739 0.001077655 0.015385293 0.99844807 -0.022339983
237137.37056617 0.99597824 -0.029172275 5.6905024e-005 0.0032428931 0.00020076733 0.0040595443
5.2480398e-005 0.0032667064 0.99650431 -0.062139127 0.0011969719 0.016251141
0.00018616088 0.0040686158 0.0012019153 0.01625888 0.99823529 -0.023556082
251188.64315096 0.9960252 -0.030877182 5.7356679e-005 0.0034312855 0.0002230898 0.0042894161
4.3533761e-005 0.0034660657 0.99649847 -0.065692112 0.0013251593 0.017186645
0.00024182296 0.0042945524 0.0013373022 0.017198909 0.99831474 -0.025025217
266072.50597988 0.99581742 -0.032784641 5.4807166e-005 0.0036650477 0.00025253641 0.0045611886
6.8936359e-005 0.0036701509 0.99593449 -0.069661275 0.0014579442 0.018184701
0.00025510229 0.0045475313 0.0014604417 0.018195977 0.99804217 -0.026268445
281838.29312645 0.99580556 -0.034915522 7.6045129e-005 0.0038786251 0.00028193303 0.0048227124
5.3102507e-005 0.0038913658 0.99564707 -0.073512554 0.0016084678 0.019234551
0.00027623391 0.0048079295 0.0016273945 0.019226864 0.99803084 -0.027945397
298538.2618918 0.99575096 -0.036723353 7.7854333e-005 0.0041024024 0.0002979807 0.0050597074
7.7719422e-005 0.0041247914 0.99527025 -0.077751905 0.001798128 0.020302135
0.00031262939 0.005103827 0.001781698 0.020317359 0.99778938 -0.029543169
316227.76601684 0.99545139 -0.038968448 0.00010063271 0.0043707225 0.00034264979 0.0053600408
9.2923852e-005 0.004361094 0.99492025 -0.082575232 0.0019826773 0.021432728
0.00034009205 0.0053736125 0.0019711412 0.021463912 0.99766737 -0.031053279
334965.43915783 0.99541324 -0.04141055 0.00010948002 0.0046266271 0.0003555757 0.0056670359
0.00014408125 0.0046174368 0.99434501 -0.087333962 0.002177099 0.022663713
0.00036916975 0.0056616557 0.0021569219 0.022679383 0.99746859 -0.032828189
354813.38923358 0.99535894 -0.043793175 0.0001423346 0.0049180794 0.00040152331 0.0059900023
0.00012963959 0.0049282755 0.99380535 -0.092297278 0.0023773585 0.02392526
0.00039875004 0.005986887 0.0023824109 0.023964249 0.99725527 -0.034731332
375837.40428844 0.99523556 -0.046184316 0.00017092016 0.0052149543 0.00043533402 0.0063362699
0.00017708384 0.0051967571 0.99298465 -0.09797059 0.0025973115 0.025297211
0.00043182977 0.0063274694 0.002633543 0.025303693 0.99715298 -0.036707561
398107.1705535 0.99510938 -0.049106166 0.00019341877 0.0055283178 0.00049232191 0.0067012669
0.00018722568 0.0055366368 0.99241483 -0.10353518 0.0028861125 0.026719972
0.00045846138 0.0067155915 0.0029057076 0.026740436 0.99691761 -0.038785994
421696.50342858 0.99497646 -0.051850412 0.00025788025 0.0058623529 0.00052051339 0.0070807287
0.00023932102 0.0058739111 0.99173272 -0.10963622 0.0031483546 0.028218796
0.000515258 0.0070823268 0.0031410435 0.028227681 0.9967308 -0.040986653
446683.59215096 0.99476957 -0.055199053 0.00026921142 0.0062307371 0.00055454468 0.0074776346
0.0002772538 0.0062318919 0.99084032 -0.11600956 0.0034599572 0.029814623
0.00056418631 0.0074776774 0.0034594466 0.029830853 0.99626857 -0.043213394
473151.25896148 0.99450719 -0.058341201 0.00031855569 0.0065771677 0.00059989683 0.0079063103
0.00031604338 0.006589944 0.98996824 -0.122698 0.0038150172 0.031492658
0.00062761724 0.0079143113 0.0037953549 0.031537872 0.99622238 -0.045603611
501187.23362727 0.9941774 -0.061718564 0.00034176436 0.0069819014 0.00065997598 0.0083686179
0.00035433809 0.006987677 0.98903799 -0.12989637 0.0041782008 0.033293519
0.000671316 0.0083675571 0.0042003361 0.033281621 0.99591893 -0.048218645
530884.44423099 0.99383491 -0.065273352 0.00042658471 0.0073948116 0.00069529336 0.0088236881
0.00041989368 0.0074211759 0.98796046 -0.13739133 0.0045989226 0.035152979
0.00071146362 0.0088189552 0.0046167197 0.035154518 0.99590474 -0.051054094
562341.32519035 0.99362183 -0.069219053 0.00048807444 0.0078455545 0.00075969688 0.0093109654
0.00048052715 0.0078598317 0.98664671 -0.14538266 0.0050651357 0.037107959
0.0007832055 0.0093283122 0.0050551579 0.037097163 0.99544871 -0.054050203
595662.14352901 0.99328536 -0.072963357 0.00055378437 0.0083341496 0.00083419902 0.0098758722
0.00056070427 0.0083509739 0.98509359 -0.15386595 0.0055374205 0.039197881
0.00084038248 0.0098511595 0.0055613909 0.039163429 0.99500638 -0.057139963
630957.34448019 0.99315411 -0.077469856 0.00065164891 0.0088321771 0.00090457575 0.010434804
0.00065601041 0.0088304933 0.98361039 -0.16282839 0.0060443897 0.041349359
0.00091859425 0.010395264 0.0060884026 0.041377727 0.99476379 -0.060397625
668343.91756861 0.9927122 -0.081869476 0.00074804627 0.0093934853 0.0010044847 0.011019132
0.00073487859 0.0093395021 0.98163587 -0.17223763 0.0066668508 0.043713503
0.00098961045 0.011024234 0.0066738566 0.043716673 0.99430567 -0.063703291
707945.78438414 0.99230337 -0.086711474 0.0008494893 0.0099101942 0.0010867562 0.011658107
0.00086719968 0.0099120345 0.97945791 -0.18228912 0.0073261247 0.046141673
0.0010842686 0.011645 0.0073615788 0.046142533 0.99382418 -0.067353763
749894.20933246 0.9917087 -0.092051789 0.00099251035 0.010481201 0.0011634512 0.012322924
0.0010019518 0.010489671 0.97685224 -0.1924988 0.0080941971 0.048682928
0.0011684566 0.012307133 0.0080794115 0.048700135 0.99318308 -0.071125835
794328.23472428 0.99091047 -0.097487763 0.001109602 0.011105677 0.0012786377 0.013023978
0.0011298053 0.011119871 0.97532487 -0.20298623 0.0088614188 0.0514124
0.0012585493 0.013024645 0.0088852812 0.051382836 0.99275625 -0.075235069
