!Keysight Technologies,E5080A,MY55100144,A.11.70.03
!Date: Monday, November 13, 2017 17:22:58
!Correction: S11(Full 3 Port(1,2,3)) 
!S12(Full 3 Port(1,2,3)) 
!S13(Full 3 Port(1,2,3)) 
!S21(Full 3 Port(1,2,3)) 
!S22(Full 3 Port(1,2,3)) 
!S23(Full 3 Port(1,2,3)) 
!S31(Full 3 Port(1,2,3)) 
!S32(Full 3 Port(1,2,3)) 
!S33(Full 3 Port(1,2,3)) 
!S3P File: Measurements: <S11,S12,S13>,
!<S21,S22,S23>,
!<S31,S32,S33>:Log Frequency Sweep
# Hz S  RI   R 50
10000 0.99677181 -0.0014042525 1.8836985e-005 0.0003220111 -1.1390226e-005 0.00018088943
-5.3621284e-006 0.00030481175 0.99879956 -0.0036689816 -1.6887891e-005 0.0007203517
3.569402e-006 0.00016928821 -9.4080442e-006 0.00071243581 0.99973923 -0.0022671989
10592.537251773 0.99700075 -0.0017364367 -3.8783896e-006 0.00029198252 1.9544292e-005 0.00018604974
-1.5060136e-005 0.00031183925 0.99867493 -0.0036916563 -4.6933296e-006 0.00073556049
5.8081969e-006 0.00017719272 1.7780341e-005 0.00074388372 0.99990791 -0.0022734092
11220.18454302 0.99685478 -0.0019268491 -7.8726771e-006 0.00033976097 5.8061214e-006 0.00015872932
1.4821941e-005 0.00034003798 0.99898094 -0.0038720374 1.6716009e-005 0.00080359122
-6.0640887e-006 0.00018222243 4.9288356e-006 0.00078969449 1.0001012 -0.0023769955
11885.02227437 0.99668306 -0.0017416754 -1.2727075e-005 0.00035964343 -7.4074264e-006 0.00018928408
-7.4351824e-006 0.00034859727 0.99879849 -0.0039256248 -1.8124383e-005 0.00084714481
6.2714726e-006 0.00018512845 1.9638837e-006 0.00084112782 0.99994797 -0.0024523058
12589.254117942 0.99689168 -0.0020076069 -1.3206568e-005 0.00037434159 -1.4394678e-005 0.0001905465
-1.2298417e-005 0.00036831573 0.99894208 -0.0041308715 9.5342903e-006 0.00089252682
-5.4817701e-006 0.00018867321 1.8628987e-005 0.00087215821 0.99993879 -0.0024448654
13335.214321633 0.99708706 -0.0019201662 -3.5652199e-006 0.00039939556 -7.9264637e-006 0.00022669065
4.1907219e-006 0.00039692191 0.99890423 -0.0044588931 -8.4865178e-007 0.00094100146
1.939629e-005 0.00023017537 1.8029435e-006 0.00093435979 0.99982953 -0.002494425
14125.375446228 0.99679023 -0.0023481948 1.592952e-007 0.00042110894 -1.2331399e-006 0.00022616891
1.1380662e-006 0.00042283989 0.99886537 -0.00460803 1.0542075e-005 0.0009853997
5.1602382e-007 0.00023130524 4.3398381e-006 0.00099658419 1.0001671 -0.0023886994
14962.356560944 0.99688816 -0.0023502377 -4.7148028e-006 0.00044768103 1.0250685e-005 0.00023589835
4.4200751e-006 0.00043180169 0.99896669 -0.0046811081 1.8728402e-006 0.0010706979
-4.1607077e-006 0.00025760231 9.5233599e-006 0.0010687709 0.99990404 -0.0027062483
15848.931924611 0.99720341 -0.0024618318 -1.5308356e-006 0.00044791729 5.7106158e-006 0.000236505
1.1627137e-005 0.00047902588 0.99889833 -0.0048676841 5.769617e-006 0.00113348
1.2613654e-006 0.00025297113 1.0125393e-005 0.0011398529 1.0000745 -0.0025127819
16788.040181226 0.99703342 -0.0026931441 3.5637445e-006 0.00048435648 7.6843744e-006 0.00028001785
2.7527899e-006 0.00050102582 0.99901855 -0.0052865082 -1.0415918e-005 0.001192217
2.0454327e-006 0.00025787728 1.7669989e-005 0.0011862675 0.99992454 -0.0027155615
17782.794100389 0.99702215 -0.0025837868 3.1685778e-007 0.00053265359 2.1696793e-005 0.00028648015
-1.5626243e-005 0.00054122251 0.99899763 -0.0056351307 1.4462657e-005 0.0012785731
2.1680478e-005 0.00026896753 1.7283983e-005 0.0012470785 1.0000436 -0.0026910477
18836.490894898 0.99697012 -0.0027391496 3.0591814e-006 0.00056189403 1.3181605e-005 0.0003163169
7.0506445e-007 0.00056187273 0.99908292 -0.0058008702 1.2963982e-005 0.0013318986
6.0104439e-006 0.00030949397 2.1618394e-005 0.00134961 0.99986887 -0.0027301067
19952.623149689 0.99694192 -0.0031325177 1.0530287e-005 0.00059501809 1.206207e-005 0.00031327314
-2.0896023e-006 0.00058643252 0.99905133 -0.0060487883 2.6481393e-005 0.0014421555
2.2650343e-005 0.00032695447 1.8986293e-005 0.0014226321 0.99988544 -0.0030671167
21134.890398366 0.99714959 -0.0032879149 -2.43523e-006 0.00062651408 -1.2341474e-005 0.00033977276
-3.9855709e-006 0.00059973454 0.99906492 -0.0063723787 3.3725064e-005 0.0015109447
8.8831093e-006 0.00035721506 2.3553139e-005 0.0014995837 0.99987125 -0.0032383115
22387.211385683 0.99696553 -0.0034730632 1.254026e-005 0.00066028209 -1.0984243e-005 0.00036420656
8.5549837e-006 0.00066289521 0.99908465 -0.0065903589 2.5370347e-005 0.0015811555
-1.7817425e-005 0.00035149421 2.883181e-005 0.0015672175 0.99992609 -0.0031649321
23713.737056617 0.99704206 -0.0037311183 -2.4715487e-006 0.00066772493 2.2847144e-005 0.00038529161
1.342119e-005 0.00067937403 0.99924779 -0.0069639389 2.6352107e-005 0.0016809009
-1.2425841e-005 0.00039953087 1.1243724e-005 0.0016817657 0.9997533 -0.0031460966
25118.864315096 0.99702466 -0.0038974164 1.7494566e-006 0.0007215318 2.4874678e-006 0.00042054203
-1.0175374e-005 0.00074945576 0.99900359 -0.007324853 -2.0942969e-006 0.0017649307
-1.4836566e-005 0.00041847292 3.9482533e-005 0.0017745099 0.99992502 -0.003434631
26607.250597988 0.99708182 -0.0040032803 1.6783802e-006 0.00079837273 2.0614495e-006 0.00042746624
3.2935015e-006 0.00076905213 0.99911982 -0.0078605041 2.4764326e-005 0.0018772029
5.9510257e-006 0.00042152114 4.8663187e-005 0.0018887755 0.99992442 -0.0035587775
28183.829312645 0.99713236 -0.0044163512 4.2539582e-006 0.00081311888 8.260964e-006 0.00046323135
1.0231352e-005 0.00083700474 0.99909741 -0.0083308863 2.1104257e-005 0.002011349
1.7188646e-005 0.0004551695 3.6408135e-005 0.002001391 0.99981326 -0.0036929485
29853.82618918 0.9971332 -0.0046696151 5.4360744e-006 0.00087326701 1.3231727e-005 0.00049179443
1.4425715e-005 0.00086824823 0.99915135 -0.0086027496 1.668697e-005 0.0021134173
-2.0516638e-005 0.00050095306 4.2359286e-005 0.0021065653 0.99978805 -0.0036233717
31622.776601684 0.99694866 -0.0050348574 1.2248195e-005 0.00092980277 -7.9377838e-007 0.00052077067
1.7474464e-005 0.00093450915 0.99906003 -0.0091895228 1.8425619e-005 0.0022395474
9.6641024e-006 0.0005013608 4.4441036e-005 0.0022416294 0.99984872 -0.0040033874
33496.543915783 0.99695396 -0.0050015664 -1.463417e-007 0.0009716801 1.8829845e-005 0.00054736645
9.1687225e-006 0.00097498897 0.9991501 -0.009656027 4.6303507e-005 0.0023741929
1.5866926e-005 0.00053798017 3.3354903e-005 0.0023706858 0.9998076 -0.004121237
35481.338923358 0.99698502 -0.0053797779 1.6626327e-005 0.0010263281 8.362158e-006 0.00057707797
-6.0631291e-006 0.0010441835 0.99921429 -0.010247879 3.9136376e-005 0.0025185205
1.2541696e-005 0.0005781771 3.7127731e-005 0.0025384475 0.99973732 -0.0042761853
37583.740428844 0.99710584 -0.0058876271 2.2583039e-005 0.001113151 -1.8692404e-005 0.00059199223
1.3877216e-005 0.0011168662 0.99906212 -0.01088169 4.5141718e-005 0.002667594
3.0123515e-006 0.00060674641 6.082316e-005 0.002666112 0.99958986 -0.0046012062
39810.71705535 0.99700528 -0.0060992669 1.8288482e-006 0.0011620295 -4.5614588e-006 0.00064975757
6.9399161e-006 0.0011761145 0.99914455 -0.011515629 4.077037e-005 0.002844274
9.2333585e-006 0.00065370474 4.3801148e-005 0.002823523 0.99963105 -0.0047457619
42169.650342858 0.99685109 -0.0064419811 1.823011e-005 0.0012348098 6.6722391e-006 0.00067334808
7.1057411e-006 0.0012273652 0.99911839 -0.012078361 5.3670075e-005 0.0030053277
3.2096407e-006 0.00069508911 5.718962e-005 0.0029793219 0.99952281 -0.0049560177
44668.359215096 0.99710649 -0.0068684132 -2.913242e-006 0.0013047943 5.7173093e-006 0.00073595374
4.6583946e-006 0.001304106 0.99918848 -0.012802809 6.7842884e-005 0.0031740493
6.2031354e-006 0.00072790775 7.0289687e-005 0.0031722202 0.99948734 -0.0052016657
47315.125896148 0.99716741 -0.0072178752 7.8223193e-006 0.0013976828 2.1199625e-005 0.00077437737
-2.1280459e-006 0.0013812589 0.99907506 -0.013600091 7.0386741e-005 0.0033400112
2.0542529e-006 0.00078025681 6.3753767e-005 0.0033593336 0.99959481 -0.0054528438
50118.723362727 0.99698561 -0.0076452694 2.3917015e-005 0.0014936297 6.3733146e-006 0.00080655626
1.1107379e-005 0.0014822299 0.99907583 -0.014381582 8.6376756e-005 0.0035496685
2.2038244e-006 0.00082735019 8.0380749e-005 0.003560754 0.99938416 -0.0056053451
53088.444423099 0.99701267 -0.0081884293 2.6728612e-005 0.0015524609 2.1198328e-005 0.0008774731
2.1009701e-005 0.0015772748 0.998999 -0.015231188 5.9040831e-005 0.0037594631
6.4996871e-006 0.00087182771 5.4971566e-005 0.0037321739 0.99954748 -0.0059948633
56234.132519035 0.99690241 -0.0087402994 1.2398416e-005 0.0016373667 1.8647337e-005 0.00091992511
3.804658e-006 0.0016412456 0.99907422 -0.016237961 0.00010052443 0.0039825048
2.2346008e-005 0.00089951459 0.0001085445 0.0039844229 0.99942547 -0.0062643318
59566.214352901 0.99705684 -0.0091191959 2.0027672e-005 0.0017254782 1.5249781e-006 0.00097391207
1.5425438e-005 0.0017584307 0.99891829 -0.017219052 0.00010568503 0.0042327843
2.1999396e-005 0.00098680309 8.0928723e-005 0.0042388211 0.99928272 -0.0065999418
63095.734448019 0.99701184 -0.0097178174 1.4358754e-005 0.0018660834 1.5320553e-005 0.0010113155
8.5367183e-006 0.0018556756 0.99876589 -0.018180829 8.7635395e-005 0.0044616726
-1.569676e-005 0.001019938 0.00011287272 0.0044516702 0.99937147 -0.0069896211
66834.391756861 0.99689949 -0.010169063 2.1255404e-005 0.0019633784 2.5402163e-005 0.0010980356
3.3787124e-005 0.0019721331 0.99878395 -0.019240582 0.00012520235 0.0047374805
1.4527035e-005 0.0010885223 0.00011902013 0.0047269878 0.99931186 -0.0072904034
70794.578438414 0.99681705 -0.010855275 2.8201122e-005 0.0021175027 3.2770404e-005 0.0011673365
1.2665744e-005 0.0020739227 0.99855411 -0.020210933 0.00012995407 0.0049872273
2.7422941e-005 0.0011544136 0.00012471993 0.0049958411 0.99903256 -0.0078043919
74989.420933246 0.99678034 -0.011434123 2.2812532e-005 0.0022172534 -3.1024772e-006 0.0012319265
5.0114093e-005 0.0022098063 0.99859154 -0.021444798 0.00015824774 0.0053127934
7.028038e-006 0.0012330662 0.00015035133 0.0053261789 0.99924374 -0.0080267135
79432.823472428 0.99691081 -0.012121676 3.3420765e-006 0.0023438528 3.8758444e-005 0.001283888
3.7743113e-005 0.0023496037 0.99861586 -0.022591544 0.00017595713 0.0056092138
1.8411807e-005 0.001300826 0.00018130321 0.005641453 0.99910831 -0.0085271839
84139.514164519 0.99691117 -0.012714438 1.8340554e-005 0.0024664754 2.2057489e-005 0.0013611821
2.9127275e-005 0.0024398027 0.99853057 -0.023763428 0.00018061824 0.0059104683
3.4723835e-005 0.0013484483 0.00019971862 0.0059222183 0.99897581 -0.0087799579
89125.093813375 0.99682015 -0.013454004 2.0973421e-005 0.0026165014 3.2294738e-005 0.0014394559
4.0391747e-005 0.0026214472 0.99853641 -0.025221927 0.00019202099 0.0062972559
5.2042877e-005 0.0014226969 0.00024039279 0.006295417 0.99917996 -0.009354773
94406.087628592 0.99686372 -0.0142404 3.9852919e-005 0.002764049 3.6846224e-005 0.0015256495
3.7269241e-005 0.0027731291 0.99848247 -0.02679961 0.00023116414 0.0066545242
3.8260929e-005 0.0015317741 0.00023577349 0.0066666403 0.999084 -0.0097481562
100000 0.99692369 -0.015075943 4.6631591e-005 0.0029243641 4.739306e-005 0.0016422591
4.3938395e-005 0.0029286395 0.99840057 -0.028262468 0.00024792895 0.0070390864
3.806024e-005 0.0016254163 0.00024588581 0.0070314193 0.99895483 -0.010196478
105925.37251773 0.99701148 -0.015983114 4.5537632e-005 0.0031014346 4.0347131e-005 0.0017457542
4.4208889e-005 0.0031142039 0.99842519 -0.029919909 0.00027767915 0.0074607809
4.0584793e-005 0.0017064717 0.00030583836 0.0074572973 0.9989 -0.010728603
112201.8454302 0.99689537 -0.016872145 6.2440246e-005 0.0032836227 4.755599e-005 0.0018348671
5.0027262e-005 0.0032916528 0.99827355 -0.031803928 0.00030342056 0.0078898845
5.2867312e-005 0.001815449 0.00033530447 0.0079011032 0.99909151 -0.011456075
118850.2227437 0.99694151 -0.017996384 5.2693274e-005 0.0034749589 4.527401e-005 0.0019287326
5.953282e-005 0.0035004374 0.99845266 -0.03359203 0.00033835004 0.008331798
6.8606983e-005 0.0019142318 0.00035829426 0.0083682649 0.99908775 -0.012091519
125892.54117942 0.99697101 -0.018933916 4.71944e-005 0.0036878951 5.1328818e-005 0.0020286383
6.8561159e-005 0.0037136225 0.99832541 -0.035508011 0.00041497403 0.0088424999
8.2882114e-005 0.0020304623 0.00039589588 0.0088672275 0.99912792 -0.012835419
133352.14321633 0.99695313 -0.020121871 7.5160708e-005 0.0039114496 8.5376734e-005 0.0021581335
8.0081285e-005 0.0039225803 0.9982211 -0.037682585 0.00044731109 0.0093642771
4.1915238e-005 0.0021449437 0.00043092438 0.0093709156 0.99902505 -0.01346475
141253.75446228 0.99689573 -0.021419756 7.9153513e-005 0.004189352 7.9382095e-005 0.0023066804
8.0227619e-005 0.0041466383 0.99796349 -0.039911278 0.00047971882 0.0099568088
8.0827704e-005 0.0022890519 0.0004702569 0.0099327564 0.998824 -0.014241668
149623.56560944 0.99701113 -0.022671891 9.5540257e-005 0.0044060391 7.8876183e-005 0.0024247994
0.00010815076 0.0044021858 0.99793333 -0.042288143 0.00055904099 0.010497583
8.6942004e-005 0.0024093944 0.00055264792 0.010473278 0.99897754 -0.015301066
158489.31924611 0.99689686 -0.02389632 0.00010374642 0.0046474342 8.2457831e-005 0.0025846369
0.00011325116 0.0046620946 0.99775451 -0.044623524 0.00060740858 0.011087316
0.00010553207 0.0025481638 0.0005975744 0.011095386 0.99888694 -0.016062358
167880.40181226 0.99679768 -0.025431085 0.00013414622 0.0049469452 0.00010562414 0.0027058618
0.00013185557 0.0049528172 0.99751431 -0.047452062 0.00069358438 0.011743198
8.6892709e-005 0.0026948461 0.00068999169 0.011761846 0.99895591 -0.016965747
177827.94100389 0.99680972 -0.0269417 0.00014115426 0.0052431268 0.00010535837 0.0028815244
0.00015004446 0.0052287686 0.99728286 -0.050072268 0.00076680124 0.012418392
0.00010256701 0.0028887221 0.00078277895 0.012439231 0.99869996 -0.017937427
188364.90894898 0.99653041 -0.028520316 0.00015220072 0.0055457922 0.00011631691 0.0030155769
0.00014358181 0.0055421866 0.99718565 -0.053232372 0.00082560192 0.013140189
0.00012793967 0.0030215529 0.00084754318 0.013137975 0.99864298 -0.018983338
199526.23149689 0.9963882 -0.030180648 0.00016867103 0.0058711325 0.000142433 0.0032070449
0.00017289005 0.0058879373 0.99711305 -0.056251749 0.00093954924 0.013915694
0.00014639364 0.0031993638 0.00094024319 0.013889821 0.99852455 -0.02007067
211348.90398366 0.99653858 -0.03206088 0.00021657873 0.0062058922 0.00014603185 0.0033807333
0.00019644303 0.0062399902 0.9967078 -0.059503272 0.001022594 0.014693722
0.00011890176 0.0034044886 0.00099182711 0.014715428 0.99823254 -0.021146506
223872.11385683 0.99640292 -0.033693224 0.00021145087 0.0065929638 0.00015141998 0.0035848254
0.0002486514 0.0066004097 0.99650174 -0.063206151 0.0011391137 0.015560182
0.00015794823 0.0035942444 0.0011252451 0.015554625 0.99833292 -0.022251435
237137.37056617 0.99646425 -0.035714827 0.00026355957 0.007019334 0.00015782617 0.0037879269
0.00025725446 0.0069939797 0.99618548 -0.066828988 0.0012329702 0.016453033
0.0001676543 0.0037941546 0.0012437359 0.016434908 0.99823773 -0.023609269
251188.64315096 0.99647039 -0.037970457 0.0002911234 0.0073913089 0.00018610978 0.0040191794
0.0002987872 0.0074035781 0.99591559 -0.07084509 0.0013785776 0.017374629
0.0001846542 0.0040113744 0.001375726 0.017385537 0.99830431 -0.025088334
266072.50597988 0.99624336 -0.040205605 0.00033641353 0.0078694057 0.00019446215 0.0042415434
0.00032349565 0.007836991 0.99556124 -0.07490056 0.0015397583 0.018403595
0.000204458 0.00424778 0.001526006 0.018394947 0.99801332 -0.026292734
281838.29312645 0.99618226 -0.042621747 0.00037796484 0.0082895011 0.00024071534 0.0044894097
0.00035400546 0.0083309952 0.99505943 -0.079329908 0.0016956853 0.019439461
0.00021681674 0.0044929846 0.0016791292 0.019437646 0.99797094 -0.027893959
298538.2618918 0.99592346 -0.045060784 0.00043517523 0.0088100079 0.00025307757 0.0047692643
0.00043942052 0.0088344738 0.9947601 -0.083968349 0.0018600373 0.020529004
0.00023904603 0.0047392217 0.0018741094 0.020523185 0.99777836 -0.029519593
316227.76601684 0.99567491 -0.047799401 0.00047232796 0.009336899 0.0002670438 0.0050239512
0.00047970831 0.0093332324 0.99405944 -0.088918619 0.0020582376 0.021695361
0.00028205363 0.0050101564 0.0020653696 0.021674477 0.9976598 -0.031061731
334965.43915783 0.99551493 -0.050537772 0.00052554195 0.0098900655 0.00028853651 0.0053050336
0.00054862804 0.0098964218 0.99346268 -0.094024628 0.0022444024 0.022916175
0.00030720502 0.0053258175 0.002266526 0.022913722 0.99747568 -0.032808222
354813.38923358 0.99541247 -0.053598162 0.00062658725 0.010503519 0.00032491531 0.0055889417
0.0006306651 0.010497931 0.99282146 -0.099720255 0.0024933119 0.024190363
0.00034794942 0.0056053726 0.0024912336 0.024202669 0.99733132 -0.034888484
375837.40428844 0.99525195 -0.056664295 0.0007058864 0.011123491 0.00034936337 0.0059109326
0.00070025318 0.011117067 0.99230456 -0.10536872 0.0027081198 0.025594966
0.0003646249 0.005918968 0.0027336173 0.0255858 0.99721736 -0.036779337
398107.1705535 0.99511617 -0.06004506 0.00082042546 0.011787106 0.00039290803 0.0062694345
0.00079673145 0.011765252 0.99134278 -0.11149043 0.0030182654 0.027019115
0.00039399555 0.0062579624 0.0030227632 0.027032815 0.99687713 -0.038891256
421696.50342858 0.99484026 -0.06359145 0.00091846485 0.012462595 0.00041429393 0.0066263536
0.00090680894 0.012474713 0.9906075 -0.11803526 0.0032920444 0.028526872
0.00041263693 0.0066472669 0.0032959245 0.028553361 0.99664044 -0.041011177
446683.59215096 0.99449152 -0.067354389 0.0010059481 0.013234708 0.00043661983 0.0070013362
0.0010325942 0.01320025 0.98968136 -0.12495705 0.0036246094 0.030127212
0.00044085321 0.0070200572 0.0036015848 0.030161554 0.99646556 -0.043348104
473151.25896148 0.99406952 -0.071332231 0.0011505769 0.014002609 0.00048728287 0.0073908907
0.0011666525 0.01399734 0.98853332 -0.13217296 0.0039879838 0.031852804
0.00047443368 0.0073760441 0.0040084315 0.031832725 0.99617332 -0.045811363
501187.23362727 0.99373919 -0.075631805 0.0013264768 0.014808737 0.00049957883 0.0078168977
0.0013281967 0.014831836 0.98748833 -0.13991584 0.0043930882 0.033613615
0.00052235177 0.0078106802 0.0044071432 0.0335893 0.99604243 -0.048289459
530884.44423099 0.99311101 -0.080111526 0.0014693751 0.015681831 0.000579293 0.008244168
0.0014853042 0.015697779 0.98632765 -0.14799966 0.004799319 0.035515949
0.0005763825 0.008251329 0.0048178989 0.035536215 0.99578464 -0.051049929
562341.32519035 0.99289578 -0.084709354 0.0016890176 0.016610727 0.00061712379 0.0087445388
0.0016624039 0.016615164 0.98461282 -0.15661076 0.005273208 0.037480813
0.00059734914 0.0087422319 0.0052974988 0.037524339 0.99528927 -0.053948227
595662.14352901 0.99252105 -0.089476414 0.001899783 0.01760265 0.00064641499 0.0092421146
0.0018830352 0.017587561 0.98301375 -0.16573523 0.0057898643 0.039576452
0.00064946618 0.0092403051 0.0058138263 0.039581023 0.99499083 -0.057232253
630957.34448019 0.99217016 -0.094749644 0.0021158599 0.018608561 0.00071461924 0.0097720325
0.0021283431 0.018620618 0.98123848 -0.17522645 0.006362536 0.041796751
0.00071280805 0.0097856401 0.006371059 0.041776057 0.99477702 -0.060491469
668343.91756861 0.99142867 -0.10033222 0.0024155912 0.019683572 0.0007644358 0.010330768
0.0024255782 0.019713541 0.97898006 -0.18526727 0.006998722 0.044137143
0.00075351476 0.01035732 0.0070063821 0.044146441 0.99424714 -0.063716225
707945.78438414 0.99082512 -0.10620622 0.0027034553 0.020850105 0.00081801985 0.010919473
0.0027456819 0.020847162 0.97654974 -0.19596806 0.0077084233 0.046564855
0.00082810567 0.010937841 0.0077026989 0.046588629 0.99383783 -0.067411311
749894.20933246 0.99008334 -0.11268838 0.0030697261 0.022030996 0.00088556117 0.011548888
0.0030829266 0.022030234 0.97387999 -0.2071216 0.0084837824 0.049149703
0.0009016954 0.011545002 0.008477536 0.04917622 0.99321407 -0.071220472
794328.23472428 0.98902762 -0.11932306 0.0034786686 0.023315683 0.00095143676 0.01224292
0.0034714118 0.023303024 0.97154534 -0.21843076 0.0093216775 0.051892642
0.00098966644 0.012227309 0.0093306303 0.051883426 0.99284488 -0.075268671
841395.14164519 0.98822659 -0.12603189 0.0039265649 0.024641367 0.0010504972 0.012921682
