!Keysight Technologies,E5080A,MY55100144,A.11.70.03
!Date: Monday, November 13, 2017 17:24:20
!Correction: S11(Full 3 Port(1,2,3)) 
!S12(Full 3 Port(1,2,3)) 
!S13(Full 3 Port(1,2,3)) 
!S21(Full 3 Port(1,2,3)) 
!S22(Full 3 Port(1,2,3)) 
!S23(Full 3 Port(1,2,3)) 
!S31(Full 3 Port(1,2,3)) 
!S32(Full 3 Port(1,2,3)) 
!S33(Full 3 Port(1,2,3)) 
!S3P File: Measurements: <S11,S12,S13>,
!<S21,S22,S23>,
!<S31,S32,S33>:Log Frequency Sweep
# Hz S  RI   R 50
10000 0.99669862 -0.002878831 -0.00013895471 0.00014398032 -2.9896515e-008 0.00018069398
-2.122761e-005 0.00025456771 0.4089669 -0.57123882 -0.0001197436 0.0001314047
-5.4004768e-006 0.00015230455 -0.00015375204 0.00016624408 0.99996477 -0.002285732
10592.537251773 0.99674839 -0.0030119014 -0.00014625683 0.00016790362 -3.1865297e-006 0.00017097971
-8.5495076e-006 0.00027966269 0.37730592 -0.56625485 -0.00012573875 0.00014004542
1.5749918e-005 0.00015820801 -0.00015841285 0.00017807864 1.0000452 -0.0023107715
11220.18454302 0.99678314 -0.0031902578 -0.0001467246 0.00018416591 1.1064066e-007 0.0001602694
-4.685911e-005 0.00028498928 0.34588355 -0.56032884 -0.00013534623 0.00014615628
-5.5743171e-006 0.00016905766 -0.00014807671 0.0002048524 1.0000552 -0.0023618701
11885.02227437 0.99693692 -0.0031571763 -0.00015352221 0.00018537849 -9.5287196e-006 0.00018740015
-3.0093108e-005 0.00030943411 0.31572959 -0.55218905 -0.00013374029 0.00016792053
8.6583086e-006 0.00015276318 -0.0001451806 0.00021768978 1.0001063 -0.0023003009
12589.254117942 0.99704462 -0.0034580596 -0.00015009753 0.00022154488 9.1517604e-006 0.00020746402
-3.4430079e-005 0.00033265408 0.28663993 -0.54240912 -0.00016866018 0.00018941394
1.2871476e-005 0.00019569833 -0.00017616777 0.00022742097 0.99998635 -0.0025874884
13335.214321633 0.99708676 -0.0038030171 -0.00017129364 0.00024244703 -5.5232942e-007 0.0001842076
-4.9871167e-005 0.00035615265 0.25833863 -0.53177631 -0.00015567997 0.00021260406
-1.7428352e-005 0.00021733607 -0.00020165705 0.00026901881 0.99991745 -0.0024499723
14125.375446228 0.9970454 -0.0040785614 -0.00019042537 0.00028809678 1.5413307e-005 0.00021467134
-4.984103e-005 0.00037909302 0.23089202 -0.52057368 -0.00017510231 0.00024084275
-3.3410595e-006 0.00021982206 -0.00019563433 0.00030318223 1.0000316 -0.0025266183
14962.356560944 0.99691224 -0.0040960955 -0.00018033056 0.00031300838 -6.3172379e-006 0.00021764854
-4.2672e-005 0.00040425104 0.20525678 -0.5075894 -0.00017300918 0.0002553935
-5.7067991e-006 0.00024934683 -0.00018546772 0.00034811517 0.99997991 -0.0026441282
15848.931924611 0.99709892 -0.0044668522 -0.00018690397 0.00033506504 5.418241e-006 0.00023095911
-4.5147677e-005 0.00042642077 0.18090023 -0.4933157 -0.00016730833 0.00027062843
-6.8921122e-007 0.00023134226 -0.00020513813 0.00037201677 1.0000856 -0.0025074254
16788.040181226 0.99694431 -0.0047663725 -0.00020590026 0.00036582063 -1.1916147e-005 0.00026381528
-4.2273354e-005 0.00046362067 0.15816031 -0.47863594 -0.00017615518 0.00029390235
-3.8263684e-006 0.00026491357 -0.00019098724 0.00040723028 0.99997103 -0.0026203948
17782.794100389 0.99713916 -0.0048563723 -0.0001921834 0.00040471248 4.6892824e-006 0.00024080536
-3.2629687e-005 0.00047482862 0.13624704 -0.46390468 -0.00017209293 0.00033206728
4.8777633e-006 0.00027478056 -0.00021481814 0.00044266001 0.99998516 -0.0027035442
18836.490894898 0.99717158 -0.0051258411 -0.00021708952 0.0004307809 9.5852351e-007 0.00028290797
-3.5867815e-005 0.00053169823 0.11589114 -0.44864339 -0.00020671773 0.00035850226
-2.1788133e-005 0.00027326087 -0.00025882499 0.00049878866 0.99998224 -0.0027789115
19952.623149689 0.99706018 -0.0055865073 -0.00020796761 0.00044668495 2.2692639e-006 0.00032793425
-4.2926513e-005 0.00055329758 0.097077221 -0.43301034 -0.00018042601 0.00038766232
-1.3917359e-006 0.00030765211 -0.00021562928 0.00051263574 0.99999535 -0.0029556307
21134.890398366 0.99718869 -0.0059982608 -0.00019774906 0.00050265092 -1.7887671e-005 0.00031209193
-5.3199223e-005 0.00058132206 0.079121143 -0.41736349 -0.00019447513 0.0004015484
-2.8287056e-006 0.00032272708 -0.00022506119 0.00056972628 0.9998123 -0.002993077
22387.211385683 0.99694997 -0.006393672 -0.00019339519 0.00055796129 1.126058e-005 0.00034045964
-3.8200113e-005 0.00062798092 0.062410235 -0.40207598 -0.00020635396 0.00043269273
6.8821755e-006 0.00034528816 -0.00021563166 0.00061849621 0.99999321 -0.0031595447
23713.737056617 0.99708289 -0.0067248954 -0.0002433351 0.00059897674 1.2833266e-007 0.00037544456
-1.9369349e-005 0.00065699004 0.047129571 -0.3862139 -0.00020584006 0.00049506442
4.9434757e-006 0.00034906532 -0.00025823209 0.00063892599 0.99967557 -0.0031241258
25118.864315096 0.99703926 -0.0069985236 -0.00022258914 0.00059976237 1.5683436e-005 0.00036946259
-2.4112711e-005 0.00070001004 0.033378024 -0.37068886 -0.00020610564 0.00051493116
-2.7953388e-007 0.00037679906 -0.00024658963 0.00071264547 0.9998976 -0.0033182022
26607.250597988 0.99712461 -0.007319604 -0.00022086268 0.00064930459 -1.2947085e-005 0.00040900405
-5.7781904e-006 0.00074504683 0.020387255 -0.35535714 -0.00022121875 0.00055147137
-1.0202475e-006 0.00038650486 -0.00023525384 0.00076061842 0.99982703 -0.0036382137
28183.829312645 0.99703586 -0.0079776691 -0.00023159769 0.00073321245 5.8114597e-006 0.00043969401
-3.2073694e-005 0.00079451752 0.0084291371 -0.34035385 -0.00021864918 0.0005774764
-7.5803604e-007 0.00041126527 -0.0002411414 0.00081384648 0.99983048 -0.0036180846
29853.82618918 0.99705684 -0.0083181458 -0.00024242708 0.0007740056 7.0835772e-006 0.00045724539
-1.9259009e-005 0.00084285293 -0.0024443674 -0.32556298 -0.00022620748 0.00064023578
-2.0492651e-005 0.0004659082 -0.00025996662 0.00084085722 0.99979568 -0.0037414413
31622.776601684 0.99698985 -0.008734718 -0.00022438707 0.00082394842 6.45011e-006 0.00049185922
-5.7300927e-006 0.00089531107 -0.012634663 -0.3114967 -0.00022142955 0.00069730566
-6.0820544e-006 0.00047896744 -0.00025675763 0.00093082589 0.99991316 -0.0040753246
33496.543915783 0.99708205 -0.0092635611 -0.00021397554 0.00087091775 -1.3605654e-005 0.0004976585
2.4314069e-005 0.00093756738 -0.021936717 -0.29768756 -0.00024286151 0.00073429372
1.614786e-006 0.00050978235 -0.0002388888 0.0010011173 0.99993634 -0.0042193076
35481.338923358 0.99682385 -0.0098382663 -0.00024320229 0.00094930176 1.0279873e-005 0.00054393808
1.6148053e-005 0.00099262758 -0.030432407 -0.28422371 -0.00023470278 0.0007784465
-1.2291202e-006 0.00053773163 -0.00022999008 0.0010507983 0.99971557 -0.0042978358
37583.740428844 0.99701619 -0.010403503 -0.00024497675 0.0010110202 1.5977537e-005 0.00058589614
1.3805406e-005 0.0010589154 -0.038066924 -0.27121061 -0.00022522075 0.00083931879
7.9946531e-006 0.00056758296 -0.00024639777 0.00112793 0.99966413 -0.0045177685
39810.71705535 0.99701053 -0.01092748 -0.00023523498 0.0010690293 1.9737416e-005 0.00060434884
4.4142605e-005 0.0011303539 -0.045286041 -0.25886437 -0.00022596437 0.00089376711
2.6859204e-006 0.00059817097 -0.00022005486 0.0011984754 0.99958342 -0.0047015636
42169.650342858 0.99684292 -0.01171153 -0.00023782326 0.0011443403 -1.2189289e-006 0.00065362058
5.3166721e-005 0.0011979932 -0.051680092 -0.24677713 -0.00022791924 0.00094996113
2.691663e-005 0.00063689746 -0.00024397664 0.0012487749 0.99963295 -0.0051388158
44668.359215096 0.99708879 -0.012320542 -0.00024011717 0.0012019082 -8.1692838e-007 0.00069985719
5.9475944e-005 0.0012573519 -0.057526376 -0.23518346 -0.00022663503 0.0010185776
2.2258137e-005 0.000686115 -0.00025557753 0.0013456063 0.99950999 -0.0052398369
47315.125896148 0.99702555 -0.013045442 -0.0002382286 0.0012847206 2.9898189e-005 0.000713991
6.3155363e-005 0.0013259964 -0.06289231 -0.22408561 -0.0002234877 0.0010795892
-2.95738e-006 0.0007262273 -0.00023587004 0.0014326291 0.99966276 -0.0053946543
50118.723362727 0.9970358 -0.013786038 -0.00022994811 0.0013838523 2.6963382e-005 0.00078376185
7.9856261e-005 0.0013955832 -0.067974344 -0.21353491 -0.0002000762 0.0011581236
6.845336e-006 0.00077385292 -0.00026155505 0.0015477209 0.99952698 -0.0056980448
53088.444423099 0.99687874 -0.014640098 -0.00021986841 0.0014608938 5.1007628e-006 0.0008261833
0.00011582708 0.0014847586 -0.072492585 -0.20345186 -0.00023727163 0.0012186402
8.3994901e-006 0.00080500252 -0.00022548773 0.0016395566 0.99961019 -0.0060865153
56234.132519035 0.99684423 -0.015542973 -0.00020475937 0.0015443007 2.7003298e-005 0.00086820638
0.00010202249 0.0015751607 -0.076411515 -0.1937311 -0.00023804152 0.0013099163
-2.858781e-006 0.000870383 -0.00023216041 0.0017309708 0.99933255 -0.0063629062
59566.214352901 0.99698788 -0.016410863 -0.00024939419 0.0016333534 -7.9263891e-006 0.00091239827
0.00011491316 0.0016584612 -0.080165416 -0.18447439 -0.00024260901 0.0013834705
1.9102945e-005 0.00090949307 -0.00021668486 0.0018693628 0.99927956 -0.0065857884
63095.734448019 0.99683553 -0.017249506 -0.00021285107 0.0017305755 3.6307902e-005 0.0009645028
0.00014908977 0.0017421015 -0.083394729 -0.17569461 -0.00023696564 0.0014673076
2.1484218e-005 0.00095074635 -0.0002247106 0.0019672215 0.9994064 -0.0069624237
66834.391756861 0.99683946 -0.018283308 -0.00022703431 0.0018700872 6.0420498e-006 0.0010277993
0.0001590671 0.0018474745 -0.086584777 -0.16724649 -0.00023113364 0.0015720548
1.0315515e-005 0.001019701 -0.00021275015 0.0020664558 0.9993971 -0.0072285626
70794.578438414 0.99682742 -0.019397866 -0.00022134153 0.0019761713 6.7790365e-006 0.0010891365
0.00015406946 0.001950796 -0.089425199 -0.15936726 -0.00024099235 0.0016834845
2.1115799e-005 0.0010779441 -0.0002101123 0.002182724 0.99924898 -0.007781818
74989.420933246 0.99677014 -0.020483632 -0.0002219764 0.0020943957 1.4437603e-005 0.0011578876
0.00019099869 0.0020623601 -0.09186697 -0.1517954 -0.00023361208 0.0017703937
1.0880915e-005 0.001131819 -0.00022458808 0.0023257411 0.99935627 -0.0079942076
79432.823472428 0.99664158 -0.021593804 -0.00020536446 0.0022199207 3.4749959e-005 0.0011994221
0.00020415618 0.002185208 -0.094370134 -0.1445712 -0.0002334578 0.0018973418
3.3840224e-005 0.0011971187 -0.00021014907 0.0024775751 0.99905646 -0.0084924893
84139.514164519 0.99656993 -0.023029992 -0.00021085599 0.0023499643 3.2142598e-005 0.0013135704
0.00021675327 0.0023091398 -0.096298926 -0.13776177 -0.00023319024 0.0019943235
3.4646313e-005 0.0012677583 -0.00021579069 0.0026180102 0.99905562 -0.0088257948
89125.093813375 0.99668652 -0.024237653 -0.00018992643 0.0024862499 4.1994252e-005 0.0013661083
0.00021946443 0.0024408046 -0.097993225 -0.13130495 -0.00021991988 0.002115838
2.250865e-005 0.0013610775 -0.00019944801 0.0027894059 0.9990949 -0.0093845613
94406.087628592 0.9966048 -0.025675958 -0.00020541469 0.0026407633 4.5249537e-005 0.0014600088
0.00026182781 0.0025830877 -0.09948808 -0.12523913 -0.00021469736 0.00224454
4.492245e-005 0.0014289974 -0.00016856822 0.0029299182 0.99922132 -0.0098420558
100000 0.996705 -0.026941733 -0.00021062497 0.002803741 5.0103616e-005 0.0015349824
0.00029800535 0.002728902 -0.10086993 -0.11941599 -0.00021863384 0.0023909591
5.0684765e-005 0.0015262855 -0.00015082187 0.0031560438 0.99894273 -0.010445473
105925.37251773 0.99673057 -0.028943157 -0.00019064802 0.002935302 5.1543338e-005 0.0016277125
0.0002857582 0.0028191749 -0.10203521 -0.11402398 -0.00022296121 0.0025457016
4.0132294e-005 0.0015916423 -0.00017945074 0.0032932097 0.99896812 -0.010793408
112201.8454302 0.99662644 -0.030585324 -0.00018885903 0.0031593242 4.5245753e-005 0.0017096715
0.0003131947 0.0029828951 -0.10311234 -0.10883181 -0.00020258783 0.0026933134
6.7183049e-005 0.00168863 -0.00013776154 0.0035407483 0.99907142 -0.011616311
118850.2227437 0.99660391 -0.032268174 -0.00016579787 0.0033214618 3.9096289e-005 0.0018140791
0.00031860013 0.0031504596 -0.10416202 -0.10410856 -0.00021625399 0.0028598723
6.004603e-005 0.0018154053 -0.00013742066 0.0036928311 0.99903899 -0.012121459
125892.54117942 0.99656981 -0.034144763 -0.0001621954 0.0035593815 6.7532434e-005 0.001902068
0.00033140456 0.0033265913 -0.10474256 -0.099715844 -0.00020159659 0.0030322778
8.7344939e-005 0.0019090798 -8.9095964e-005 0.0039315019 0.99918944 -0.012785708
133352.14321633 0.99642724 -0.036246657 -0.00015612946 0.0037694778 8.2038307e-005 0.0020257523
0.00035050235 0.0035368139 -0.10554585 -0.095411539 -0.0001990555 0.003201928
6.2902443e-005 0.0020088747 -7.7321318e-005 0.0041829385 0.99900049 -0.013561707
141253.75446228 0.99637729 -0.038438343 -0.00012215287 0.0039677708 8.8358604e-005 0.0021470815
0.00039593884 0.0037235697 -0.10603429 -0.091502272 -0.00018536253 0.0034036131
5.7475161e-005 0.0021377678 -7.0936563e-005 0.0044137635 0.99904263 -0.014391182
149623.56560944 0.99627143 -0.040495794 -0.00013320106 0.0042048288 8.9065943e-005 0.0022766374
0.00040648665 0.0039382442 -0.10673413 -0.087918751 -0.00015889885 0.0036067376
0.0001183332 0.002257139 -4.7993406e-005 0.0046953708 0.99895859 -0.015296554
158489.31924611 0.99616122 -0.042905264 -0.00011407553 0.0044526248 8.8944362e-005 0.0023887313
0.00042584352 0.0041721649 -0.1070746 -0.084580801 -0.00014536893 0.0038211725
0.0001108624 0.0023911393 -3.8950013e-005 0.0049520512 0.99908173 -0.015963985
167880.40181226 0.99588442 -0.04545483 -8.6597363e-005 0.004742994 0.00010879393 0.002554182
0.00046124778 0.0044118892 -0.10753562 -0.081429623 -0.00014550226 0.0040572919
0.0001150502 0.0025282479 4.6375607e-007 0.0052429698 0.99900997 -0.017033735
177827.94100389 0.99581784 -0.048176143 -5.9210295e-005 0.0050199018 0.00011405155 0.0027030997
0.00049208396 0.0046804324 -0.10806577 -0.07818836 -0.0001160565 0.0042901733
0.00012627263 0.0026808456 1.1085427e-005 0.0055465484 0.99867439 -0.017963469
188364.90894898 0.99552822 -0.051023278 -4.9628219e-005 0.0052964487 0.00010794494 0.0028449537
0.00053715211 0.0049425336 -0.10846465 -0.076081373 -0.00010871799 0.0045410446
0.00011374056 0.0028195358 6.2942221e-005 0.0058864462 0.99873674 -0.019018576
199526.23149689 0.99542451 -0.053955361 -4.6264635e-005 0.0056029479 0.00014731151 0.0030250642
0.0005333554 0.0052514379 -0.10842121 -0.073633067 -9.678449e-005 0.0048109908
0.00014830523 0.0029965534 9.7856086e-005 0.0062076249 0.99859196 -0.020141922
211348.90398366 0.9951514 -0.057129454 -3.5200198e-006 0.0059832768 0.00017474745 0.0031806869
0.0005931909 0.0055598337 -0.10847944 -0.071533442 -8.2635808e-005 0.0051041776
0.00017968274 0.0031775588 0.0001180332 0.0065626088 0.99849349 -0.021158939
223872.11385683 0.99493706 -0.060430504 3.3158689e-005 0.0063115903 0.00018139672 0.0033752888
0.00061104208 0.0058687143 -0.10872012 -0.069699891 -4.6302248e-005 0.0054055639
0.00021013634 0.0033613627 0.00018484758 0.0069769965 0.99859041 -0.022339031
237137.37056617 0.99474299 -0.063953981 6.12738e-005 0.0066881431 0.00019916889 0.0035665657
0.0006699253 0.0062177759 -0.10883223 -0.06791541 -1.6487327e-005 0.0057074386
0.00022228269 0.003532941 0.00021717747 0.0073516476 0.99836701 -0.023689028
251188.64315096 0.99456805 -0.067753166 9.4635856e-005 0.0071252761 0.00022279029 0.0037777005
0.00071468682 0.0065828846 -0.10913854 -0.066549651 -5.8556639e-006 0.0060521015
0.00023865563 0.0037426224 0.00025469589 0.0077940598 0.99842709 -0.025086749
266072.50597988 0.9941175 -0.071731739 0.0001568568 0.0075314548 0.0002475708 0.0039907601
0.00076648302 0.0069746799 -0.10928235 -0.065357685 5.3379841e-005 0.0064033875
0.0002693836 0.0039698756 0.00032237184 0.0082318271 0.99820846 -0.026422169
281838.29312645 0.99373055 -0.075966097 0.00021379691 0.0079810256 0.0002813226 0.004204988
0.00083983695 0.0073827226 -0.10907007 -0.064227484 7.2995746e-005 0.0067627192
0.00029185845 0.00419494 0.00038677268 0.0087125879 0.99820501 -0.027830163
298538.2618918 0.99331588 -0.080501527 0.00023608144 0.0084515596 0.00031551701 0.0044578994
0.00089548744 0.0078333728 -0.1092834 -0.063311741 0.00011421432 0.0071512084
0.00031287241 0.0044454844 0.00043695865 0.0092070876 0.99794668 -0.029441599
316227.76601684 0.99279815 -0.085141353 0.00029452451 0.0089342957 0.000353938 0.0047147074
0.00095869054 0.0082940711 -0.1094709 -0.06275174 0.00015304156 0.0075671421
0.00033903125 0.0046787881 0.00051202677 0.0097623197 0.99778926 -0.031167924
334965.43915783 0.99246216 -0.090231963 0.00037246878 0.0094844159 0.00038511606 0.0049953149
0.001053856 0.0087714614 -0.10983896 -0.062398195 0.00021807522 0.0080018239
0.00039116893 0.0049623256 0.0005903914 0.010275198 0.99749881 -0.032967139
354813.38923358 0.99177349 -0.095386893 0.00043399763 0.010032486 0.00041575218 0.00524593
0.0011397921 0.0092968466 -0.11012294 -0.062177096 0.00025634663 0.0084807789
0.00040741658 0.0052365116 0.00068002741 0.010886436 0.9975189 -0.034795858
375837.40428844 0.99130768 -0.1008567 0.0005297063 0.010631911 0.00045794563 0.0055607231
0.0012313226 0.0098174093 -0.11068998 -0.062166665 0.00029983866 0.0089398306
0.00044034838 0.0055418154 0.00077337481 0.011479839 0.99733198 -0.03681713
398107.1705535 0.99055535 -0.10684428 0.0006621661 0.011235944 0.0004876504 0.0058800606
0.0013681093 0.010403106 -0.11109718 -0.062396154 0.00037900353 0.0094461078
0.00049067574 0.0058554974 0.0008612012 0.012116153 0.99721324 -0.038993794
421696.50342858 0.98963863 -0.11313202 0.00073896599 0.011909178 0.00053944456 0.0061869533
0.0014784518 0.010997218 -0.1116529 -0.062971704 0.00044526465 0.010006096
0.00055130798 0.0061911596 0.00097994518 0.012821019 0.99698347 -0.04115247
446683.59215096 0.98884839 -0.11977152 0.000875937 0.012605757 0.0005650603 0.0065473933
0.0016558262 0.011659258 -0.11221518 -0.063644074 0.00052782794 0.010566569
0.00059211714 0.006533131 0.0010894693 0.013527757 0.99678379 -0.043348804
473151.25896148 0.98791009 -0.12679888 0.0010241984 0.013342809 0.00065243122 0.0069402475
0.0017872166 0.012318909 -0.11298943 -0.064127401 0.00057880592 0.011174344
0.0006715958 0.0068846243 0.0012176449 0.014302747 0.99646002 -0.045782659
501187.23362727 0.98658162 -0.13408659 0.0011940231 0.014131419 0.0007069874 0.0072975713
0.0020130579 0.013016485 -0.113212 -0.064735591 0.0006838718 0.011821414
0.00069518213 0.0072918301 0.0013347056 0.015083697 0.9962669 -0.048350368
530884.44423099 0.98528475 -0.14188617 0.0013438564 0.014931194 0.00075471983 0.0077181859
0.0022114872 0.013778399 -0.11371707 -0.065861598 0.00075241557 0.012486845
0.00078069681 0.0076985518 0.0014987697 0.015945792 0.99610674 -0.05122418
562341.32519035 0.98402792 -0.15008941 0.001538831 0.015804403 0.00082515081 0.0081714755
0.0024503791 0.014560205 -0.1141341 -0.067291662 0.00084983121 0.013192143
0.00084156438 0.0081509305 0.0016861894 0.016873913 0.99588823 -0.054282796
595662.14352901 0.98271078 -0.15863644 0.001758393 0.016753467 0.00092736032 0.0086231716
0.0027173976 0.015404152 -0.11484046 -0.068838283 0.0009669076 0.013959574
0.00092495943 0.0086011933 0.0018641371 0.017812928 0.99557173 -0.057276782
630957.34448019 0.98096722 -0.16789804 0.0020297212 0.017696831 0.00098771439 0.0091244308
0.0030140853 0.016266573 -0.11532883 -0.070602231 0.0010801099 0.01475313
0.0010181005 0.0090877526 0.0020630057 0.018803824 0.99522775 -0.060693853
668343.91756861 0.97899431 -0.17780158 0.002294448 0.018713508 0.0010760796 0.0096317045
0.0033542051 0.017171124 -0.11622098 -0.072479703 0.0012088428 0.015590137
0.0011010664 0.0096136704 0.0022515468 0.019846993 0.99488091 -0.064044915
707945.78438414 0.9769485 -0.1879214 0.002599373 0.019777806 0.0011888 0.010192335
0.0037141324 0.018142503 -0.11718102 -0.074614577 0.0013396388 0.016473919
0.0012237224 0.010155219 0.0025178718 0.020950904 0.99454814 -0.067798086
749894.20933246 0.9746083 -0.19886076 0.0029971593 0.020903638 0.001299049 0.010770428
0.0041225213 0.019150447 -0.11847165 -0.076799825 0.0014802372 0.017422592
0.001333611 0.010711622 0.0027795665 0.02213526 0.99406219 -0.071375273
794328.23472428 0.97169352 -0.21048231 0.0033458518 0.02209162 0.0014232881 0.011367708
0.0046143373 0.020185525 -0.11948364 -0.079126276 0.0016438796 0.018413957
0.0014534714 0.011340912 0.0030643309 0.023364365 0.99366182 -0.075602144
