!Keysight Technologies,E5080A,MY55100144,A.11.70.03
!Date: Monday, November 13, 2017 17:24:33
!Correction: S11(Full 3 Port(1,2,3)) 
!S12(Full 3 Port(1,2,3)) 
!S13(Full 3 Port(1,2,3)) 
!S21(Full 3 Port(1,2,3)) 
!S22(Full 3 Port(1,2,3)) 
!S23(Full 3 Port(1,2,3)) 
!S31(Full 3 Port(1,2,3)) 
!S32(Full 3 Port(1,2,3)) 
!S33(Full 3 Port(1,2,3)) 
!S3P File: Measurements: <S11,S12,S13>,
!<S21,S22,S23>,
!<S31,S32,S33>:Log Frequency Sweep
# Hz S  RI   R 50
10000 0.99679142 -0.0050561004 -1.2790472e-005 5.4516677e-006 4.0225473e-006 0.00015922837
-1.1978081e-005 6.6370048e-006 0.47002682 -0.87401521 -3.9285087e-006 1.6998189e-005
4.7422891e-006 0.00015824703 -1.2981587e-005 1.1468878e-005 0.99963236 -0.0023340164
10592.537251773 0.99668062 -0.005606838 -9.6627373e-006 -8.0446562e-006 7.1530339e-006 0.00014301114
-2.3979912e-005 2.7311222e-005 0.42499143 -0.89644122 -1.3134673e-005 9.934568e-006
2.045041e-005 0.00014432223 2.1681956e-006 2.5188244e-006 0.99997789 -0.0021388973
11220.18454302 0.99705392 -0.0058185128 -1.5805523e-005 -2.5489533e-007 -2.3672421e-005 0.00015319709
8.4333205e-006 2.2635329e-006 0.37686542 -0.91698021 3.5330245e-006 -3.432669e-006
-1.3622795e-005 0.00016007703 1.1924869e-006 1.7658727e-005 1.0001748 -0.0025423164
11885.02227437 0.99690902 -0.0062176818 -1.4330359e-005 -8.3760815e-006 -1.1313762e-005 0.00015502695
3.9567622e-006 1.8615116e-005 0.32720736 -0.93557864 -7.5065977e-006 2.884542e-006
2.4702483e-006 0.00015927419 -1.1196194e-005 1.2465654e-005 1.0001056 -0.0024737793
12589.254117942 0.99695873 -0.0066593052 -1.1838411e-005 1.1780382e-005 1.4077148e-005 0.00018665612
-4.1114354e-006 -8.0939553e-006 0.27586654 -0.9515608 -3.7284815e-006 1.8324879e-005
-1.3032553e-005 0.00016577581 -4.3026516e-006 3.1503876e-006 1.0000148 -0.0024633151
13335.214321633 0.99696457 -0.006965558 3.9808037e-006 4.2122838e-006 -5.3843096e-006 0.00016891451
-1.3637225e-005 -1.353821e-005 0.22265518 -0.96517771 -6.2536816e-007 -2.0264687e-007
9.3739673e-006 0.0001466269 2.7851099e-006 -2.0518486e-005 0.99987936 -0.0024604225
14125.375446228 0.99701405 -0.0074802833 1.5619842e-007 2.2718206e-005 5.8711153e-006 0.00016228428
-6.9606713e-006 1.1382072e-005 0.16810991 -0.97541296 5.4286434e-006 -9.9989602e-006
3.4038446e-006 0.00019261084 -6.0052203e-006 1.0714386e-006 1.0000081 -0.0024694572
14962.356560944 0.99693853 -0.0077895853 2.4350551e-005 -3.7087307e-007 1.3475945e-005 0.00020544755
-2.1688531e-006 1.5750955e-005 0.11253566 -0.9834727 -5.7492621e-006 -4.2419119e-006
1.5389309e-005 0.00018018218 2.1223927e-005 -5.7624002e-006 1.000079 -0.0026142059
15848.931924611 0.9972114 -0.0082587833 -1.558833e-006 -2.3848281e-007 -2.0864458e-005 0.0002086866
-5.3916424e-006 2.6749447e-006 0.056036737 -0.98768425 6.8157274e-006 1.6316073e-005
4.0214791e-006 0.00020245042 -1.7117611e-005 1.1021673e-006 1.0000182 -0.0026395661
16788.040181226 0.99698269 -0.008651291 -2.2747194e-005 1.1508862e-005 1.9282741e-006 0.00020390945
-2.0020849e-005 1.7621984e-005 -0.00046303793 -0.98877764 4.7131393e-006 -2.6726059e-006
-2.9050329e-006 0.0002178664 -7.8597141e-006 -7.8959974e-006 0.99994528 -0.002713863
17782.794100389 0.99708945 -0.0091449926 9.1797538e-006 -3.486896e-006 1.42491e-005 0.00024222409
-2.1993139e-005 9.0574576e-006 -0.057120301 -0.98674721 6.9088715e-006 -1.3906796e-005
-9.8734381e-006 0.0002243186 2.4095783e-005 2.6628e-005 0.99997622 -0.0026414925
18836.490894898 0.99708742 -0.0097519681 5.8110541e-006 5.9271183e-006 7.6620472e-006 0.00025825907
-1.1619826e-005 9.4759216e-006 -0.11331461 -0.98176062 -3.8528824e-006 2.636214e-006
2.7739501e-005 0.00025480462 1.1949703e-006 1.2018735e-005 0.9999904 -0.0028322912
19952.623149689 0.99694735 -0.010371597 1.3257291e-005 1.9985448e-005 2.4440683e-006 0.00027176834
3.2649737e-006 1.0320205e-005 -0.16847599 -0.97359055 3.882767e-006 8.9373125e-006
-6.0698835e-006 0.00026436572 -1.3146543e-005 -1.0220906e-005 0.99993217 -0.002976018
21134.890398366 0.99696976 -0.010968287 -1.1669532e-005 -3.0907024e-006 -5.8254882e-006 0.00028320015
-5.8933151e-006 1.7076871e-005 -0.22287631 -0.96226066 3.9023334e-007 -1.0329741e-005
-1.0918355e-005 0.00028367803 1.8942172e-005 1.771052e-006 0.99976522 -0.0032346915
22387.211385683 0.99703878 -0.011536205 -3.3512933e-005 1.7615783e-005 1.088435e-005 0.00029149995
-9.1753163e-006 -1.3371351e-006 -0.27580348 -0.94829702 7.7379636e-006 9.1360571e-006
-5.7459438e-006 0.00028029099 3.5719165e-007 5.0162753e-006 0.99990773 -0.0031468403
23713.737056617 0.99694204 -0.012339721 -2.6039738e-006 1.3612201e-005 1.1027778e-005 0.00030437135
-2.2475384e-005 2.787956e-005 -0.32708779 -0.93147904 3.7749078e-006 1.6259011e-005
7.6991675e-008 0.0003015353 -1.9744884e-006 7.758822e-006 0.99980164 -0.0032688971
25118.864315096 0.99697751 -0.012980597 2.3756804e-006 3.6398047e-005 3.3829965e-006 0.00033042207
-7.8389339e-006 2.1521875e-005 -0.37628478 -0.91257316 -4.5216502e-006 3.3060078e-006
-1.1424877e-005 0.00031749372 -2.0552994e-005 1.7528009e-006 0.99994308 -0.0033485813
26607.250597988 0.99687523 -0.01368182 -1.1040224e-008 -9.8513792e-006 -1.9943167e-005 0.00035658613
-1.4478685e-005 3.4835793e-005 -0.4236142 -0.89163464 8.4582252e-006 1.2053246e-005
2.8057357e-005 0.00035690152 -1.3594839e-005 -1.1530373e-005 0.99981809 -0.0034858545
28183.829312645 0.99699092 -0.014691936 -2.9721921e-005 3.828136e-006 -5.2129035e-006 0.00037553126
-1.0940095e-005 3.4126653e-005 -0.46870255 -0.86860079 -5.4959919e-006 1.5250398e-005
-4.9225122e-007 0.00038211144 -9.6971717e-006 -2.8568702e-005 0.99991316 -0.0037272742
29853.82618918 0.99701941 -0.015416415 -3.520817e-006 -1.5013314e-005 1.0933607e-005 0.00036265209
-5.9702402e-006 1.4197396e-005 -0.5111202 -0.84412998 -1.4166934e-005 8.4446701e-006
-7.2285989e-006 0.00038813945 -9.1944059e-007 6.5481373e-007 0.99976307 -0.0037135212
31622.776601684 0.99681342 -0.016428197 -1.4896927e-005 1.115115e-005 -1.3347122e-005 0.00040086775
-1.5343499e-005 1.8524672e-005 -0.55117029 -0.81850737 -3.1345601e-006 8.431055e-006
7.0000742e-006 0.00042107434 -1.8805875e-005 1.6309856e-005 0.99973154 -0.0041467114
33496.543915783 0.99701285 -0.017278356 -1.061159e-006 3.1586984e-005 1.2975927e-005 0.0004349009
-6.3133211e-006 2.8299064e-005 -0.58877546 -0.79175192 -1.4674497e-005 4.9698942e-006
9.0001286e-006 0.00042476231 -2.9780216e-005 2.5378857e-005 0.99988163 -0.0042382106
35481.338923358 0.99690229 -0.018326791 -2.2184354e-006 3.1203697e-005 1.0580282e-005 0.00046647058
-1.2553553e-005 1.2458535e-005 -0.62396824 -0.76414996 -5.9415624e-006 1.0303698e-005
2.1764892e-005 0.00046901556 8.201971e-007 -1.5647442e-005 0.99974692 -0.0042352951
37583.740428844 0.99670017 -0.019447282 -3.2951516e-006 2.9392846e-005 1.3408775e-005 0.00048763704
-1.0135373e-005 2.2245411e-005 -0.65668142 -0.73628956 -2.1363151e-006 -1.7361132e-006
8.823672e-006 0.00049613672 -1.4888195e-005 2.0189453e-005 0.99963349 -0.004453687
39810.71705535 0.99672598 -0.020542091 1.4157865e-005 3.6455323e-005 1.5841155e-005 0.00050757802
-1.7689612e-005 4.9416376e-005 -0.68699276 -0.70819533 -6.4801188e-006 1.1021473e-005
2.8661891e-006 0.0005284269 -2.5609455e-005 5.0439357e-006 0.9995802 -0.004785201
42169.650342858 0.99669534 -0.021572057 1.0659706e-005 2.623619e-005 2.1434037e-006 0.00054647343
-1.8990204e-005 4.9710012e-005 -0.71506214 -0.67994815 -1.2468192e-006 -1.1889757e-006
2.5103254e-005 0.00055710413 -1.1421568e-005 9.7116863e-006 0.99953473 -0.0049411952
44668.359215096 0.99682462 -0.023020431 2.5111435e-006 2.5135998e-005 2.0722548e-006 0.00059106923
-9.1545389e-006 2.6790523e-005 -0.74083543 -0.65169924 -7.9953061e-006 -1.3739112e-006
9.1877137e-006 0.0005944547 -1.0154104e-005 1.5909827e-005 0.9994334 -0.0053572687
47315.125896148 0.9968524 -0.024332745 -2.4042027e-005 6.0078353e-005 6.3392135e-006 0.00060049631
-6.7153078e-006 3.7789192e-005 -0.764579 -0.62379068 -5.2938044e-006 2.1283095e-005
4.1588141e-006 0.00061535585 -4.1197222e-006 2.4462468e-005 0.99957728 -0.0053833146
50118.723362727 0.99667937 -0.02575116 -4.1539548e-005 2.2083828e-005 1.1016717e-005 0.00063971092
-1.6489366e-005 4.2834865e-005 -0.78626412 -0.59624809 -8.1167054e-006 1.3533772e-005
3.0854706e-005 0.00065589102 7.1920153e-006 -6.7875144e-006 0.99953586 -0.005590016
53088.444423099 0.99670839 -0.027405487 -1.4227065e-005 4.3349082e-005 3.1149601e-005 0.00070749485
-1.5683152e-005 4.6766367e-005 -0.80613065 -0.56939685 -7.0845663e-006 1.3853874e-005
2.3432405e-005 0.00069443602 -1.5408783e-005 1.2572354e-005 0.99965018 -0.0060446449
56234.132519035 0.9965573 -0.028949954 -1.2276013e-005 5.4825192e-005 2.6220445e-005 0.00074839697
-1.9031591e-005 5.0548671e-005 -0.82412797 -0.54311454 -7.336319e-006 1.1612108e-005
-4.4891071e-006 0.00074339501 -2.2094655e-006 4.1168596e-006 0.99947488 -0.0063919085
59566.214352901 0.99655414 -0.030699046 -3.0586227e-005 2.5846424e-005 1.5992318e-005 0.00078451255
-1.5917805e-005 5.3925509e-005 -0.84053385 -0.51751214 6.1292458e-006 1.9435589e-005
2.6903796e-005 0.00078518229 -7.0152455e-006 3.0575706e-005 0.99921852 -0.0065211756
63095.734448019 0.99633992 -0.032540265 2.0148669e-005 5.0400857e-005 -2.7186306e-006 0.00081686827
-2.0686053e-005 5.7578512e-005 -0.85540074 -0.49268404 -2.3459836e-005 1.8463963e-005
1.7290382e-005 0.00084173714 -1.5459649e-005 8.1789913e-006 0.99932927 -0.0069562923
66834.391756861 0.99628502 -0.03434366 -6.1307564e-006 7.2929113e-005 3.3874545e-005 0.00087871955
-1.4882338e-005 5.7449939e-005 -0.86882788 -0.4685578 -2.2769484e-006 1.9597517e-005
2.4643303e-005 0.00090136932 1.2192303e-005 9.1659658e-006 0.9994514 -0.0073196697
70794.578438414 0.99623531 -0.036299229 -2.3944458e-005 7.190786e-005 3.6123158e-005 0.00093684153
-1.3036532e-005 7.6762801e-005 -0.88110459 -0.44550276 4.7842241e-006 1.7177994e-005
4.0147319e-005 0.00091316795 -3.6922491e-005 2.4778223e-005 0.9992193 -0.0076825959
74989.420933246 0.99621707 -0.038589399 -4.8285769e-006 8.1330858e-005 5.5636774e-005 0.00099533272
-1.8550867e-005 7.4590957e-005 -0.8921352 -0.4230831 -7.1838222e-006 2.7382157e-005
3.4390439e-005 0.00098069874 -8.6033642e-006 6.2656336e-006 0.99922425 -0.0079346662
79432.823472428 0.99609083 -0.040702302 -4.4485992e-006 4.4444329e-005 6.7621957e-005 0.0010402917
-1.7847686e-005 8.5471736e-005 -0.90212327 -0.40147439 -1.9554036e-006 2.6765283e-005
4.2913303e-005 0.0010522096 -1.6990163e-005 3.3641198e-005 0.99907166 -0.0084881494
84139.514164519 0.99601078 -0.043060474 1.3378723e-005 5.8413989e-005 7.3114556e-005 0.0011140105
-1.6603361e-005 7.9006066e-005 -0.91098988 -0.38095671 -1.4169856e-005 4.5312667e-005
4.5352357e-005 0.00110176 1.1276907e-006 4.5006691e-006 0.99904537 -0.0088214679
89125.093813375 0.99578816 -0.045713004 -2.8671751e-005 7.287164e-005 6.5629996e-005 0.0011472383
-1.1427424e-005 7.5039854e-005 -0.91920871 -0.3612529 6.5203667e-006 2.2499333e-005
5.5383185e-005 0.0011895979 1.0576555e-005 3.7550777e-005 0.9991709 -0.0093933567
94406.087628592 0.99577349 -0.048454273 -8.0597047e-006 4.4671197e-005 5.8307018e-005 0.0012283139
-1.6168224e-005 9.163942e-005 -0.92651379 -0.34242055 -7.3334827e-006 3.2798154e-005
4.8308648e-005 0.0012613644 1.1799079e-005 2.8888033e-005 0.99905169 -0.0098112253
100000 0.99557829 -0.051205434 -8.7853387e-006 7.0343689e-005 7.8908583e-005 0.0013113756
-1.5153238e-005 8.8363697e-005 -0.93299782 -0.32433569 2.310969e-006 3.1492935e-005
8.4985317e-005 0.0013238364 -1.7369062e-005 3.7404367e-005 0.9989593 -0.010358447
105925.37251773 0.99548906 -0.054329213 -6.2516465e-006 7.7230769e-005 7.7338875e-005 0.0013766623
-3.0473052e-006 9.7451906e-005 -0.93894857 -0.3072249 -8.0191357e-006 3.856581e-005
6.7415502e-005 0.0014112205 -3.6637943e-005 3.8200888e-005 0.99884152 -0.010840524
112201.8454302 0.99538457 -0.057481717 -2.276444e-005 9.3315299e-005 6.2435829e-005 0.0014559675
-1.8632245e-005 0.00010799359 -0.94417477 -0.29084194 -1.322143e-005 4.0156447e-005
0.00010155773 0.0014573847 -1.5451589e-005 4.1862542e-005 0.9989903 -0.011561755
118850.2227437 0.99516249 -0.060812034 -2.4296251e-005 9.3501862e-005 8.7386572e-005 0.0015099634
-1.9064535e-005 0.00012071637 -0.94891703 -0.27523842 -4.290481e-007 3.441513e-005
9.6404052e-005 0.0015647808 1.111213e-005 5.7626599e-005 0.99912184 -0.012136159
125892.54117942 0.99486381 -0.064446591 -1.9316578e-006 8.5484717e-005 0.0001007262 0.0016553137
-2.1165441e-005 0.00011733552 -0.95318305 -0.26041877 -4.1464057e-007 3.0625102e-005
9.4325107e-005 0.0016463764 -1.7939934e-005 2.1271473e-005 0.99915397 -0.012820394
133352.14321633 0.99463409 -0.06827464 -6.1679253e-005 0.00010588609 0.00011614056 0.0017509009
-2.5974286e-005 0.00013360509 -0.95701075 -0.24627663 3.3955434e-006 3.8765433e-005
9.038901e-005 0.0017618228 -3.0086725e-005 3.3792105e-005 0.99908888 -0.013567918
141253.75446228 0.99433017 -0.072486326 -7.3584456e-006 0.00010253693 0.00010610875 0.0018181929
-8.4941094e-006 0.00012151682 -0.96036106 -0.23291758 -1.695028e-005 4.2770564e-005
0.00011259005 0.0018607484 -8.4351805e-006 2.2093254e-005 0.99903512 -0.014303338
149623.56560944 0.99390137 -0.076682985 -5.1487846e-006 0.00016096857 0.00012569917 0.0019421115
-8.418765e-006 0.00013676671 -0.96351898 -0.22015318 -2.2687564e-006 4.1360789e-005
0.00013678154 0.0019254065 9.1962738e-006 4.6818826e-005 0.99884135 -0.015268824
158489.31924611 0.9934963 -0.081061065 -1.9418972e-005 0.00014686077 0.00015962147 0.0020459597
-1.3056123e-005 0.00014570287 -0.96622682 -0.20809521 -5.7418702e-006 4.6427162e-005
0.0001389119 0.0020756838 -2.4142868e-005 4.7521255e-005 0.99886292 -0.01603426
167880.40181226 0.99307495 -0.08602085 -4.8842649e-006 0.00013139499 0.00015888976 0.0021737013
-2.9911946e-005 0.00016308714 -0.9686749 -0.19652493 -2.1840019e-006 5.953994e-005
0.00016327134 0.0021853149 -1.2515345e-005 6.8878217e-005 0.99899805 -0.016998719
177827.94100389 0.99270988 -0.091140881 -2.2599137e-005 0.00014338968 0.00017289999 0.0023041221
-2.5828975e-005 0.00016542278 -0.97031593 -0.18460831 2.2808424e-006 5.2461855e-005
0.00017145676 0.0023116404 -5.8996324e-007 6.4375803e-005 0.99880362 -0.017891323
188364.90894898 0.99196559 -0.096303359 -2.0329016e-005 0.00013678323 0.00022357929 0.0024167623
-5.9392082e-006 0.00017330053 -0.97276735 -0.17586181 -1.0302244e-005 6.7295397e-005
0.00019670752 0.0024343154 1.0194999e-005 5.3555232e-005 0.99864429 -0.019004691
199526.23149689 0.99140954 -0.10215224 -1.9638075e-005 0.00014739901 0.0002331545 0.0025707816
-2.4780989e-005 0.00018956183 -0.97459787 -0.16598253 -1.7452294e-005 5.8333804e-005
0.00025452656 0.0025970656 2.6458347e-006 2.5017554e-005 0.99864286 -0.020156339
211348.90398366 0.99084669 -0.10834089 -1.4739089e-005 0.00014117354 0.00025405837 0.0027098227
-1.8241994e-005 0.00020780477 -0.97623199 -0.15680782 -1.3217001e-005 6.2589024e-005
0.00025105078 0.0027280946 4.6962587e-006 6.2364401e-005 0.9984718 -0.021065339
223872.11385683 0.99004376 -0.11436646 3.6601909e-006 0.00018137114 0.00027350348 0.002887554
-4.8070392e-006 0.0002059145 -0.9775821 -0.14802299 -3.0483723e-006 7.9933699e-005
0.00029662595 0.002891625 -7.2287216e-006 7.844394e-005 0.99861032 -0.022276487
237137.37056617 0.98934895 -0.12100423 -2.2851013e-005 0.00018152113 0.00031877778 0.003021148
-2.5263238e-005 0.00020940923 -0.97883528 -0.13966069 2.0971727e-006 7.5267264e-005
0.0003138688 0.0030634522 -1.6775009e-005 7.0092974e-005 0.9984045 -0.02374566
251188.64315096 0.98857462 -0.12830487 -2.5741845e-005 0.00018809515 0.00037037008 0.0031889305
-2.8057248e-005 0.00023817082 -0.9800477 -0.13176811 1.0877901e-006 7.7388082e-005
0.00035149656 0.0032568437 -1.0042108e-005 6.233609e-005 0.99847013 -0.025244914
266072.50597988 0.98733348 -0.13584128 -1.8361407e-005 0.00020781996 0.00037734857 0.0034169303
-9.6913209e-006 0.00024508056 -0.98098582 -0.12433398 -1.0374024e-005 8.9767484e-005
0.00039042303 0.0034192705 -3.2276959e-005 0.00010126389 0.99821514 -0.02642603
281838.29312645 0.98619807 -0.14390412 2.9124758e-006 0.0002205949 0.00044841593 0.0035838878
-1.8615212e-005 0.00026543075 -0.98188841 -0.11736336 4.0993827e-006 9.3261246e-005
0.00043420729 0.0035963126 1.8548559e-005 7.2743904e-005 0.99823761 -0.02796847
298538.2618918 0.98489779 -0.15223122 -1.4864447e-005 0.00021861575 0.00046485956 0.0038094805
-2.7384538e-005 0.00029248802 -0.98266864 -0.11062714 -2.1940934e-007 8.1439292e-005
0.00046424323 0.0038296841 -1.8172186e-005 9.8068813e-005 0.9979279 -0.029493706
316227.76601684 0.98349762 -0.16116647 -1.2819152e-005 0.00024457686 0.00055189058 0.0039920853
-9.4165098e-006 0.00029900143 -0.98333722 -0.10436322 -8.187626e-006 9.3107672e-005
0.00052134541 0.0040175305 -2.3867167e-005 9.1554801e-005 0.99786848 -0.031112714
334965.43915783 0.98171324 -0.1704751 -2.7290616e-005 0.00025086044 0.00058546092 0.0042413264
-2.3926006e-005 0.00031262927 -0.98413956 -0.098531082 -3.0958486e-006 9.3096845e-005
0.00057081232 0.0042327405 -5.4266307e-006 0.00011940464 0.99770278 -0.033073064
354813.38923358 0.98002034 -0.180351 -1.2411529e-005 0.0002546786 0.00065081473 0.0044288686
-1.793433e-005 0.0003292904 -0.98467278 -0.092777111 -1.8685687e-005 0.00011799143
0.00064940692 0.0045064851 -1.1713447e-005 9.382415e-005 0.99768919 -0.034863122
375837.40428844 0.97783744 -0.19077522 -1.1704629e-005 0.00029325165 0.00072381651 0.0046622185
-1.5514204e-005 0.00034647636 -0.985111 -0.087308362 -5.1916941e-006 0.00011281936
0.00069451943 0.0047573522 -1.7153283e-005 9.6558862e-005 0.99747485 -0.036702089
398107.1705535 0.97567368 -0.20186602 -2.5628744e-005 0.00032029589 0.00078889326 0.0049459045
-2.8129369e-005 0.00038166507 -0.98563749 -0.082100943 -9.6973208e-006 0.0001254997
0.00079012191 0.0050185923 -2.3001794e-005 0.00013275814 0.99736607 -0.038996134
421696.50342858 0.97302163 -0.21352932 -3.0045121e-005 0.00033232555 0.00088431791 0.0052302512
-1.1532619e-005 0.00039502885 -0.98577988 -0.076930545 -8.0897762e-006 0.00013624957
0.00088449183 0.0052709808 -1.782427e-005 0.00011665317 0.99714977 -0.041184705
446683.59215096 0.97026497 -0.22597179 -2.2026801e-005 0.00035265478 0.00096012541 0.0055309357
-2.1437379e-005 0.00041497906 -0.98591262 -0.073290378 1.621843e-005 0.00014157222
0.00097202021 0.0055687465 -8.4992471e-006 0.00014728753 0.99678582 -0.043324258
473151.25896148 0.96693414 -0.23877525 -2.4338538e-005 0.00035577218 0.0010900397 0.0058261366
-2.2280092e-005 0.00045918312 -0.98658401 -0.069035575 -4.0600435e-006 0.00015188994
0.0010718735 0.0058804629 -2.7302185e-005 0.00013075814 0.99673456 -0.045890745
501187.23362727 0.96325296 -0.25237653 -2.1375761e-005 0.00039315358 0.0011809489 0.0061290977
-1.8769577e-005 0.00048295126 -0.98695648 -0.064901717 5.6852502e-007 0.00014617491
0.0011782773 0.0061730985 -2.5395877e-005 0.00015612099 0.99660587 -0.048439499
530884.44423099 0.95924431 -0.26679507 -3.3712902e-005 0.000414679 0.0013154462 0.0064833052
-7.7793493e-006 0.00049424783 -0.98726231 -0.0609111 -8.1879916e-006 0.00015982667
0.0012980412 0.0065018013 -1.7793869e-005 0.00016685111 0.99643201 -0.051322609
562341.32519035 0.95492506 -0.28192744 -5.4358374e-005 0.00044853066 0.0014169129 0.0068207625
-2.018242e-005 0.00054986338 -0.98759252 -0.057176176 -2.9365551e-006 0.0001709139
0.0014363062 0.006883298 -2.0965042e-006 0.00018132027 0.99600244 -0.05427774
595662.14352901 0.95010465 -0.29759574 -2.5128722e-005 0.00045744178 0.0015864181 0.0071784938
-2.6785947e-005 0.00055721571 -0.98782384 -0.05360711 -6.6033563e-006 0.00017912948
0.0015703863 0.0072633885 -1.6621891e-005 0.0001918269 0.99578989 -0.057291415
630957.34448019 0.94466043 -0.31426319 -3.4358774e-005 0.00049656467 0.0017561621 0.0075487113
-2.5628915e-005 0.00059663923 -0.98797965 -0.050310913 5.2211258e-006 0.00019627306
0.0017494586 0.0076204734 -1.0170507e-005 0.0001907972 0.9956373 -0.060626965
668343.91756861 0.93844163 -0.33184597 -3.8286449e-005 0.00052050664 0.0019356152 0.0079483679
-2.0987178e-005 0.00064266473 -0.98812968 -0.047198143 -6.605888e-007 0.00020429387
