!Keysight Technologies,E5080A,MY55100144,A.11.70.03
!Date: Monday, November 13, 2017 17:23:46
!Correction: S11(Full 3 Port(1,2,3)) 
!S12(Full 3 Port(1,2,3)) 
!S13(Full 3 Port(1,2,3)) 
!S21(Full 3 Port(1,2,3)) 
!S22(Full 3 Port(1,2,3)) 
!S23(Full 3 Port(1,2,3)) 
!S31(Full 3 Port(1,2,3)) 
!S32(Full 3 Port(1,2,3)) 
!S33(Full 3 Port(1,2,3)) 
!S3P File: Measurements: <S11,S12,S13>,
!<S21,S22,S23>,
!<S31,S32,S33>:Log Frequency Sweep
# Hz S  RI   R 50
10000 0.99682695 -0.0016644067 -8.6325556e-008 0.00035871088 1.1516002e-005 0.00015503625
4.411359e-006 0.00037793219 0.99890333 -0.0037008652 3.1030279e-006 0.00069538731
-1.3153891e-005 0.00015118657 8.7811914e-006 0.00071467261 0.9998436 -0.0023641083
10592.537251773 0.99702001 -0.0017477317 1.2873834e-005 0.00039472766 -9.0793874e-006 0.00016133151
-5.7250013e-006 0.00038056434 0.99867862 -0.0038011374 2.569766e-005 0.00075588137
6.9311051e-007 0.00017664031 8.9063797e-006 0.0007415252 0.99993771 -0.0023204393
11220.18454302 0.99684829 -0.0020259216 -1.4912066e-005 0.00040449796 -3.5601197e-006 0.00018033857
-2.1101756e-005 0.000392966 0.99885243 -0.0041349391 1.4397798e-006 0.00078912673
-6.3430712e-006 0.00016613471 1.3164174e-005 0.00079860433 1.0000879 -0.0023334902
11885.02227437 0.99702513 -0.0018761595 7.7083341e-006 0.00043198501 2.0508527e-005 0.00018555437
2.8575039e-006 0.0004355651 0.99877447 -0.0040893406 5.4033858e-006 0.00083551381
1.4065936e-005 0.00020273426 1.4952653e-005 0.00086628005 1.0000833 -0.0023490228
12589.254117942 0.99711668 -0.0020528028 2.0787547e-005 0.00045656497 1.9996727e-005 0.00020102103
2.095586e-005 0.00045899188 0.99874735 -0.0043460275 2.7265685e-006 0.00087965722
2.0034538e-006 0.00020335286 3.3334396e-005 0.0008902541 1.0002723 -0.0025885284
13335.214321633 0.99715906 -0.0021172811 -1.4161812e-006 0.00045714329 -3.4379204e-006 0.00023677504
2.5839365e-006 0.00047889326 0.99902296 -0.0045425757 -1.8886536e-006 0.00095162727
-2.1947353e-006 0.00022419375 2.6325773e-005 0.0009514456 0.9999029 -0.002419733
14125.375446228 0.99713635 -0.0025157661 -7.7453533e-006 0.00050110131 -1.4246431e-006 0.00022810695
9.5173918e-006 0.00048542971 0.99890482 -0.0047813463 2.0284146e-005 0.00098333845
9.5455371e-006 0.0002326348 1.8022336e-005 0.00099370093 0.99999994 -0.0026352822
14962.356560944 0.99694872 -0.0024805546 -1.0270783e-005 0.00052559568 5.9574108e-006 0.00024647923
2.1896542e-005 0.00053749769 0.99899775 -0.0047896183 5.8827336e-006 0.0010645136
4.0421974e-006 0.00024303795 9.553416e-006 0.001049844 1.0001305 -0.0027699927
15848.931924611 0.99710745 -0.0028067937 -2.5166042e-005 0.00055715401 -2.7963388e-006 0.00024293932
-6.8155754e-007 0.00056282984 0.99892628 -0.0050113527 2.0618529e-005 0.001131437
-2.1842523e-005 0.00025769058 2.0182777e-005 0.0011390627 1.0001526 -0.0027633049
16788.040181226 0.99706578 -0.0029147202 -6.8114791e-006 0.0006008257 -1.6913496e-005 0.0002593091
-2.7742853e-006 0.00059258996 0.99881989 -0.0053558145 7.1273921e-006 0.0011996268
5.514932e-007 0.00026013234 -7.8818484e-006 0.0011987191 1.0000407 -0.0026650352
17782.794100389 0.99711698 -0.0029273909 3.9823849e-006 0.00062296813 3.0457077e-006 0.00027994931
5.2642936e-006 0.00064716855 0.9990229 -0.0056499327 9.6769172e-006 0.0012399481
-1.607705e-006 0.00028495956 -1.5063309e-005 0.0012814961 1.0000353 -0.0027633747
18836.490894898 0.99697763 -0.0032054484 3.6877288e-006 0.00066534791 -5.8708201e-007 0.00029807078
3.0787648e-006 0.00068355724 0.9991082 -0.0058369115 1.5356562e-005 0.0013227904
-2.1360086e-006 0.00031731452 1.1268561e-005 0.0013288065 0.99996579 -0.0028681322
19952.623149689 0.99695176 -0.0033996329 3.4314322e-005 0.00070984254 1.385294e-005 0.00034749319
-4.1727826e-006 0.00070270832 0.99909681 -0.0061768759 1.3347372e-005 0.0014177419
9.7715019e-006 0.00032124593 -9.3669469e-006 0.0014225387 1.0000012 -0.0028818815
21134.890398366 0.99709022 -0.0035825956 2.0295984e-005 0.00076593593 -7.9042599e-007 0.00033594292
1.728827e-005 0.00076895551 0.99910694 -0.0064322245 2.5494457e-005 0.0015195527
-2.4800227e-005 0.00034240534 2.1987247e-005 0.0015114673 0.99976349 -0.0030550561
22387.211385683 0.99698579 -0.0037061921 -1.9514398e-006 0.00080027804 9.4589195e-006 0.00035787665
7.2050739e-006 0.00080923014 0.99909681 -0.0067421529 3.1818352e-005 0.0015903873
5.2660803e-006 0.00036821773 1.7336115e-005 0.0015897444 0.99993891 -0.00325848
23713.737056617 0.99711269 -0.0040651113 -7.5133089e-006 0.00085110083 -5.4482844e-006 0.00037446278
-3.3286906e-006 0.00083722814 0.99930322 -0.0071539166 2.3937298e-005 0.0016775524
-3.0620827e-006 0.00036676036 2.0554658e-005 0.0016963347 0.99980199 -0.0031625424
25118.864315096 0.99719155 -0.0041973824 5.265189e-006 0.00089614635 2.1750242e-005 0.00038124254
8.6956543e-006 0.00089452649 0.99909651 -0.0075317533 2.3766994e-005 0.0017906962
3.5550283e-006 0.00040713107 3.7795657e-005 0.0017915003 0.99987954 -0.0033051262
26607.250597988 0.99715042 -0.0043236869 1.1979935e-005 0.00095343357 1.5154082e-005 0.00042548121
-5.9019026e-006 0.00094688399 0.99906015 -0.0080168908 3.8130271e-005 0.0018911867
-1.8123048e-006 0.00043797665 2.5905318e-005 0.0018942865 1.0000095 -0.0034979321
28183.829312645 0.99704367 -0.0048976596 -1.1545123e-006 0.0010112906 -2.9351331e-006 0.00046167773
1.0352012e-005 0.0010082674 0.99915409 -0.0084023559 3.4081138e-005 0.0020254455
3.0824842e-006 0.00046394291 9.347238e-007 0.0020022858 0.99990398 -0.0036468494
29853.82618918 0.99719614 -0.0050011799 8.0186246e-006 0.0010731567 -5.3197732e-006 0.00047374264
5.9510335e-006 0.0010682631 0.99904251 -0.008746231 2.8819135e-005 0.0021283575
2.1111098e-005 0.00046978489 4.6227284e-005 0.0021264039 0.99982774 -0.0036585934
31622.776601684 0.99709129 -0.005395228 6.2181621e-006 0.0011237002 1.8122786e-005 0.00050723698
-1.211629e-007 0.0011207561 0.99924809 -0.0093583027 3.085762e-005 0.0022554451
-4.5121899e-007 0.00050068862 3.6796733e-005 0.00223994 0.99988419 -0.0040931618
33496.543915783 0.99709588 -0.0055144508 1.2774256e-005 0.0012006757 -8.05939e-006 0.00053223647
-1.1542078e-005 0.0012039845 0.99905765 -0.0099573825 3.9140785e-005 0.0023877132
3.3073302e-006 0.00054683519 2.0361316e-005 0.0023674357 0.99983197 -0.0042327023
35481.338923358 0.99695903 -0.005891222 -2.7045775e-005 0.0012734733 -9.2278124e-006 0.00055714202
1.6572252e-005 0.0012715129 0.99918532 -0.010477336 4.9369861e-005 0.0025197412
2.6987587e-005 0.00056964671 3.0762421e-005 0.0025157761 0.99977249 -0.0042576431
37583.740428844 0.99703926 -0.0062829149 8.064786e-006 0.0013524075 5.9736376e-006 0.00063013844
2.1852818e-005 0.0013488138 0.99922442 -0.01108669 5.3181593e-005 0.0026749377
1.1041943e-005 0.00059759733 3.0821731e-005 0.0026518847 0.99965894 -0.0045298631
39810.71705535 0.99693763 -0.0066465344 2.0005496e-005 0.0014059392 -1.1871564e-006 0.00063842069
1.191319e-005 0.0014124195 0.99922359 -0.011773127 4.6721529e-005 0.0028105511
1.6296915e-006 0.00064465514 4.9298415e-005 0.0028264853 0.99965006 -0.0047509097
42169.650342858 0.99706751 -0.0071482975 4.6100035e-006 0.0015085426 2.2442255e-005 0.00067935459
2.1513551e-005 0.0014999913 0.99909395 -0.01242401 5.1553547e-005 0.0030072965
1.645773e-007 0.00067207566 5.56659e-005 0.0029944561 0.99958754 -0.0050134519
44668.359215096 0.99711365 -0.0073808213 1.6742644e-006 0.0015750009 3.7365253e-006 0.00071075826
1.0388554e-005 0.0015947585 0.99919939 -0.013151214 6.7637477e-005 0.0031548403
2.0325982e-005 0.00071930682 4.2058837e-005 0.0031653771 0.99953288 -0.0053348597
47315.125896148 0.99709147 -0.0079220152 1.9035988e-005 0.0017003333 7.445818e-006 0.00075693929
1.2140652e-005 0.0016714608 0.99898911 -0.013933429 8.5885462e-005 0.003354935
4.0525319e-006 0.00077441422 5.62122e-005 0.0033632156 0.99955666 -0.0053808014
50118.723362727 0.9971168 -0.0083685257 3.4580018e-005 0.0017957931 -2.5059121e-006 0.00082703657
1.1765825e-005 0.0017935516 0.99905843 -0.014848969 6.3902931e-005 0.0035433513
-3.7741561e-006 0.0008281208 7.6696138e-005 0.0035500454 0.99965048 -0.0056352238
53088.444423099 0.99709427 -0.0087926323 2.309101e-005 0.0019120413 3.1564981e-005 0.00085390016
2.5233288e-005 0.0018860812 0.99888802 -0.01552468 9.3498915e-005 0.0037779044
-1.4766596e-006 0.00086483895 7.0110706e-005 0.003750934 0.99954569 -0.0059394464
56234.132519035 0.99703014 -0.009478041 1.2977582e-005 0.0020114428 -1.0512226e-005 0.00091087475
1.8467343e-005 0.0020132572 0.9989447 -0.016798178 0.00010158105 0.0039766165
2.3941434e-006 0.00090208708 9.8365046e-005 0.0039709527 0.99950403 -0.0063209906
59566.214352901 0.99693358 -0.0099566709 3.838032e-005 0.0021234264 2.0193129e-005 0.00096691708
2.3103143e-005 0.0021377627 0.99883556 -0.017603684 0.00010583472 0.0042168801
1.9353171e-005 0.0009504417 9.6738353e-005 0.0042178631 0.99917412 -0.0065099271
63095.734448019 0.9970758 -0.010504917 1.1122786e-005 0.0022355733 3.1656527e-005 0.001007291
4.3823435e-005 0.0022550847 0.99880129 -0.018610002 0.00012338966 0.0044564954
-1.4192111e-006 0.0010047182 0.00012190695 0.0044715069 0.99943548 -0.006929338
66834.391756861 0.99700487 -0.010956632 3.400867e-005 0.0024211926 4.2532779e-006 0.0010818258
3.3599081e-005 0.0023937314 0.99870801 -0.01979991 0.0001311221 0.0047398624
4.9841428e-006 0.0010908036 0.00010957866 0.004739013 0.9994756 -0.0072848499
70794.578438414 0.99685234 -0.01167355 4.3790951e-005 0.0025279047 2.2067963e-005 0.0011245784
4.8381138e-005 0.0025262737 0.9985944 -0.02098988 0.0001249003 0.0050114193
1.49974e-005 0.0011560302 0.00015104387 0.0049852962 0.99919963 -0.0077890637
74989.420933246 0.99690884 -0.012403487 9.958283e-006 0.0026794635 1.2801262e-005 0.001198417
3.582333e-005 0.0026805408 0.9987027 -0.021895315 0.00016926104 0.0053034537
1.0062182e-005 0.0012118171 0.000168085 0.0052951225 0.99915403 -0.0079518547
79432.823472428 0.99694008 -0.013129887 5.9672624e-005 0.0028448612 2.4794697e-005 0.0012943376
5.1512448e-005 0.0028277414 0.99867153 -0.023191791 0.00017934413 0.0056108618
2.312956e-005 0.001287046 0.00017207499 0.0056158528 0.99907714 -0.0086002331
84139.514164519 0.9968617 -0.013789299 4.4445165e-005 0.0030216605 2.7046142e-005 0.0013538328
5.9678805e-005 0.0029693064 0.9985432 -0.024436139 0.00019810876 0.0059259823
2.7470103e-005 0.0013460447 0.00020150798 0.005963698 0.99908352 -0.0088179652
89125.093813375 0.99692625 -0.014562789 3.2303549e-005 0.0031872503 3.2013475e-005 0.0014311622
7.7131866e-005 0.0031636669 0.99858069 -0.025891194 0.00020951731 0.0062938146
4.382887e-005 0.0014404888 0.000209989 0.0063097831 0.99912447 -0.009370463
94406.087628592 0.99704379 -0.015610243 4.5386696e-005 0.0033759403 4.928566e-005 0.0014981542
6.3382788e-005 0.0033826029 0.99837238 -0.027363792 0.00023026214 0.0066863536
4.4771365e-005 0.0015109966 0.00023187148 0.0066628889 0.99916279 -0.0097657349
100000 0.99699354 -0.016264698 5.5644672e-005 0.0035552576 3.902446e-005 0.0015890681
5.0684139e-005 0.0035506429 0.99837023 -0.029022181 0.00024177993 0.007041771
3.9767139e-005 0.0016128499 0.00024885772 0.007074411 0.99904662 -0.010327309
105925.37251773 0.99703294 -0.017360801 6.9968126e-005 0.0037728797 4.5773337e-005 0.0016817339
8.7252818e-005 0.0037788469 0.99843526 -0.030743392 0.00028763092 0.0074687828
5.8638838e-005 0.001687575 0.00029805087 0.007485833 0.99897921 -0.010894345
112201.8454302 0.9970423 -0.018490754 8.6374239e-005 0.0040358421 5.0632611e-005 0.0018162448
8.7596964e-005 0.0039941804 0.99829662 -0.032478493 0.00032001338 0.0079043284
2.6630612e-005 0.0017935814 0.00032512023 0.0079113049 0.99905306 -0.011607987
118850.2227437 0.99683243 -0.019489087 9.6250806e-005 0.0042525749 1.9812353e-005 0.0019174275
7.318244e-005 0.004262581 0.99832255 -0.034341294 0.00038245978 0.0083657131
5.313785e-005 0.0018866799 0.00037521077 0.0083860373 0.99910641 -0.011951431
125892.54117942 0.99708849 -0.020590328 0.00010989074 0.0045003658 3.5735709e-005 0.0020182384
0.00011185263 0.0045236936 0.99826306 -0.036477685 0.00039267342 0.0088831773
4.8496611e-005 0.0020246489 0.0004018133 0.0088763293 0.9991284 -0.012816153
133352.14321633 0.99706084 -0.02180326 0.00012456765 0.0047566188 5.6007615e-005 0.0021165325
0.00011845003 0.0047776336 0.99818254 -0.038668003 0.00044599216 0.0093691535
5.4420201e-005 0.0021394696 0.00043055808 0.0093853781 0.99896538 -0.01347149
141253.75446228 0.99702173 -0.02326829 0.00011015835 0.0050597442 7.3874813e-005 0.0022715209
0.00011219929 0.0050291712 0.99793458 -0.040888358 0.00050786202 0.0099274646
7.2434101e-005 0.0022483375 0.00048421588 0.0098962262 0.99902397 -0.014434042
149623.56560944 0.99682349 -0.02456345 0.00011584867 0.0053334823 7.2209245e-005 0.0024026253
0.0001506275 0.0053556929 0.99782568 -0.043441925 0.00058841228 0.010486985
7.921322e-005 0.0024008255 0.00054971827 0.010513064 0.99890232 -0.01514285
158489.31924611 0.99687922 -0.025974864 0.00016199441 0.0056573683 8.4183353e-005 0.0025114398
0.00013434485 0.0056841327 0.99776459 -0.045747858 0.0006199819 0.011109528
8.4191364e-005 0.0025338498 0.00061364297 0.011111409 0.9990195 -0.016045243
167880.40181226 0.99660015 -0.027614811 0.00017970048 0.0060315072 0.00010036767 0.0026740886
0.00017111201 0.0059855753 0.99741173 -0.048591357 0.00068431668 0.011775211
9.30389e-005 0.0026823801 0.00067443878 0.011740545 0.99900901 -0.016882045
177827.94100389 0.99663258 -0.029163891 0.00019781501 0.0063413521 0.00010674338 0.0028311755
0.0002083563 0.0063599003 0.99729657 -0.051471323 0.00077083946 0.012459967
0.00010704935 0.0028384675 0.00075739628 0.012442981 0.99879706 -0.017889163
188364.90894898 0.99647379 -0.030899195 0.00022456871 0.0067400127 0.00010137751 0.0030185732
0.00021167414 0.0067004296 0.99702239 -0.054478176 0.00085354398 0.013163879
0.00011143244 0.003007639 0.00083474937 0.013155141 0.99860698 -0.018930806
199526.23149689 0.99644184 -0.032748234 0.00026621029 0.0071343053 0.00012691862 0.0031855386
0.00024005878 0.0071557253 0.99692541 -0.057600375 0.00093868008 0.013921641
0.00011216055 0.0031939012 0.00092895661 0.013937894 0.99846101 -0.02014455
211348.90398366 0.99641806 -0.0347794 0.00030024844 0.0075522009 0.00014830231 0.0033803999
0.00027801053 0.0075394455 0.99659657 -0.060979627 0.0010360597 0.014715597
0.00011257188 0.0033656966 0.0010418728 0.014716923 0.99849498 -0.021217564
223872.11385683 0.99632257 -0.036630291 0.00033554685 0.0079882545 0.00015832104 0.0035668639
0.00030351127 0.0079972213 0.99634171 -0.064661615 0.0011732712 0.015566857
0.0001522902 0.0035527172 0.0011552513 0.015568108 0.99842459 -0.022343239
237137.37056617 0.99617761 -0.038954172 0.00034080647 0.008482201 0.00014471507 0.0037437261
0.00036116919 0.0084739169 0.99601912 -0.068633385 0.0012681067 0.016456146
0.00015601297 0.0037702306 0.0012783997 0.016466253 0.99834824 -0.023546467
251188.64315096 0.99627119 -0.041149117 0.00039652828 0.008970812 0.00021957228 0.0039759767
0.00040882171 0.0089959307 0.99604326 -0.072530553 0.0013886016 0.0174288
0.00019113373 0.0039923079 0.0014053333 0.017403159 0.99825263 -0.025020109
266072.50597988 0.99597973 -0.043624099 0.00044091616 0.0095024956 0.00018784209 0.0042175981
0.00045750392 0.0095139062 0.99529243 -0.076802522 0.0015572346 0.018398995
0.00022045376 0.0041912589 0.0015491951 0.018405348 0.99806541 -0.026421757
281838.29312645 0.99587041 -0.046378918 0.00053035718 0.01010241 0.00021323393 0.0044450033
0.00051332585 0.01007969 0.99485105 -0.08112479 0.0016680148 0.019447232
0.00022602183 0.0044357781 0.0016966888 0.019449104 0.99800342 -0.027778719
298538.2618918 0.99554724 -0.049011689 0.00057206058 0.010686555 0.0002271913 0.0047066868
0.00058253389 0.010707045 0.99447262 -0.085896112 0.0018753418 0.020543857
0.00022679429 0.0047061546 0.0018695897 0.020548249 0.99782133 -0.029612098
316227.76601684 0.99546748 -0.051863305 0.00065493758 0.011316651 0.00025039157 0.0049671247
0.00064641971 0.011338535 0.99385971 -0.091097005 0.0020614911 0.021703092
0.0002557738 0.0049946331 0.002067876 0.021732247 0.99762821 -0.031236175
334965.43915783 0.99530429 -0.055035099 0.00072659075 0.011996628 0.00028692235 0.00524155
0.00072557671 0.012001834 0.99327868 -0.096262634 0.0022894403 0.022959678
0.00027677842 0.0052577872 0.0022816127 0.022932705 0.99733591 -0.032945391
354813.38923358 0.99506068 -0.05794052 0.00084826793 0.012694278 0.00031481293 0.005551978
0.00083413429 0.012715528 0.99268162 -0.10199094 0.0024944323 0.024248308
0.00028797323 0.0055692056 0.0025120627 0.024220107 0.9973613 -0.034826137
375837.40428844 0.99487698 -0.061543103 0.0009456132 0.013477239 0.00033729622 0.0058998731
0.00095024123 0.013468348 0.99195194 -0.10811665 0.0027604029 0.025621368
0.00033419277 0.0058669955 0.0027600597 0.025625058 0.99720961 -0.036770932
398107.1705535 0.99461442 -0.065123707 0.0010523519 0.014262126 0.00035603743 0.0061971257
0.0010645789 0.014247152 0.99102855 -0.11430524 0.0030048753 0.027058057
0.00036272369 0.0062054712 0.0030222496 0.027036183 0.99703479 -0.038929563
421696.50342858 0.99450338 -0.068981975 0.0011929688 0.015076041 0.00037537829 0.0065582283
0.0012021179 0.015115033 0.99020386 -0.12087947 0.0033020279 0.028568137
0.00038141475 0.0065541975 0.0033512143 0.028577114 0.99668491 -0.04109212
446683.59215096 0.99405599 -0.073154755 0.0013623999 0.016020145 0.00041417038 0.0069308961
0.0013800336 0.016001461 0.98918444 -0.12805058 0.0036635245 0.030170934
0.00040568953 0.0069214678 0.0036877817 0.0301807 0.99632287 -0.043296516
473151.25896148 0.99350172 -0.077399425 0.0015464311 0.016902952 0.00045169718 0.0073429672
0.001545232 0.016946299 0.98817009 -0.13547632 0.004015442 0.031873539
0.00046633426 0.0073305005 0.0040281061 0.031880878 0.99628389 -0.045800827
501187.23362727 0.99304712 -0.082001843 0.0017615822 0.017929954 0.00050338922 0.007777188
0.0017237532 0.017937131 0.98699778 -0.14337751 0.0044374755 0.033654217
0.00048533155 0.00773559 0.0044329506 0.033664249 0.99595368 -0.048346955
530884.44423099 0.99254882 -0.086786605 0.0019482002 0.018980073 0.00053033757 0.0081833927
0.0019627509 0.018990042 0.98571801 -0.15156242 0.0048696897 0.035537757
0.00050812779 0.0081896745 0.0048622615 0.035532072 0.99569231 -0.051069271
562341.32519035 0.99217844 -0.091855988 0.0021990156 0.020075833 0.00057413202 0.0086778942
0.0021989995 0.020078233 0.98399007 -0.16036701 0.0053459392 0.037525404
0.0005664124 0.0086730327 0.005351814 0.037547719 0.99534678 -0.054043468
595662.14352901 0.99178815 -0.097042874 0.0024957778 0.021293702 0.00059695932 0.00918952
0.0025121646 0.021271627 0.98225832 -0.16958322 0.0058598802 0.039599996
0.00060577976 0.0091591114 0.0058808331 0.039638616 0.99511856 -0.057084434
630957.34448019 0.99119216 -0.1026332 0.0028025117 0.022504421 0.00067825819 0.0097126253
0.0028397164 0.022501659 0.98030001 -0.17941554 0.0064449217 0.041824624
0.00065538124 0.0096970256 0.0064603253 0.041816939 0.99456638 -0.060471348
668343.91756861 0.99046314 -0.10886087 0.0031995694 0.023799639 0.00070346321 0.010221535
0.0031756235 0.023793379 0.97818154 -0.18993255 0.0070999172 0.044140231
0.00071294233 0.010268446 0.0070975134 0.044179235 0.9943493 -0.063698754
707945.78438414 0.98973584 -0.11518736 0.0035884024 0.025176834 0.00076057325 0.01084201
0.0035968635 0.025195787 0.97551745 -0.20087358 0.0078209145 0.046626136
0.00076163746 0.010873969 0.0078212339 0.046619728 0.99387461 -0.067296997
749894.20933246 0.98888153 -0.12211027 0.0040411842 0.02661871 0.00079515739 0.011456015
0.0040526479 0.026614936 0.9724859 -0.21215391 0.0085809855 0.04919919
0.00082672789 0.011457797 0.0086017577 0.049165145 0.99330842 -0.071154073
794328.23472428 0.98754805 -0.12938522 0.004550871 0.028155355 0.00086728897 0.012139582
0.0045764949 0.028138889 0.97034991 -0.22368234 0.0094466042 0.051899899
0.0008849118 0.01211858 0.0094679901 0.051948775 0.99282187 -0.075225919
841395.14164519 0.98669612 -0.1366864 0.0051141069 0.029741114 0.00093660608 0.012839572
0.0051254733 0.029744295 0.9672237 -0.23715073 0.010399488 0.054770593
