!Keysight Technologies,E5080A,MY55100144,A.11.70.03
!Date: Monday, November 13, 2017 17:24:16
!Correction: S11(Full 3 Port(1,2,3)) 
!S12(Full 3 Port(1,2,3)) 
!S13(Full 3 Port(1,2,3)) 
!S21(Full 3 Port(1,2,3)) 
!S22(Full 3 Port(1,2,3)) 
!S23(Full 3 Port(1,2,3)) 
!S31(Full 3 Port(1,2,3)) 
!S32(Full 3 Port(1,2,3)) 
!S33(Full 3 Port(1,2,3)) 
!S3P File: Measurements: <S11,S12,S13>,
!<S21,S22,S23>,
!<S31,S32,S33>:Log Frequency Sweep
# Hz S  RI   R 50
10000 0.99684131 -0.0023250813 -4.0647166e-005 0.00044604423 -1.7599203e-005 0.00018497594
5.122841e-005 0.0004024459 0.88066661 -0.018678704 -0.00010139372 0.00059466029
1.5222499e-005 0.00017141658 -6.3607527e-005 0.00066895637 0.99986535 -0.0024047049
10592.537251773 0.99698097 -0.002574289 -3.3208526e-005 0.00050393626 -1.0842874e-005 0.00015949596
6.6827437e-005 0.00043073512 0.88110948 -0.017792234 -9.9510107e-005 0.00065640308
7.6157962e-006 0.00015874108 -7.3293377e-005 0.00070452178 0.99995017 -0.00229339
11220.18454302 0.99700081 -0.0026577557 -3.9112427e-005 0.00051142951 2.4985484e-006 0.00016531182
5.3664073e-005 0.00045350648 0.881194 -0.017628541 -0.00011502723 0.00068658846
2.7377195e-007 0.0002012355 -3.826178e-005 0.00073225872 1.0001501 -0.0024025559
11885.02227437 0.99686939 -0.0028604728 -3.7376791e-005 0.00055427884 -1.2953591e-005 0.00019260605
5.1274583e-005 0.00045894747 0.88159609 -0.016939504 -0.0001047093 0.00073811039
5.8378696e-006 0.00018280854 -5.7086221e-005 0.00078818284 0.9999395 -0.0023549714
12589.254117942 0.99704307 -0.0029733458 -2.3982768e-005 0.00059910148 -1.7851391e-005 0.0002173781
5.2689724e-005 0.0004992797 0.8818363 -0.016432563 -9.6750286e-005 0.00075211294
-5.7174989e-006 0.00020588002 -4.6643712e-005 0.00084642536 1.0000333 -0.0024522264
13335.214321633 0.99721092 -0.0029516297 -2.0292006e-005 0.00063192571 1.286096e-005 0.00023550823
7.0068352e-005 0.00053701428 0.88228488 -0.01619453 -0.00010127508 0.00080659398
-1.8151521e-005 0.00019927278 -6.9374342e-005 0.00088931661 0.99997419 -0.0024443779
14125.375446228 0.99692923 -0.0033435011 -3.5307519e-005 0.00065769901 -1.2330036e-005 0.00019260478
7.5331802e-005 0.00056697079 0.8820641 -0.015892802 -9.6926677e-005 0.00087871705
-2.9075152e-006 0.00021283077 -5.9681708e-005 0.0009315245 1.0001751 -0.0024834631
14962.356560944 0.99692565 -0.0034715096 -2.5999516e-005 0.00071377424 -8.8791085e-006 0.00022444778
5.5801964e-005 0.00057979114 0.88237667 -0.015457722 -7.6258162e-005 0.00092508888
1.1399031e-005 0.00023192198 -4.9925427e-005 0.0010113122 1.0000049 -0.0026583176
15848.931924611 0.99709737 -0.0037350832 -6.0344104e-005 0.00073859317 -2.6586854e-006 0.00023493238
6.7884328e-005 0.00061649381 0.88244438 -0.015062839 -9.0419751e-005 0.00096008251
-3.2050591e-006 0.00024014058 -5.894509e-005 0.0010587295 1.0000021 -0.0025625995
16788.040181226 0.99688071 -0.0041111968 -5.550927e-005 0.00078737957 -6.8093359e-006 0.00026406208
5.1115978e-005 0.0006560199 0.88260972 -0.01500324 -9.500912e-005 0.0010266037
1.5056688e-006 0.00028124021 -5.8599438e-005 0.0011290364 1.0000591 -0.0029473738
17782.794100389 0.99697781 -0.004115229 -5.0588482e-005 0.00083693286 7.6920624e-006 0.00029290916
4.345956e-005 0.00068213837 0.88269842 -0.014735581 -8.5276559e-005 0.001087297
1.3580031e-005 0.00026911395 -3.7022681e-005 0.0011892443 0.99996251 -0.0027547816
18836.490894898 0.99707472 -0.0042816396 -2.757009e-005 0.00088908343 2.0193485e-005 0.00028194577
4.5996079e-005 0.00072059868 0.88292783 -0.014649407 -7.9973339e-005 0.0011664722
-1.0302068e-005 0.00030384515 -5.2348463e-005 0.0012513828 0.99987084 -0.0027689282
19952.623149689 0.99712265 -0.0047754105 -4.6228102e-005 0.00093820778 6.1458186e-006 0.00031138517
4.3285214e-005 0.00074805989 0.88313138 -0.014547033 -9.7360251e-005 0.0012380742
-3.4574373e-007 0.00030108908 -5.291856e-005 0.0013359663 0.99980509 -0.0028515477
21134.890398366 0.99712497 -0.004975603 -3.3482618e-005 0.00098832487 1.019846e-005 0.00030899522
7.0235998e-005 0.00080632517 0.88308012 -0.014525642 -9.8132099e-005 0.0012968964
1.1582098e-005 0.00032308314 -7.6107201e-005 0.0014255259 0.99994946 -0.0030995025
22387.211385683 0.9971025 -0.0053408071 -2.0647862e-005 0.0010395651 1.2720181e-005 0.00033197372
5.9004073e-005 0.0008567482 0.88306516 -0.014475558 -0.00010556803 0.0013789627
8.2513488e-006 0.00035405022 -4.5463043e-005 0.0014844211 0.99988294 -0.0032300192
23713.737056617 0.99687862 -0.005618541 -2.1223832e-005 0.0011235689 -9.2045029e-006 0.00037575525
5.8621416e-005 0.00090300123 0.883057 -0.014604965 -8.587676e-005 0.0014427641
1.3584036e-005 0.00039140077 -4.9060211e-005 0.0015692582 0.99959171 -0.0031825211
25118.864315096 0.9970696 -0.0059030661 -4.7244313e-005 0.0011691838 4.3191949e-006 0.00040827924
5.7289912e-005 0.00094912702 0.88309103 -0.014677661 -8.4510204e-005 0.0015465451
2.3293087e-005 0.00039800708 -5.3651591e-005 0.0016683761 0.99984103 -0.0033412273
26607.250597988 0.99717808 -0.0061833775 -4.3761924e-005 0.001263049 8.5353176e-006 0.00042612525
7.4476578e-005 0.00099525391 0.88311952 -0.014731053 -7.5806973e-005 0.00163713
7.5313019e-006 0.00040600894 -3.7998379e-005 0.0017945704 0.99974656 -0.0035946646
28183.829312645 0.99717391 -0.0066410052 -3.1847401e-005 0.001330888 -1.792126e-006 0.00043495357
7.8567231e-005 0.0010494571 0.88293809 -0.014881409 -8.3927807e-005 0.0017246002
-4.4435683e-006 0.00044515781 -2.8456419e-005 0.0018788178 0.99984115 -0.0035303377
29853.82618918 0.99721593 -0.0070782895 -2.7606848e-005 0.0014035301 -4.0857808e-006 0.00047444346
6.9835805e-005 0.0011249009 0.88301277 -0.014986282 -9.8791737e-005 0.0018533107
2.5015814e-005 0.00047101307 -1.8368082e-005 0.0019921151 0.99968511 -0.0036912183
31622.776601684 0.99705148 -0.0074341251 -1.9775873e-005 0.0015140269 2.1622291e-005 0.00047107576
7.8485886e-005 0.0011869991 0.88285315 -0.015253368 -7.4872842e-005 0.001927889
8.5680758e-006 0.00049212785 -5.7981906e-006 0.0021227016 0.99982142 -0.0041856724
33496.543915783 0.9971208 -0.0078990208 -3.3292257e-005 0.0015859597 3.563141e-006 0.00053657818
7.7879216e-005 0.0012667836 0.88290721 -0.015551211 -8.7959823e-005 0.0020667233
3.5731098e-006 0.00054701138 -1.3881154e-005 0.0022137549 0.99971384 -0.0042689438
35481.338923358 0.99701709 -0.0082564913 -2.8666362e-005 0.0016864802 2.91124e-006 0.00054839964
7.0669834e-005 0.0013331274 0.8826195 -0.015907321 -6.707001e-005 0.0021912458
-1.0195131e-006 0.00053501443 -4.8308466e-005 0.0023793136 0.99984622 -0.004375401
37583.740428844 0.997024 -0.0088148043 -4.405819e-005 0.0017611933 -1.2849352e-005 0.00058563182
9.1736125e-005 0.0013967979 0.8826642 -0.016036024 -7.8108715e-005 0.0023126728
8.6454575e-006 0.00058835087 -2.0895028e-005 0.0025048477 0.99960756 -0.0046261428
39810.71705535 0.99699777 -0.0091947159 -2.7840162e-005 0.0018765198 -5.5295473e-006 0.0006416933
8.7710425e-005 0.0014720607 0.8824411 -0.016642049 -6.9021728e-005 0.0024727741
1.9419553e-005 0.00063804397 -2.1430256e-005 0.002670239 0.99956429 -0.0047897659
42169.650342858 0.99695623 -0.0098594511 -9.6277545e-006 0.0019562517 7.690619e-006 0.0006664503
9.2792834e-005 0.0015505787 0.8823424 -0.016964005 -9.4811665e-005 0.0025937769
1.4311587e-005 0.00064789696 -3.0799154e-005 0.0028171567 0.99961108 -0.0049590403
44668.359215096 0.99706221 -0.010371263 -1.1343362e-005 0.0021130452 -6.8972099e-007 0.00069655076
9.0754242e-005 0.0016698969 0.88197649 -0.017507555 -5.9511665e-005 0.0027424018
-1.6964108e-006 0.00069844536 -1.9769608e-007 0.0029904959 0.99950933 -0.005290417
47315.125896148 0.9970181 -0.010926504 -2.8796174e-005 0.0022218246 1.2238431e-005 0.00075699668
0.00011557664 0.0017698641 0.88179743 -0.018065095 -8.348735e-005 0.0029139086
1.9677873e-005 0.00071855978 9.1856111e-007 0.0031447224 0.99959803 -0.0053895353
50118.723362727 0.99712914 -0.011536016 -2.2107912e-005 0.0023713398 4.999039e-006 0.0007912491
9.4979077e-005 0.0018675001 0.88154954 -0.018620195 -5.7468162e-005 0.0030952045
-4.274189e-006 0.00078737043 2.0759098e-005 0.0033418443 0.99934101 -0.0057688076
53088.444423099 0.99703437 -0.01235472 3.526995e-006 0.0024830168 5.1124368e-007 0.00082316401
0.00010139134 0.0019913933 0.88141245 -0.0192242 -7.6524069e-005 0.0032884814
1.2301509e-005 0.00080476934 8.4796443e-007 0.0035570243 0.99957758 -0.0059450506
56234.132519035 0.99698031 -0.013127119 -1.9183904e-005 0.0026353553 4.099444e-005 0.00087803463
0.00011990329 0.0021042817 0.88092327 -0.020008322 -7.6249562e-005 0.0034627991
2.1967497e-005 0.00088521314 3.4926354e-005 0.0037639162 0.99946254 -0.0062603103
59566.214352901 0.99697411 -0.013801446 -6.3902776e-006 0.0028080533 -1.43975e-007 0.00093465182
9.7604912e-005 0.00223819 0.88079822 -0.020651406 -6.3126812e-005 0.0036896099
1.0773018e-005 0.00091415545 1.7040176e-005 0.0039776401 0.99937004 -0.0065716654
63095.734448019 0.99689883 -0.014616863 1.5856489e-005 0.0029757353 2.8580009e-005 0.00099437032
0.00011375183 0.0023828861 0.88021296 -0.021679442 -4.1386302e-005 0.0038758423
1.2673453e-005 0.00098570646 3.5968435e-005 0.004222523 0.99938267 -0.0069176513
66834.391756861 0.99690181 -0.015318652 -5.4052289e-006 0.0031355754 2.0644438e-005 0.0010505666
0.0001223928 0.0025226299 0.88037038 -0.022362266 -3.9509683e-005 0.0041274042
1.7273731e-005 0.0010481954 5.9490263e-005 0.0044604861 0.9994989 -0.0073987856
70794.578438414 0.9967292 -0.01632745 1.2165235e-005 0.0033449333 1.6284112e-005 0.0010895764
0.00012745883 0.0026652559 0.87963152 -0.023383023 -3.8181843e-005 0.0043720235
2.2160506e-005 0.0010981946 5.197361e-005 0.0047414443 0.99909461 -0.007676845
74989.420933246 0.99680585 -0.017305223 2.5232976e-005 0.003529984 1.0097871e-005 0.0011724391
0.00014816535 0.0028521847 0.87982553 -0.024379702 -1.4932981e-005 0.0046361811
3.888139e-005 0.0011578061 8.002777e-005 0.0050015748 0.99925762 -0.0080558555
79432.823472428 0.99678785 -0.018133327 2.4994903e-005 0.0037456278 2.0701484e-006 0.001250688
0.0001443176 0.0030224205 0.87902701 -0.025209591 -1.2895493e-005 0.0049266522
2.2794862e-005 0.0012332586 0.00010842434 0.0052843587 0.99905545 -0.0084646959
84139.514164519 0.99675173 -0.019162631 3.0293006e-005 0.0039598835 6.2522281e-006 0.0012939082
0.00014358333 0.0032035403 0.87924194 -0.026327044 -6.0269545e-006 0.0052268654
1.6829399e-005 0.00129673 0.00013816907 0.0056259762 0.99894363 -0.0089143086
89125.093813375 0.99675244 -0.02024099 4.3364704e-005 0.0042118994 4.2882525e-006 0.0013890115
0.00015901747 0.0034116632 0.8783775 -0.027592473 1.7496255e-005 0.005535814
3.9389561e-005 0.0013897266 0.00014339133 0.0059118615 0.99906909 -0.0093893455
94406.087628592 0.99689734 -0.0214608 4.8076756e-005 0.0044531026 1.7888799e-005 0.001468077
0.00015826177 0.0036405479 0.87797296 -0.028931836 1.7464363e-005 0.005876312
3.3068387e-005 0.0014520278 0.00015263166 0.0062617268 0.99914545 -0.0097844554
100000 0.99678874 -0.022690075 5.7077803e-005 0.0047273682 2.705189e-005 0.0015628997
0.00016718569 0.0038682655 0.87770206 -0.030347038 4.5127235e-005 0.00619605
2.6577824e-005 0.0015531171 0.00018177104 0.0066653392 0.99893469 -0.010374296
105925.37251773 0.99683893 -0.024046103 8.6161039e-005 0.0050095143 2.4770754e-005 0.0016504986
0.00019447469 0.0041035451 0.87810594 -0.031736534 7.4812364e-005 0.0065947613
5.6175646e-005 0.0016592388 0.00022338337 0.0070360471 0.99903917 -0.010872173
112201.8454302 0.99673736 -0.025565505 0.00011310814 0.0053018006 5.454987e-005 0.0017547995
0.0001849032 0.0043546809 0.87700111 -0.033373903 8.768063e-005 0.0069424408
4.1298837e-005 0.0017204825 0.00026294822 0.0074590985 0.99915415 -0.011539876
118850.2227437 0.99676478 -0.026914826 8.8661218e-005 0.0056319833 3.4157823e-005 0.0018753863
0.00023132221 0.0046495944 0.87740976 -0.035052903 0.0001315328 0.0073850006
6.0476817e-005 0.0018446818 0.00026396164 0.0078988113 0.99909014 -0.012053308
125892.54117942 0.99678093 -0.028386567 0.00010058534 0.0059487871 5.6826255e-005 0.0019573898
0.00023691439 0.0049373689 0.87650812 -0.036822844 0.00015552457 0.0078222109
7.6069846e-005 0.0019364025 0.00032689542 0.0083573665 0.9991892 -0.01286251
133352.14321633 0.99671882 -0.030072676 0.00012753131 0.0063104662 4.605604e-005 0.002092167
0.00026305969 0.0052281222 0.8768965 -0.038804818 0.00017099585 0.0082607269
6.981397e-005 0.0020799285 0.00035923341 0.0088270837 0.9990077 -0.013451928
141253.75446228 0.99663806 -0.031955369 0.00016348247 0.006692145 6.9896072e-005 0.0022169987
0.00025694299 0.0055646384 0.87562913 -0.04088784 0.00022949067 0.0087582627
8.8872541e-005 0.002203234 0.00038125349 0.0093556931 0.99893367 -0.014295815
149623.56560944 0.99660116 -0.033766299 0.00019432172 0.0071069766 6.5204586e-005 0.0023178454
0.0002832328 0.0059218626 0.87626368 -0.043229505 0.0002676991 0.0092767589
8.926967e-005 0.0023249248 0.00046572505 0.0099036982 0.99886209 -0.01520557
158489.31924611 0.99626642 -0.035709448 0.00019420065 0.0074913013 0.00011445944 0.0024874394
0.00031347509 0.0062760613 0.87507015 -0.045369789 0.0003509224 0.0098180464
7.176317e-005 0.0024663506 0.00052962598 0.010476829 0.99884057 -0.015915195
167880.40181226 0.99621493 -0.037941422 0.00026758492 0.0079421988 7.4607196e-005 0.0026043977
0.00034820728 0.0066463128 0.87560844 -0.04795979 0.00036645541 0.01037466
8.4948799e-005 0.002599783 0.00058442098 0.011072512 0.99885678 -0.017120102
177827.94100389 0.99615186 -0.040025245 0.00029588808 0.0084214024 8.1533581e-005 0.002766887
0.00038275711 0.0070747384 0.87412649 -0.050607778 0.00045373462 0.011019965
0.00010944303 0.0027427734 0.0006509443 0.011702497 0.99876368 -0.017953243
188364.90894898 0.99571621 -0.042319484 0.00030315405 0.0089196805 9.0917689e-005 0.0029242553
0.00041391727 0.0074968548 0.87382609 -0.053382762 0.00053289969 0.011632854
0.00013315615 0.0028999248 0.00074201089 0.012367117 0.99872357 -0.018966693
199526.23149689 0.99577391 -0.045006867 0.00038124123 0.0094580101 9.1337643e-005 0.0030938874
0.00044242377 0.0079687573 0.87352037 -0.056232814 0.000599608 0.012321817
0.00012411905 0.0030696038 0.00081789342 0.013071319 0.99856693 -0.020116858
211348.90398366 0.99573708 -0.047641475 0.00041145016 0.010016517 0.00013860017 0.0032855927
0.00049290183 0.0084485719 0.87427694 -0.05932292 0.00069948792 0.013025152
0.00015554715 0.0032494671 0.00092135184 0.013864112 0.99844551 -0.021203684
223872.11385683 0.9954918 -0.050391715 0.00046854466 0.0106001 0.00014477351 0.0034729501
0.00055809569 0.0089635905 0.87285346 -0.062941633 0.0007491323 0.013798779
0.00014219948 0.0034327025 0.0010108621 0.014637722 0.99847639 -0.02223539
237137.37056617 0.99536669 -0.053317931 0.00052696432 0.011233239 0.00014813719 0.0036656708
0.00060584233 0.0095089599 0.87342501 -0.06647718 0.000865724 0.014572086
0.00016058378 0.0036446746 0.0011230203 0.015478581 0.99834961 -0.023511389
251188.64315096 0.99534422 -0.056416892 0.00061412918 0.011920117 0.00017323483 0.0038764405
0.00066039694 0.010063061 0.87190211 -0.07013493 0.00097298529 0.015418414
0.0001811299 0.0038597125 0.0012382426 0.016356139 0.99837106 -0.025099738
266072.50597988 0.99496406 -0.059788764 0.00070478139 0.012629213 0.00018962209 0.0041166111
0.00075066357 0.010696854 0.8725245 -0.074164741 0.0011203442 0.016300976
0.00020620204 0.0040594898 0.0014012938 0.017319322 0.99808586 -0.026424788
281838.29312645 0.9946546 -0.063313685 0.00077862333 0.01336255 0.00022397925 0.0043513188
0.00081934041 0.011345078 0.87089181 -0.078325815 0.0012455843 0.017221447
0.00022357074 0.0043115071 0.0015458788 0.0182858 0.99799013 -0.027780402
298538.2618918 0.99438226 -0.066961005 0.00088857202 0.014159178 0.00021090583 0.0045825276
0.00092093938 0.012029964 0.87159795 -0.082869135 0.0013997426 0.018192342
0.00026870644 0.004525559 0.0017265015 0.019337062 0.99785417 -0.029516794
316227.76601684 0.99413073 -0.070962183 0.0010128634 0.014976107 0.00024155545 0.0048272903
0.0010222057 0.01274647 0.86967611 -0.087578468 0.0015580317 0.01925917
0.00028335018 0.0048119356 0.0018874399 0.020420233 0.99754918 -0.030985489
334965.43915783 0.99372673 -0.075248159 0.0011499454 0.015867803 0.00026305226 0.0051217782
0.0011428258 0.013499324 0.87035602 -0.092546739 0.0017185351 0.020347513
0.00030087042 0.0050776158 0.0020875153 0.021561075 0.99739635 -0.033048641
354813.38923358 0.99336815 -0.079560556 0.0012639463 0.016822787 0.00030515084 0.0054090326
0.0012886422 0.014295327 0.86827159 -0.097773299 0.0019290911 0.021493632
0.00032658793 0.0053701387 0.0023153157 0.022789255 0.99732429 -0.034831349
375837.40428844 0.99296999 -0.084128916 0.0014587248 0.017805509 0.00028723353 0.0057486338
0.001444334 0.01515098 0.86743093 -0.10349678 0.0021618463 0.022708904
0.00033915849 0.0056703091 0.0025731395 0.024059171 0.99719453 -0.03673847
398107.1705535 0.99244922 -0.089171834 0.0016643651 0.018867858 0.00033675777 0.006077854
0.0016028901 0.016055113 0.86659986 -0.10952191 0.002382312 0.023999721
0.00040350543 0.0060048411 0.0028161658 0.025414983 0.99677581 -0.039025769
421696.50342858 0.99187714 -0.0943482 0.0018946066 0.01994334 0.00034045745 0.0064132707
0.0017798687 0.016995514 0.86686915 -0.11599088 0.0026321912 0.025352327
0.00043026495 0.0063453917 0.0030935865 0.026868125 0.99676961 -0.041014731
446683.59215096 0.99144953 -0.099905066 0.0021069655 0.021133902 0.00039057466 0.0067747319
0.0020279137 0.018016979 0.8647089 -0.1224053 0.0029252188 0.026811067
0.00045158502 0.0067081088 0.0034202321 0.028356586 0.99631661 -0.043206211
473151.25896148 0.99064046 -0.10566945 0.0023816167 0.022349043 0.00041947546 0.007151498
0.002261223 0.019055411 0.86468714 -0.12943807 0.0032312693 0.028296979
0.00049113692 0.0070964242 0.0037641777 0.029938651 0.9962616 -0.045830958
501187.23362727 0.9897384 -0.11204748 0.0026653472 0.023671668 0.00042774217 0.0075432765
0.0025281517 0.02017818 0.86230648 -0.1366934 0.0035500601 0.029886257
0.00050493231 0.0074967775 0.0041070548 0.031617429 0.99591768 -0.048291977
530884.44423099 0.98876816 -0.11851513 0.0030341491 0.025037555 0.0004640797 0.0080180215
0.0028313096 0.021342384 0.86216092 -0.14461388 0.0039636595 0.031578977
0.00057460513 0.0079478109 0.0045308033 0.033406943 0.99577856 -0.051101997
562341.32519035 0.98792773 -0.12535423 0.0033892358 0.026488066 0.00050179567 0.0084630447
0.0031981927 0.022594323 0.85925591 -0.15269709 0.0043347538 0.033344142
0.00062491716 0.0083952881 0.0049691577 0.035254706 0.99552518 -0.054078043
595662.14352901 0.9869135 -0.13250843 0.0038392921 0.028061338 0.00054382271 0.0089476267
0.0035850452 0.023864821 0.85880601 -0.16181363 0.0048107887 0.035197504
0.00068295916 0.0088728825 0.0054720645 0.037225269 0.99516821 -0.05725503
630957.34448019 0.98591977 -0.14021738 0.004288157 0.029622668 0.00058296125 0.0094657214
0.0040064259 0.025241639 0.85572529 -0.17079163 0.0052924519 0.037174594
0.00073308474 0.0093784891 0.0060509951 0.039301082 0.9947958 -0.060266431
668343.91756861 0.98438966 -0.14850836 0.0048485296 0.031326585 0.00063289708 0.010010388
0.0044883103 0.02670783 0.85458159 -0.18091777 0.0058268793 0.039244458
0.00078934128 0.0099209789 0.0066338377 0.041509643 0.99435639 -0.063808009
707945.78438414 0.98286474 -0.15713386 0.0054577235 0.033118162 0.00066056667 0.010605169
0.0050398582 0.028207576 0.85062826 -0.19096036 0.0064571989 0.041448615
0.00087076752 0.010495635 0.0073266653 0.043768406 0.99411952 -0.067570515
749894.20933246 0.98127127 -0.16642876 0.0061188205 0.034991067 0.00070176652 0.011201556
0.0056467955 0.029805167 0.84772974 -0.20167899 0.0071208202 0.043723926
0.00093761308 0.011078282 0.0080403462 0.046185754 0.99332088 -0.071329191
794328.23472428 0.97920251 -0.17610262 0.0068954108 0.036924478 0.00080762268 0.011869406
0.0063169287 0.03144756 0.84550291 -0.21261056 0.0078122797 0.046149321
0.0010330905 0.011751243 0.0088485843 0.048730616 0.99283779 -0.075229563
841395.14164519 0.97719437 -0.1860401 0.0077251536 0.039021775 0.00084854139 0.01257681
0.0070886556 0.033222061 0.843566 -0.22544298 0.0086471699 0.048754241
